!    8/6/2020   01:21:35 
! Ref Plane: 0.000 mm
# MHZ S MA R  50
!
0.3000        0.04797       178.28        9.881E-2      -1.05         9.662E-2      -0.86         0.81661       -0.30          
0.9000        0.04769       178.94        9.491E-2      -0.52         9.538E-2      -0.32         0.81018       -0.45          
1.4999        0.04774       179.07        9.511E-2      -0.36         9.539E-2      -0.41         0.80942       -0.59          
2.0999        0.04772       179.31        9.515E-2      -0.52         9.532E-2      -0.52         0.80952       -0.80          
2.6999        0.04775       179.51        9.521E-2      -0.67         9.531E-2      -0.66         0.80941       -0.97          
3.2999        0.04773       179.77        9.523E-2      -0.76         9.537E-2      -0.82         0.80966       -1.16          
3.8998        0.04784       179.94        9.518E-2      -0.94         9.532E-2      -0.97         0.80957       -1.35          
4.4998        0.04782       -179.85       9.52E-2       -1.07         9.535E-2      -1.08         0.8097        -1.51          
5.0998        0.04791       -179.60       9.519E-2      -1.19         9.536E-2      -1.20         0.80963       -1.69          
5.6997        0.04791       -179.34       9.52E-2       -1.33         9.536E-2      -1.37         0.80984       -1.87          
6.2997        0.04791       -179.21       9.519E-2      -1.49         9.537E-2      -1.49         0.80957       -2.06          
6.8997        0.04797       -179.01       9.522E-2      -1.67         9.533E-2      -1.64         0.80979       -2.24          
7.4996        0.04801       -178.70       9.519E-2      -1.75         9.534E-2      -1.76         0.80979       -2.44          
8.0996        0.04803       -178.53       9.517E-2      -1.93         9.537E-2      -1.92         0.80958       -2.62          
8.6996        0.04803       -178.34       9.52E-2       -2.04         9.534E-2      -2.03         0.80975       -2.78          
9.2996        0.04806       -178.09       9.527E-2      -2.19         9.536E-2      -2.19         0.80991       -2.97          
9.8995        0.04808       -177.87       9.52E-2       -2.35         9.537E-2      -2.33         0.8096        -3.14          
10.4995       0.04811       -177.69       9.517E-2      -2.50         9.537E-2      -2.48         0.80998       -3.32          
11.0995       0.04817       -177.46       9.523E-2      -2.62         9.537E-2      -2.60         0.81005       -3.50          
11.6994       0.04818       -177.24       9.521E-2      -2.75         9.537E-2      -2.74         0.81009       -3.68          
12.2994       0.04821       -177.03       9.518E-2      -2.91         9.535E-2      -2.87         0.81002       -3.85          
12.8994       0.04824       -176.82       9.523E-2      -2.96         9.535E-2      -3.03         0.81          -4.02          
13.4993       0.04824       -176.60       9.531E-2      -3.19         9.534E-2      -3.18         0.81017       -4.21          
14.0993       0.04831       -176.46       9.525E-2      -3.29         9.536E-2      -3.31         0.8102        -4.37          
14.6993       0.04833       -176.17       9.523E-2      -3.48         9.538E-2      -3.45         0.81008       -4.54          
15.2993       0.04835       -176.05       9.521E-2      -3.55         9.534E-2      -3.58         0.81026       -4.73          
15.8992       0.04837       -175.85       9.523E-2      -3.67         9.534E-2      -3.74         0.81037       -4.88          
16.4992       0.04842       -175.67       9.524E-2      -3.84         9.537E-2      -3.90         0.81023       -5.07          
17.0992       0.04846       -175.43       9.526E-2      -3.97         9.537E-2      -4.03         0.81042       -5.25          
17.6991       0.04855       -175.23       9.523E-2      -4.12         9.537E-2      -4.17         0.81034       -5.43          
18.2991       0.04852       -175.07       9.524E-2      -4.26         9.539E-2      -4.31         0.81038       -5.58          
18.8991       0.04857       -174.84       9.527E-2      -4.41         9.538E-2      -4.43         0.81073       -5.75          
19.4990       0.04859       -174.66       9.531E-2      -4.57         9.539E-2      -4.57         0.81073       -5.93          
20.0990       0.04862       -174.40       9.526E-2      -4.67         9.54E-2       -4.73         0.8106        -6.11          
20.6990       0.04868       -174.25       9.531E-2      -4.85         9.544E-2      -4.86         0.8107        -6.27          
21.2990       0.04867       -173.99       9.526E-2      -4.99         9.543E-2      -4.99         0.81056       -6.44          
21.8989       0.0487        -173.85       9.53E-2       -5.12         9.544E-2      -5.14         0.81069       -6.63          
22.4989       0.04876       -173.66       9.527E-2      -5.28         9.549E-2      -5.27         0.81074       -6.79          
23.0989       0.04884       -173.49       9.528E-2      -5.39         9.548E-2      -5.42         0.81094       -6.98          
23.6988       0.04881       -173.25       9.534E-2      -5.52         9.546E-2      -5.55         0.81057       -7.14          
24.2988       0.04882       -173.10       9.529E-2      -5.65         9.543E-2      -5.69         0.81061       -7.31          
24.8988       0.04891       -172.88       9.531E-2      -5.81         9.545E-2      -5.84         0.81049       -7.48          
25.4987       0.04893       -172.73       9.533E-2      -5.93         9.542E-2      -5.99         0.81051       -7.65          
26.0987       0.04899       -172.50       9.528E-2      -6.09         9.546E-2      -6.11         0.8104        -7.82          
26.6987       0.04905       -172.33       9.528E-2      -6.22         9.544E-2      -6.24         0.81027       -7.98          
27.2987       0.04905       -172.11       9.537E-2      -6.34         9.543E-2      -6.38         0.81007       -8.16          
27.8986       0.04909       -171.94       9.533E-2      -6.51         9.544E-2      -6.52         0.80989       -8.31          
28.4986       0.04914       -171.73       9.535E-2      -6.64         9.545E-2      -6.68         0.80983       -8.50          
29.0986       0.04918       -171.67       9.535E-2      -6.76         9.546E-2      -6.81         0.80966       -8.66          
29.6985       0.04926       -171.46       9.533E-2      -6.90         9.544E-2      -6.93         0.80956       -8.84          
30.2985       0.04923       -171.25       9.531E-2      -7.06         9.546E-2      -7.10         0.80928       -9.01          
30.8985       0.04928       -171.04       9.535E-2      -7.20         9.542E-2      -7.21         0.80932       -9.19          
31.4984       0.04935       -170.87       9.53E-2       -7.31         9.541E-2      -7.34         0.80929       -9.35          
32.0984       0.04936       -170.75       9.535E-2      -7.48         9.548E-2      -7.48         0.80924       -9.52          
32.6984       0.0494        -170.54       9.533E-2      -7.60         9.547E-2      -7.61         0.80917       -9.68          
33.2984       0.04944       -170.40       9.535E-2      -7.74         9.544E-2      -7.76         0.80907       -9.83          
33.8983       0.04947       -170.25       9.539E-2      -7.85         9.546E-2      -7.90         0.80923       -9.99          
34.4983       0.04953       -170.03       9.536E-2      -7.99         9.55E-2       -8.01         0.8094        -10.14         
35.0983       0.04953       -169.91       9.54E-2       -8.14         9.549E-2      -8.19         0.80943       -10.32         
35.6982       0.04958       -169.74       9.54E-2       -8.27         9.545E-2      -8.31         0.8096        -10.48         
36.2982       0.04964       -169.53       9.541E-2      -8.43         9.546E-2      -8.47         0.80956       -10.67         
36.8982       0.04966       -169.35       9.538E-2      -8.56         9.549E-2      -8.61         0.80952       -10.84         
37.4981       0.04973       -169.26       9.545E-2      -8.71         9.552E-2      -8.75         0.80942       -11.01         
38.0981       0.04976       -169.07       9.544E-2      -8.80         9.55E-2       -8.90         0.80943       -11.20         
38.6981       0.04978       -168.89       9.546E-2      -8.94         9.548E-2      -9.04         0.8094        -11.37         
39.2981       0.04982       -168.76       9.545E-2      -9.09         9.546E-2      -9.16         0.80941       -11.54         
39.8980       0.04985       -168.60       9.542E-2      -9.27         9.549E-2      -9.35         0.80927       -11.73         
40.4980       0.04986       -168.41       9.548E-2      -9.40         9.55E-2       -9.44         0.80927       -11.88         
41.0980       0.04994       -168.23       9.549E-2      -9.54         9.55E-2       -9.61         0.80899       -12.07         
41.6979       0.04997       -168.10       9.547E-2      -9.67         9.552E-2      -9.74         0.80927       -12.25         
42.2979       0.05005       -167.96       9.546E-2      -9.81         9.554E-2      -9.89         0.80917       -12.45         
42.8979       0.05006       -167.84       9.544E-2      -9.98         9.55E-2       -10.00        0.8093        -12.62         
43.4978       0.05006       -167.70       9.544E-2      -10.10        9.554E-2      -10.16        0.80933       -12.81         
44.0978       0.05014       -167.51       9.547E-2      -10.25        9.555E-2      -10.30        0.80925       -13.00         
44.6978       0.0502        -167.46       9.545E-2      -10.39        9.553E-2      -10.47        0.80942       -13.19         
45.2978       0.05025       -167.28       9.548E-2      -10.54        9.553E-2      -10.57        0.80933       -13.37         
45.8977       0.05033       -167.10       9.546E-2      -10.68        9.556E-2      -10.73        0.80949       -13.55         
46.4977       0.05032       -166.97       9.545E-2      -10.84        9.552E-2      -10.85        0.80952       -13.74         
47.0977       0.05035       -166.80       9.548E-2      -10.96        9.558E-2      -11.02        0.81043       -13.91         
47.6976       0.0504        -166.63       9.549E-2      -11.12        9.551E-2      -11.15        0.81043       -14.08         
48.2976       0.05048       -166.54       9.553E-2      -11.28        9.555E-2      -11.26        0.81048       -14.25         
48.8976       0.05049       -166.37       9.547E-2      -11.42        9.554E-2      -11.44        0.81065       -14.44         
49.4975       0.05058       -166.21       9.547E-2      -11.57        9.561E-2      -11.56        0.81061       -14.60         
50.0975       0.05057       -166.08       9.549E-2      -11.70        9.553E-2      -11.72        0.81068       -14.78         
50.6975       0.05061       -165.91       9.545E-2      -11.86        9.558E-2      -11.87        0.81081       -14.97         
51.2975       0.05068       -165.82       9.546E-2      -11.99        9.56E-2       -12.06        0.81088       -15.15         
51.8974       0.05078       -165.69       9.54E-2       -12.12        9.562E-2      -12.19        0.8108        -15.31         
52.4974       0.05153       -165.79       9.546E-2      -12.23        9.631E-2      -12.55        0.80876       -15.50         
53.0974       0.05092       -165.06       9.447E-2      -11.87        9.559E-2      -12.45        0.80837       -15.59         
53.6973       0.05085       -165.20       9.547E-2      -12.58        9.56E-2       -12.59        0.81137       -15.86         
54.2973       0.05093       -165.12       9.548E-2      -12.70        9.56E-2       -12.76        0.81141       -16.03         
54.8973       0.05096       -164.96       9.548E-2      -12.85        9.558E-2      -12.89        0.8114        -16.19         
55.4972       0.05099       -164.87       9.55E-2       -12.98        9.562E-2      -13.02        0.81148       -16.36         
56.0972       0.05104       -164.71       9.551E-2      -13.12        9.559E-2      -13.17        0.81138       -16.54         
56.6972       0.05109       -164.50       9.549E-2      -13.27        9.557E-2      -13.28        0.81139       -16.69         
57.2972       0.05118       -164.37       9.55E-2       -13.42        9.558E-2      -13.42        0.81138       -16.87         
57.8971       0.0512        -164.19       9.552E-2      -13.56        9.561E-2      -13.58        0.81147       -17.03         
58.4971       0.05126       -164.09       9.557E-2      -13.67        9.564E-2      -13.73        0.81164       -17.21         
59.0971       0.05131       -163.97       9.555E-2      -13.82        9.565E-2      -13.87        0.81162       -17.37         
59.6970       0.05135       -163.79       9.555E-2      -13.96        9.567E-2      -13.99        0.81177       -17.55         
60.2970       0.05137       -163.66       9.555E-2      -14.10        9.563E-2      -14.16        0.81179       -17.71         
60.8970       0.05146       -163.50       9.56E-2       -14.26        9.569E-2      -14.31        0.81191       -17.88         
61.4969       0.05148       -163.42       9.556E-2      -14.40        9.569E-2      -14.46        0.81179       -18.06         
62.0969       0.05159       -163.24       9.56E-2       -14.55        9.571E-2      -14.59        0.8117        -18.22         
62.6969       0.05159       -163.16       9.563E-2      -14.67        9.568E-2      -14.75        0.81167       -18.39         
63.2969       0.05169       -163.02       9.56E-2       -14.83        9.573E-2      -14.91        0.81172       -18.57         
63.8968       0.05172       -162.89       9.562E-2      -14.97        9.574E-2      -15.06        0.81173       -18.72         
64.4968       0.05183       -162.75       9.567E-2      -15.13        9.577E-2      -15.21        0.81179       -18.90         
65.0968       0.05184       -162.59       9.566E-2      -15.26        9.579E-2      -15.35        0.81179       -19.06         
65.6967       0.05194       -162.48       9.565E-2      -15.42        9.577E-2      -15.49        0.81185       -19.23         
66.2967       0.05192       -162.39       9.57E-2       -15.55        9.579E-2      -15.65        0.81186       -19.40         
66.8967       0.05199       -162.28       9.567E-2      -15.72        9.578E-2      -15.80        0.81172       -19.58         
67.4966       0.05204       -162.10       9.566E-2      -15.86        9.581E-2      -15.94        0.81175       -19.76         
68.0966       0.05207       -162.02       9.569E-2      -16.03        9.584E-2      -16.09        0.81181       -19.92         
68.6966       0.05217       -161.85       9.569E-2      -16.17        9.583E-2      -16.23        0.81184       -20.07         
69.2966       0.05229       -161.70       9.568E-2      -16.35        9.583E-2      -16.37        0.81179       -20.26         
69.8965       0.05231       -161.58       9.575E-2      -16.51        9.585E-2      -16.54        0.81191       -20.43         
70.4965       0.05234       -161.53       9.573E-2      -16.62        9.583E-2      -16.68        0.81208       -20.60         
71.0965       0.05239       -161.40       9.569E-2      -16.80        9.586E-2      -16.85        0.81217       -20.76         
71.6964       0.05247       -161.28       9.57E-2       -16.97        9.586E-2      -17.01        0.81211       -20.93         
72.2964       0.05252       -161.20       9.576E-2      -17.12        9.578E-2      -17.17        0.81216       -21.09         
72.8964       0.05262       -161.12       9.573E-2      -17.30        9.583E-2      -17.32        0.8122        -21.28         
73.4963       0.0527        -160.95       9.572E-2      -17.46        9.583E-2      -17.48        0.81231       -21.44         
74.0963       0.05272       -160.87       9.575E-2      -17.59        9.586E-2      -17.64        0.81249       -21.61         
74.6963       0.05276       -160.83       9.575E-2      -17.77        9.588E-2      -17.80        0.81234       -21.77         
75.2963       0.05281       -160.66       9.575E-2      -17.94        9.583E-2      -17.95        0.81243       -21.94         
75.8962       0.05291       -160.57       9.574E-2      -18.09        9.586E-2      -18.13        0.81261       -22.11         
76.4962       0.05298       -160.39       9.574E-2      -18.24        9.589E-2      -18.29        0.81284       -22.27         
77.0962       0.05302       -160.36       9.573E-2      -18.40        9.588E-2      -18.43        0.8129        -22.44         
77.6961       0.05308       -160.27       9.574E-2      -18.57        9.589E-2      -18.61        0.81321       -22.61         
78.2961       0.05317       -160.15       9.574E-2      -18.70        9.587E-2      -18.76        0.81329       -22.78         
78.8961       0.05317       -160.08       9.571E-2      -18.91        9.589E-2      -18.92        0.81353       -22.93         
79.4960       0.05325       -159.97       9.573E-2      -19.06        9.589E-2      -19.09        0.81381       -23.09         
80.0960       0.05328       -159.88       9.572E-2      -19.25        9.585E-2      -19.25        0.81391       -23.27         
80.6960       0.05334       -159.82       9.569E-2      -19.40        9.586E-2      -19.41        0.81412       -23.42         
81.2960       0.05339       -159.74       9.572E-2      -19.60        9.585E-2      -19.60        0.81437       -23.58         
81.8959       0.05344       -159.65       9.567E-2      -19.76        9.582E-2      -19.76        0.8147        -23.74         
82.4959       0.05352       -159.56       9.564E-2      -19.91        9.58E-2       -19.95        0.81499       -23.92         
83.0959       0.05354       -159.45       9.563E-2      -20.11        9.576E-2      -20.12        0.81521       -24.06         
83.6958       0.05358       -159.37       9.56E-2       -20.30        9.57E-2       -20.33        0.81553       -24.23         
84.2958       0.05365       -159.27       9.555E-2      -20.50        9.562E-2      -20.48        0.81576       -24.39         
84.8958       0.05366       -159.21       9.551E-2      -20.68        9.562E-2      -20.71        0.81594       -24.55         
85.4957       0.0537        -159.16       9.549E-2      -20.87        9.554E-2      -20.89        0.81643       -24.73         
86.0957       0.05368       -159.07       9.536E-2      -21.06        9.546E-2      -21.11        0.81655       -24.91         
86.6957       0.05368       -158.94       9.526E-2      -21.26        9.536E-2      -21.29        0.81701       -25.07         
87.2957       0.05368       -158.92       9.513E-2      -21.46        9.521E-2      -21.49        0.81748       -25.25         
87.8956       0.05363       -158.87       9.496E-2      -21.64        9.502E-2      -21.66        0.8178        -25.41         
88.4956       0.05363       -158.74       9.477E-2      -21.82        9.486E-2      -21.85        0.81821       -25.57         
89.0956       0.05356       -158.64       9.454E-2      -21.97        9.46E-2       -22.00        0.81874       -25.75         
89.6955       0.05349       -158.50       9.433E-2      -22.11        9.437E-2      -22.14        0.81928       -25.93         
90.2955       0.05339       -158.32       9.401E-2      -22.18        9.405E-2      -22.22        0.81983       -26.14         
90.8955       0.05323       -158.14       9.371E-2      -22.24        9.375E-2      -22.27        0.82008       -26.34         
91.4954       0.05314       -157.81       9.345E-2      -22.22        9.344E-2      -22.26        0.82036       -26.57         
92.0954       0.0531        -157.45       9.322E-2      -22.15        9.324E-2      -22.17        0.82013       -26.77         
