!    8/6/2020   01:20:13 
! Ref Plane: 0.000 mm
# MHZ S MA R  50
!
0.3000        0.04756       178.48        9.88E-2       -1.01         9.664E-2      -0.75         0.81617       -0.28          
0.9000        0.04761       179.03        9.49E-2       -0.49         9.538E-2      -0.26         0.80999       -0.47          
1.4999        0.04773       179.18        9.511E-2      -0.33         9.538E-2      -0.33         0.80955       -0.62          
2.0999        0.04771       179.42        9.514E-2      -0.47         9.534E-2      -0.41         0.80956       -0.83          
2.6999        0.04777       179.63        9.517E-2      -0.58         9.538E-2      -0.54         0.8096        -1.00          
3.2999        0.04775       179.91        9.524E-2      -0.68         9.534E-2      -0.70         0.80963       -1.19          
3.8998        0.04785       -179.89       9.517E-2      -0.81         9.534E-2      -0.81         0.80958       -1.38          
4.4998        0.04781       -179.67       9.516E-2      -0.95         9.534E-2      -0.91         0.80963       -1.55          
5.0998        0.04792       -179.36       9.519E-2      -1.03         9.533E-2      -1.01         0.80962       -1.73          
5.6997        0.04788       -179.12       9.52E-2       -1.16         9.537E-2      -1.17         0.8098        -1.92          
6.2997        0.04792       -178.99       9.518E-2      -1.31         9.533E-2      -1.28         0.80953       -2.11          
6.8997        0.04797       -178.71       9.52E-2       -1.45         9.531E-2      -1.41         0.80979       -2.29          
7.4996        0.04799       -178.43       9.519E-2      -1.52         9.535E-2      -1.49         0.80982       -2.49          
8.0996        0.04804       -178.24       9.516E-2      -1.67         9.535E-2      -1.66         0.80952       -2.68          
8.6996        0.04803       -178.02       9.521E-2      -1.77         9.533E-2      -1.74         0.80974       -2.85          
9.2996        0.04804       -177.75       9.525E-2      -1.93         9.536E-2      -1.89         0.80988       -3.04          
9.8995        0.04807       -177.52       9.52E-2       -2.05         9.535E-2      -2.01         0.80958       -3.21          
10.4995       0.04813       -177.30       9.519E-2      -2.17         9.536E-2      -2.15         0.80995       -3.39          
11.0995       0.04816       -177.05       9.519E-2      -2.27         9.534E-2      -2.25         0.81003       -3.57          
11.6994       0.04817       -176.82       9.519E-2      -2.38         9.533E-2      -2.36         0.81005       -3.76          
12.2994       0.04818       -176.58       9.519E-2      -2.53         9.531E-2      -2.47         0.81          -3.94          
12.8994       0.04823       -176.37       9.523E-2      -2.57         9.534E-2      -2.61         0.80997       -4.11          
13.4993       0.04821       -176.10       9.527E-2      -2.77         9.53E-2       -2.75         0.81013       -4.31          
14.0993       0.0483        -175.94       9.523E-2      -2.85         9.53E-2       -2.87         0.81016       -4.47          
14.6993       0.04831       -175.66       9.518E-2      -3.02         9.534E-2      -2.99         0.81005       -4.65          
15.2993       0.04833       -175.48       9.52E-2       -3.06         9.531E-2      -3.09         0.81019       -4.83          
15.8992       0.04836       -175.26       9.522E-2      -3.20         9.53E-2       -3.23         0.81026       -4.99          
16.4992       0.04841       -175.05       9.519E-2      -3.34         9.534E-2      -3.37         0.81011       -5.19          
17.0992       0.04844       -174.79       9.523E-2      -3.43         9.531E-2      -3.48         0.81036       -5.37          
17.6991       0.04853       -174.54       9.519E-2      -3.57         9.532E-2      -3.61         0.81026       -5.56          
18.2991       0.04853       -174.39       9.519E-2      -3.70         9.532E-2      -3.72         0.81028       -5.71          
18.8991       0.04855       -174.18       9.52E-2       -3.83         9.533E-2      -3.82         0.81057       -5.88          
19.4990       0.04856       -173.93       9.524E-2      -3.96         9.532E-2      -3.96         0.81057       -6.07          
20.0990       0.0486        -173.68       9.523E-2      -4.06         9.533E-2      -4.07         0.8105        -6.25          
20.6990       0.04863       -173.48       9.523E-2      -4.20         9.533E-2      -4.18         0.81054       -6.42          
21.2990       0.04866       -173.18       9.521E-2      -4.32         9.533E-2      -4.32         0.8104        -6.59          
21.8989       0.0487        -173.07       9.52E-2       -4.43         9.532E-2      -4.43         0.81052       -6.78          
22.4989       0.04875       -172.85       9.516E-2      -4.58         9.539E-2      -4.54         0.81059       -6.95          
23.0989       0.04881       -172.66       9.519E-2      -4.68         9.538E-2      -4.66         0.81072       -7.14          
23.6988       0.0488        -172.36       9.525E-2      -4.77         9.534E-2      -4.79         0.81034       -7.31          
24.2988       0.04882       -172.19       9.519E-2      -4.90         9.533E-2      -4.91         0.8104        -7.48          
24.8988       0.04889       -171.98       9.52E-2       -5.03         9.533E-2      -5.05         0.81027       -7.65          
25.4987       0.04896       -171.79       9.524E-2      -5.10         9.53E-2       -5.17         0.81027       -7.83          
26.0987       0.04897       -171.52       9.516E-2      -5.25         9.533E-2      -5.26         0.81016       -8.01          
26.6987       0.04903       -171.34       9.516E-2      -5.36         9.532E-2      -5.39         0.81002       -8.17          
27.2987       0.04904       -171.10       9.524E-2      -5.49         9.533E-2      -5.50         0.80979       -8.35          
27.8986       0.04907       -170.93       9.522E-2      -5.62         9.531E-2      -5.62         0.8096        -8.51          
28.4986       0.04911       -170.66       9.52E-2       -5.73         9.533E-2      -5.76         0.80961       -8.71          
29.0986       0.04915       -170.57       9.52E-2       -5.83         9.531E-2      -5.89         0.80933       -8.86          
29.6985       0.04924       -170.34       9.52E-2       -5.97         9.529E-2      -5.97         0.80922       -9.05          
30.2985       0.0492        -170.13       9.516E-2      -6.11         9.528E-2      -6.13         0.80894       -9.22          
30.8985       0.04925       -169.89       9.519E-2      -6.23         9.526E-2      -6.21         0.80897       -9.41          
31.4984       0.04932       -169.69       9.516E-2      -6.31         9.522E-2      -6.33         0.8089        -9.57          
32.0984       0.04935       -169.58       9.517E-2      -6.45         9.53E-2       -6.45         0.80889       -9.74          
32.6984       0.04936       -169.35       9.517E-2      -6.55         9.53E-2       -6.55         0.80873       -9.91          
33.2984       0.04941       -169.18       9.518E-2      -6.67         9.527E-2      -6.68         0.80864       -10.07         
33.8983       0.04944       -168.98       9.524E-2      -6.79         9.527E-2      -6.80         0.80878       -10.23         
34.4983       0.0495        -168.76       9.518E-2      -6.90         9.529E-2      -6.90         0.80897       -10.38         
35.0983       0.04949       -168.60       9.521E-2      -7.01         9.528E-2      -7.06         0.80897       -10.57         
35.6982       0.04955       -168.39       9.522E-2      -7.12         9.528E-2      -7.14         0.80912       -10.73         
36.2982       0.04961       -168.21       9.522E-2      -7.25         9.525E-2      -7.30         0.80907       -10.93         
36.8982       0.04962       -168.01       9.52E-2       -7.37         9.524E-2      -7.40         0.80897       -11.10         
37.4981       0.04968       -167.85       9.521E-2      -7.48         9.527E-2      -7.51         0.8089        -11.28         
38.0981       0.04973       -167.67       9.521E-2      -7.59         9.525E-2      -7.65         0.80888       -11.47         
38.6981       0.04973       -167.46       9.52E-2       -7.69         9.524E-2      -7.76         0.80881       -11.65         
39.2981       0.04976       -167.30       9.519E-2      -7.80         9.521E-2      -7.89         0.80878       -11.82         
39.8980       0.04981       -167.11       9.519E-2      -7.96         9.523E-2      -8.05         0.80865       -12.01         
40.4980       0.04982       -166.89       9.518E-2      -8.08         9.524E-2      -8.10         0.80861       -12.17         
41.0980       0.04988       -166.68       9.522E-2      -8.18         9.525E-2      -8.25         0.80837       -12.36         
41.6979       0.04993       -166.54       9.519E-2      -8.29         9.524E-2      -8.36         0.80857       -12.55         
42.2979       0.04999       -166.40       9.517E-2      -8.42         9.528E-2      -8.47         0.80846       -12.74         
42.8979       0.05          -166.19       9.517E-2      -8.56         9.521E-2      -8.58         0.8085        -12.92         
43.4978       0.04999       -166.05       9.517E-2      -8.65         9.525E-2      -8.71         0.80855       -13.11         
44.0978       0.05008       -165.85       9.518E-2      -8.78         9.523E-2      -8.83         0.80843       -13.31         
44.6978       0.05015       -165.76       9.514E-2      -8.91         9.523E-2      -8.97         0.8086        -13.50         
45.2978       0.05019       -165.53       9.518E-2      -9.03         9.521E-2      -9.05         0.8085        -13.69         
45.8977       0.05027       -165.34       9.515E-2      -9.15         9.523E-2      -9.18         0.80864       -13.87         
46.4977       0.05026       -165.21       9.512E-2      -9.28         9.52E-2       -9.29         0.80862       -14.07         
47.0977       0.05024       -164.99       9.514E-2      -9.40         9.527E-2      -9.42         0.80949       -14.24         
47.6976       0.05035       -164.81       9.513E-2      -9.53         9.516E-2      -9.54         0.80952       -14.42         
48.2976       0.05038       -164.69       9.518E-2      -9.65         9.52E-2       -9.64         0.80948       -14.59         
48.8976       0.05044       -164.50       9.512E-2      -9.77         9.519E-2      -9.77         0.80963       -14.78         
49.4975       0.05049       -164.33       9.512E-2      -9.89         9.525E-2      -9.87         0.80953       -14.95         
50.0975       0.05048       -164.18       9.509E-2      -9.99         9.518E-2      -10.01        0.80957       -15.13         
50.6975       0.05057       -163.95       9.511E-2      -10.13        9.522E-2      -10.12        0.80966       -15.32         
51.2975       0.05061       -163.81       9.508E-2      -10.24        9.52E-2       -10.29        0.8097        -15.51         
51.8974       0.0507        -163.68       9.507E-2      -10.35        9.524E-2      -10.39        0.80962       -15.68         
52.4974       0.05143       -163.80       9.506E-2      -10.43        9.592E-2      -10.70        0.80751       -15.87         
53.0974       0.0507        -163.29       9.523E-2      -10.64        9.487E-2      -10.58        0.80705       -15.96         
53.6973       0.05076       -163.12       9.505E-2      -10.70        9.521E-2      -10.75        0.81006       -16.23         
54.2973       0.05083       -163.03       9.506E-2      -10.83        9.52E-2       -10.88        0.81001       -16.41         
54.8973       0.05085       -162.83       9.506E-2      -10.95        9.519E-2      -10.99        0.81002       -16.57         
55.4972       0.0509        -162.71       9.505E-2      -11.06        9.521E-2      -11.09        0.81012       -16.74         
56.0972       0.05096       -162.53       9.507E-2      -11.18        9.517E-2      -11.21        0.80994       -16.92         
56.6972       0.05099       -162.32       9.507E-2      -11.30        9.515E-2      -11.30        0.80989       -17.08         
57.2972       0.05107       -162.15       9.505E-2      -11.41        9.516E-2      -11.41        0.80989       -17.26         
57.8971       0.05109       -161.93       9.504E-2      -11.51        9.516E-2      -11.55        0.80986       -17.43         
58.4971       0.05117       -161.82       9.51E-2       -11.63        9.518E-2      -11.70        0.81007       -17.62         
59.0971       0.05119       -161.70       9.507E-2      -11.76        9.518E-2      -11.78        0.80998       -17.78         
59.6970       0.05124       -161.45       9.506E-2      -11.87        9.522E-2      -11.90        0.81016       -17.96         
60.2970       0.05125       -161.30       9.504E-2      -11.99        9.515E-2      -12.03        0.81016       -18.13         
60.8970       0.05134       -161.10       9.508E-2      -12.13        9.521E-2      -12.17        0.81022       -18.31         
61.4969       0.05133       -160.99       9.506E-2      -12.25        9.517E-2      -12.30        0.81004       -18.49         
62.0969       0.05142       -160.79       9.507E-2      -12.36        9.519E-2      -12.39        0.80994       -18.66         
62.6969       0.05145       -160.71       9.507E-2      -12.46        9.512E-2      -12.54        0.80986       -18.83         
63.2969       0.05155       -160.51       9.507E-2      -12.59        9.515E-2      -12.63        0.80992       -19.01         
63.8968       0.05157       -160.36       9.505E-2      -12.69        9.513E-2      -12.76        0.80983       -19.16         
64.4968       0.05164       -160.18       9.505E-2      -12.83        9.517E-2      -12.89        0.80983       -19.35         
65.0968       0.05166       -160.03       9.503E-2      -12.94        9.516E-2      -13.01        0.80983       -19.52         
65.6967       0.05177       -159.84       9.505E-2      -13.06        9.516E-2      -13.12        0.80987       -19.68         
66.2967       0.05178       -159.69       9.504E-2      -13.16        9.513E-2      -13.25        0.80981       -19.86         
66.8967       0.05182       -159.57       9.502E-2      -13.28        9.513E-2      -13.36        0.80962       -20.05         
67.4966       0.05187       -159.36       9.502E-2      -13.40        9.513E-2      -13.48        0.8096        -20.23         
68.0966       0.05189       -159.24       9.502E-2      -13.52        9.516E-2      -13.57        0.80961       -20.40         
68.6966       0.05196       -159.03       9.502E-2      -13.63        9.517E-2      -13.69        0.80962       -20.56         
69.2966       0.05208       -158.87       9.502E-2      -13.76        9.518E-2      -13.81        0.80953       -20.76         
69.8965       0.05211       -158.72       9.501E-2      -13.89        9.514E-2      -13.91        0.80955       -20.93         
70.4965       0.05214       -158.62       9.502E-2      -13.99        9.513E-2      -14.03        0.80965       -21.11         
71.0965       0.05218       -158.43       9.498E-2      -14.12        9.515E-2      -14.14        0.80966       -21.27         
71.6964       0.05226       -158.26       9.496E-2      -14.24        9.514E-2      -14.28        0.80955       -21.44         
72.2964       0.0523        -158.15       9.501E-2      -14.36        9.509E-2      -14.40        0.80956       -21.61         
72.8964       0.05239       -158.06       9.501E-2      -14.51        9.512E-2      -14.52        0.80952       -21.80         
73.4963       0.05248       -157.83       9.498E-2      -14.64        9.509E-2      -14.64        0.80954       -21.97         
74.0963       0.05249       -157.71       9.499E-2      -14.74        9.512E-2      -14.75        0.80962       -22.16         
74.6963       0.05253       -157.62       9.496E-2      -14.86        9.512E-2      -14.86        0.8094        -22.31         
75.2963       0.05259       -157.40       9.495E-2      -14.97        9.507E-2      -14.97        0.80945       -22.49         
75.8962       0.05263       -157.27       9.498E-2      -15.10        9.511E-2      -15.11        0.80952       -22.66         
76.4962       0.05273       -157.07       9.499E-2      -15.20        9.511E-2      -15.22        0.80972       -22.84         
77.0962       0.0528        -156.98       9.497E-2      -15.32        9.509E-2      -15.33        0.80968       -23.01         
77.6961       0.05285       -156.83       9.492E-2      -15.46        9.512E-2      -15.48        0.80989       -23.19         
78.2961       0.05295       -156.67       9.496E-2      -15.54        9.512E-2      -15.55        0.80987       -23.36         
78.8961       0.05296       -156.54       9.494E-2      -15.67        9.512E-2      -15.67        0.80993       -23.53         
79.4960       0.05304       -156.37       9.498E-2      -15.77        9.51E-2       -15.79        0.81012       -23.69         
80.0960       0.05306       -156.23       9.494E-2      -15.91        9.512E-2      -15.90        0.81011       -23.87         
80.6960       0.05313       -156.09       9.498E-2      -16.02        9.509E-2      -16.00        0.8102        -24.03         
81.2960       0.0532        -156.00       9.498E-2      -16.14        9.512E-2      -16.14        0.81032       -24.20         
81.8959       0.05327       -155.84       9.493E-2      -16.24        9.514E-2      -16.24        0.81042       -24.37         
82.4959       0.05334       -155.68       9.493E-2      -16.37        9.512E-2      -16.35        0.81062       -24.55         
83.0959       0.05341       -155.49       9.497E-2      -16.48        9.51E-2       -16.46        0.81066       -24.70         
83.6958       0.05347       -155.36       9.494E-2      -16.58        9.511E-2      -16.61        0.81076       -24.88         
84.2958       0.05354       -155.17       9.495E-2      -16.71        9.508E-2      -16.69        0.81085       -25.04         
84.8958       0.05359       -155.07       9.495E-2      -16.83        9.507E-2      -16.83        0.81078       -25.22         
85.4957       0.05369       -154.92       9.502E-2      -16.94        9.508E-2      -16.96        0.81104       -25.39         
86.0957       0.05372       -154.75       9.50E-2       -17.07        9.507E-2      -17.07        0.81087       -25.58         
86.6957       0.05378       -154.54       9.496E-2      -17.21        9.506E-2      -17.19        0.811         -25.74         
87.2957       0.05385       -154.46       9.50E-2       -17.30        9.509E-2      -17.32        0.81118       -25.92         
87.8956       0.05388       -154.31       9.498E-2      -17.42        9.504E-2      -17.41        0.81115       -26.08         
88.4956       0.05401       -154.12       9.496E-2      -17.52        9.505E-2      -17.54        0.81113       -26.24         
89.0956       0.05407       -153.98       9.497E-2      -17.64        9.503E-2      -17.67        0.81124       -26.40         
89.6955       0.05412       -153.79       9.502E-2      -17.76        9.503E-2      -17.78        0.81135       -26.56         
90.2955       0.05421       -153.66       9.499E-2      -17.87        9.505E-2      -17.88        0.81155       -26.74         
90.8955       0.05427       -153.54       9.502E-2      -17.97        9.502E-2      -17.99        0.81151       -26.91         
91.4954       0.05433       -153.36       9.503E-2      -18.09        9.503E-2      -18.12        0.81165       -27.09         
92.0954       0.05444       -153.24       9.499E-2      -18.22        9.504E-2      -18.22        0.81154       -27.24         
