!    8/6/2020   01:18:44 
! Ref Plane: 0.000 mm
# MHZ S MA R  50
!
0.3000        0.04804       178.30        9.879E-2      -1.00         9.665E-2      -0.93         0.81667       -0.33          
0.9000        0.04765       178.97        9.487E-2      -0.42         9.538E-2      -0.35         0.81001       -0.45          
1.4999        0.04775       179.12        9.509E-2      -0.23         9.541E-2      -0.41         0.80951       -0.61          
2.0999        0.04773       179.41        9.512E-2      -0.40         9.533E-2      -0.49         0.80954       -0.83          
2.6999        0.04774       179.61        9.518E-2      -0.53         9.533E-2      -0.62         0.80947       -1.02          
3.2999        0.04776       179.92        9.521E-2      -0.60         9.533E-2      -0.75         0.80964       -1.20          
3.8998        0.04784       -179.89       9.517E-2      -0.77         9.532E-2      -0.86         0.80962       -1.40          
4.4998        0.04781       -179.70       9.516E-2      -0.86         9.538E-2      -0.94         0.80971       -1.57          
5.0998        0.04791       -179.36       9.516E-2      -0.97         9.533E-2      -1.05         0.80969       -1.75          
5.6997        0.04787       -179.12       9.517E-2      -1.11         9.534E-2      -1.19         0.80987       -1.94          
6.2997        0.04791       -178.95       9.513E-2      -1.25         9.535E-2      -1.30         0.80962       -2.14          
6.8997        0.04795       -178.70       9.515E-2      -1.40         9.532E-2      -1.40         0.80987       -2.33          
7.4996        0.04799       -178.43       9.516E-2      -1.47         9.531E-2      -1.53         0.80986       -2.53          
8.0996        0.04804       -178.22       9.512E-2      -1.59         9.533E-2      -1.65         0.80968       -2.72          
8.6996        0.04804       -177.97       9.515E-2      -1.69         9.535E-2      -1.73         0.80987       -2.89          
9.2996        0.04805       -177.72       9.521E-2      -1.83         9.538E-2      -1.89         0.81005       -3.07          
9.8995        0.04808       -177.47       9.515E-2      -1.98         9.532E-2      -1.99         0.80971       -3.25          
10.4995       0.04813       -177.27       9.512E-2      -2.08         9.535E-2      -2.12         0.81014       -3.44          
11.0995       0.04817       -177.03       9.515E-2      -2.19         9.534E-2      -2.23         0.81022       -3.62          
11.6994       0.0482        -176.79       9.514E-2      -2.30         9.531E-2      -2.33         0.81027       -3.81          
12.2994       0.04821       -176.55       9.507E-2      -2.40         9.529E-2      -2.44         0.81022       -3.99          
12.8994       0.04824       -176.33       9.515E-2      -2.47         9.529E-2      -2.56         0.81026       -4.16          
13.4993       0.04824       -176.06       9.52E-2       -2.67         9.529E-2      -2.70         0.81041       -4.36          
14.0993       0.04829       -175.91       9.513E-2      -2.73         9.527E-2      -2.82         0.81046       -4.52          
14.6993       0.04832       -175.63       9.51E-2       -2.91         9.531E-2      -2.92         0.81042       -4.70          
15.2993       0.04835       -175.43       9.507E-2      -2.95         9.526E-2      -3.04         0.81059       -4.88          
15.8992       0.04837       -175.21       9.508E-2      -3.06         9.525E-2      -3.18         0.81071       -5.04          
16.4992       0.04842       -175.03       9.509E-2      -3.20         9.525E-2      -3.31         0.8106        -5.23          
17.0992       0.04845       -174.78       9.512E-2      -3.30         9.523E-2      -3.40         0.81079       -5.41          
17.6991       0.04853       -174.51       9.508E-2      -3.43         9.521E-2      -3.55         0.8108        -5.60          
18.2991       0.04853       -174.33       9.506E-2      -3.55         9.524E-2      -3.63         0.81088       -5.75          
18.8991       0.04854       -174.14       9.51E-2       -3.68         9.525E-2      -3.73         0.81122       -5.92          
19.4990       0.04858       -173.85       9.513E-2      -3.78         9.522E-2      -3.85         0.81127       -6.11          
20.0990       0.04862       -173.62       9.507E-2      -3.89         9.523E-2      -3.98         0.81119       -6.29          
20.6990       0.04868       -173.44       9.509E-2      -4.02         9.525E-2      -4.07         0.81123       -6.45          
21.2990       0.04867       -173.16       9.505E-2      -4.14         9.523E-2      -4.19         0.81123       -6.62          
21.8989       0.04872       -173.02       9.506E-2      -4.24         9.521E-2      -4.30         0.81139       -6.81          
22.4989       0.04876       -172.78       9.503E-2      -4.38         9.527E-2      -4.42         0.8115        -6.98          
23.0989       0.04882       -172.60       9.502E-2      -4.47         9.525E-2      -4.53         0.81168       -7.16          
23.6988       0.04882       -172.32       9.505E-2      -4.58         9.52E-2       -4.65         0.81139       -7.33          
24.2988       0.04883       -172.16       9.502E-2      -4.69         9.518E-2      -4.76         0.81144       -7.49          
24.8988       0.04891       -171.94       9.501E-2      -4.81         9.52E-2       -4.89         0.81139       -7.66          
25.4987       0.04895       -171.75       9.505E-2      -4.90         9.515E-2      -5.02         0.81147       -7.83          
26.0987       0.04901       -171.48       9.497E-2      -5.02         9.519E-2      -5.08         0.81144       -8.01          
26.6987       0.04905       -171.29       9.497E-2      -5.11         9.513E-2      -5.20         0.81137       -8.17          
27.2987       0.04906       -171.04       9.504E-2      -5.22         9.515E-2      -5.31         0.81123       -8.34          
27.8986       0.0491        -170.88       9.498E-2      -5.37         9.513E-2      -5.42         0.81108       -8.50          
28.4986       0.04913       -170.61       9.499E-2      -5.47         9.512E-2      -5.55         0.81108       -8.69          
29.0986       0.04918       -170.49       9.499E-2      -5.56         9.511E-2      -5.66         0.81095       -8.83          
29.6985       0.04924       -170.30       9.498E-2      -5.68         9.506E-2      -5.74         0.8109        -9.02          
30.2985       0.04923       -170.08       9.495E-2      -5.79         9.506E-2      -5.91         0.81068       -9.18          
30.8985       0.04929       -169.82       9.495E-2      -5.92         9.502E-2      -5.97         0.8108        -9.36          
31.4984       0.0493        -169.67       9.491E-2      -6.00         9.50E-2       -6.08         0.81077       -9.51          
32.0984       0.04936       -169.53       9.492E-2      -6.14         9.507E-2      -6.18         0.81083       -9.68          
32.6984       0.0494        -169.26       9.491E-2      -6.22         9.502E-2      -6.30         0.81081       -9.84          
33.2984       0.04944       -169.13       9.493E-2      -6.33         9.50E-2       -6.40         0.81075       -9.99          
33.8983       0.04947       -168.92       9.495E-2      -6.43         9.501E-2      -6.53         0.811         -10.14         
34.4983       0.04953       -168.73       9.494E-2      -6.52         9.504E-2      -6.59         0.81124       -10.29         
35.0983       0.0495        -168.56       9.492E-2      -6.64         9.502E-2      -6.73         0.81134       -10.47         
35.6982       0.04957       -168.36       9.495E-2      -6.73         9.501E-2      -6.81         0.81154       -10.62         
36.2982       0.04962       -168.17       9.494E-2      -6.87         9.497E-2      -6.96         0.81162       -10.81         
36.8982       0.04962       -167.95       9.491E-2      -6.98         9.498E-2      -7.07         0.8116        -10.97         
37.4981       0.0497        -167.77       9.49E-2       -7.05         9.50E-2       -7.16         0.81164       -11.13         
38.0981       0.04973       -167.61       9.492E-2      -7.18         9.498E-2      -7.29         0.81172       -11.32         
38.6981       0.04976       -167.40       9.492E-2      -7.25         9.494E-2      -7.40         0.81173       -11.49         
39.2981       0.04979       -167.23       9.489E-2      -7.36         9.493E-2      -7.52         0.81184       -11.65         
39.8980       0.04982       -167.05       9.488E-2      -7.51         9.493E-2      -7.65         0.81174       -11.83         
40.4980       0.04986       -166.84       9.487E-2      -7.64         9.493E-2      -7.72         0.81189       -11.98         
41.0980       0.04993       -166.62       9.488E-2      -7.71         9.491E-2      -7.83         0.81171       -12.15         
41.6979       0.04995       -166.47       9.487E-2      -7.82         9.491E-2      -7.93         0.81202       -12.33         
42.2979       0.05          -166.34       9.487E-2      -7.92         9.495E-2      -8.06         0.812         -12.51         
42.8979       0.05002       -166.16       9.485E-2      -8.06         9.49E-2       -8.16         0.81219       -12.68         
43.4978       0.05002       -165.99       9.485E-2      -8.14         9.492E-2      -8.25         0.81233       -12.86         
44.0978       0.0501        -165.82       9.485E-2      -8.27         9.491E-2      -8.37         0.81237       -13.04         
44.6978       0.05015       -165.71       9.481E-2      -8.37         9.49E-2       -8.49         0.81261       -13.23         
45.2978       0.0502        -165.49       9.483E-2      -8.48         9.488E-2      -8.55         0.81259       -13.40         
45.8977       0.05028       -165.30       9.479E-2      -8.60         9.491E-2      -8.67         0.81287       -13.56         
46.4977       0.05027       -165.16       9.476E-2      -8.72         9.489E-2      -8.79         0.81298       -13.75         
47.0977       0.05029       -164.95       9.479E-2      -8.82         9.493E-2      -8.90         0.814         -13.91         
47.6976       0.05035       -164.76       9.477E-2      -8.93         9.481E-2      -8.99         0.81412       -14.07         
48.2976       0.05043       -164.63       9.482E-2      -9.05         9.485E-2      -9.10         0.81423       -14.23         
48.8976       0.05043       -164.44       9.479E-2      -9.16         9.483E-2      -9.21         0.81448       -14.40         
49.4975       0.0505        -164.29       9.476E-2      -9.27         9.489E-2      -9.30         0.81449       -14.56         
50.0975       0.05051       -164.15       9.474E-2      -9.35         9.482E-2      -9.43         0.81466       -14.72         
50.6975       0.05055       -163.88       9.472E-2      -9.48         9.486E-2      -9.54         0.81493       -14.90         
51.2975       0.05062       -163.78       9.473E-2      -9.57         9.489E-2      -9.68         0.8151        -15.08         
51.8974       0.05066       -163.64       9.469E-2      -9.68         9.488E-2      -9.77         0.81512       -15.23         
52.4974       0.05143       -163.75       9.464E-2      -9.71         9.566E-2      -10.13        0.81318       -15.40         
53.0974       0.05073       -163.25       9.454E-2      -9.77         9.481E-2      -9.99         0.8129        -15.48         
53.6973       0.05076       -163.09       9.473E-2      -10.00        9.485E-2      -10.09        0.81601       -15.73         
54.2973       0.05083       -163.00       9.47E-2       -10.09        9.486E-2      -10.21        0.81607       -15.90         
54.8973       0.05084       -162.79       9.472E-2      -10.23        9.482E-2      -10.30        0.81626       -16.04         
55.4972       0.05087       -162.65       9.471E-2      -10.30        9.485E-2      -10.39        0.81647       -16.20         
56.0972       0.05093       -162.47       9.473E-2      -10.42        9.483E-2      -10.52        0.81642       -16.37         
56.6972       0.05099       -162.29       9.471E-2      -10.52        9.481E-2      -10.57        0.81655       -16.50         
57.2972       0.05107       -162.10       9.471E-2      -10.61        9.482E-2      -10.69        0.81667       -16.67         
57.8971       0.05106       -161.89       9.473E-2      -10.73        9.483E-2      -10.81        0.81683       -16.82         
58.4971       0.05113       -161.78       9.476E-2      -10.83        9.483E-2      -10.94        0.81713       -16.99         
59.0971       0.05116       -161.59       9.472E-2      -10.94        9.485E-2      -11.03        0.81718       -17.14         
59.6970       0.05121       -161.42       9.474E-2      -11.04        9.486E-2      -11.13        0.81748       -17.30         
60.2970       0.05124       -161.24       9.468E-2      -11.13        9.481E-2      -11.24        0.81759       -17.45         
60.8970       0.05132       -161.05       9.475E-2      -11.27        9.488E-2      -11.36        0.81785       -17.61         
61.4969       0.05132       -160.93       9.474E-2      -11.36        9.484E-2      -11.47        0.81783       -17.77         
62.0969       0.05138       -160.77       9.474E-2      -11.47        9.485E-2      -11.57        0.81788       -17.93         
62.6969       0.0514        -160.66       9.475E-2      -11.56        9.482E-2      -11.70        0.81793       -18.09         
63.2969       0.0515        -160.45       9.472E-2      -11.66        9.485E-2      -11.78        0.81813       -18.25         
63.8968       0.0515        -160.31       9.475E-2      -11.79        9.485E-2      -11.91        0.81819       -18.39         
64.4968       0.05159       -160.11       9.475E-2      -11.89        9.485E-2      -12.02        0.81841       -18.56         
65.0968       0.05163       -159.94       9.472E-2      -12.00        9.489E-2      -12.12        0.81854       -18.70         
65.6967       0.0517        -159.79       9.475E-2      -12.11        9.489E-2      -12.22        0.81874       -18.86         
66.2967       0.05173       -159.64       9.473E-2      -12.19        9.485E-2      -12.33        0.8188        -19.02         
66.8967       0.05176       -159.51       9.474E-2      -12.33        9.486E-2      -12.45        0.81879       -19.18         
67.4966       0.05179       -159.30       9.476E-2      -12.41        9.486E-2      -12.54        0.81889       -19.35         
68.0966       0.05182       -159.18       9.472E-2      -12.53        9.489E-2      -12.63        0.81907       -19.50         
68.6966       0.05191       -158.97       9.475E-2      -12.60        9.487E-2      -12.73        0.81924       -19.64         
69.2966       0.05198       -158.82       9.474E-2      -12.74        9.491E-2      -12.83        0.81924       -19.82         
69.8965       0.05206       -158.67       9.481E-2      -12.87        9.492E-2      -12.94        0.81941       -19.98         
70.4965       0.05207       -158.55       9.476E-2      -12.95        9.487E-2      -13.05        0.81965       -20.14         
71.0965       0.0521        -158.36       9.474E-2      -13.08        9.492E-2      -13.16        0.81986       -20.29         
71.6964       0.05219       -158.18       9.475E-2      -13.17        9.491E-2      -13.26        0.8199        -20.44         
72.2964       0.05222       -158.08       9.477E-2      -13.29        9.486E-2      -13.39        0.82005       -20.59         
72.8964       0.05232       -157.96       9.48E-2       -13.40        9.49E-2       -13.49        0.82022       -20.77         
73.4963       0.05241       -157.76       9.48E-2       -13.53        9.49E-2       -13.59        0.82038       -20.92         
74.0963       0.05239       -157.62       9.479E-2      -13.61        9.491E-2      -13.71        0.82061       -21.08         
74.6963       0.05244       -157.53       9.478E-2      -13.73        9.493E-2      -13.78        0.82051       -21.23         
75.2963       0.0525        -157.35       9.479E-2      -13.83        9.489E-2      -13.90        0.82073       -21.39         
75.8962       0.05254       -157.19       9.479E-2      -13.95        9.494E-2      -14.03        0.82092       -21.54         
76.4962       0.05262       -156.96       9.481E-2      -14.04        9.494E-2      -14.13        0.82125       -21.71         
77.0962       0.0527        -156.89       9.483E-2      -14.14        9.496E-2      -14.23        0.82139       -21.86         
77.6961       0.05274       -156.73       9.479E-2      -14.25        9.496E-2      -14.36        0.82176       -22.02         
78.2961       0.05284       -156.55       9.479E-2      -14.34        9.498E-2      -14.44        0.82185       -22.18         
78.8961       0.05283       -156.43       9.481E-2      -14.47        9.498E-2      -14.54        0.82211       -22.33         
79.4960       0.05295       -156.29       9.485E-2      -14.58        9.502E-2      -14.65        0.82247       -22.48         
80.0960       0.05294       -156.15       9.485E-2      -14.70        9.498E-2      -14.76        0.82259       -22.64         
80.6960       0.05298       -156.02       9.487E-2      -14.78        9.501E-2      -14.83        0.82277       -22.79         
81.2960       0.05303       -155.89       9.485E-2      -14.89        9.502E-2      -14.96        0.82303       -22.94         
81.8959       0.05313       -155.71       9.486E-2      -14.99        9.504E-2      -15.06        0.82333       -23.09         
82.4959       0.0532        -155.55       9.49E-2       -15.11        9.505E-2      -15.16        0.82362       -23.26         
83.0959       0.05325       -155.38       9.489E-2      -15.21        9.505E-2      -15.27        0.82387       -23.39         
83.6958       0.05332       -155.23       9.492E-2      -15.33        9.504E-2      -15.39        0.82413       -23.56         
84.2958       0.05339       -155.05       9.492E-2      -15.44        9.507E-2      -15.48        0.82429       -23.71         
84.8958       0.05344       -154.92       9.492E-2      -15.53        9.504E-2      -15.62        0.82438       -23.86         
85.4957       0.05351       -154.81       9.499E-2      -15.67        9.505E-2      -15.73        0.82473       -24.03         
86.0957       0.05356       -154.63       9.498E-2      -15.76        9.509E-2      -15.85        0.82471       -24.20         
86.6957       0.05361       -154.37       9.501E-2      -15.88        9.508E-2      -15.95        0.82502       -24.35         
87.2957       0.05369       -154.31       9.502E-2      -15.99        9.508E-2      -16.07        0.82529       -24.51         
87.8956       0.05371       -154.17       9.502E-2      -16.10        9.508E-2      -16.16        0.82538       -24.66         
88.4956       0.05384       -153.98       9.50E-2       -16.20        9.51E-2       -16.27        0.82555       -24.81         
89.0956       0.05388       -153.81       9.502E-2      -16.28        9.508E-2      -16.39        0.82576       -24.96         
89.6955       0.05393       -153.62       9.507E-2      -16.41        9.512E-2      -16.50        0.82602       -25.11         
90.2955       0.05401       -153.52       9.509E-2      -16.49        9.514E-2      -16.58        0.8263        -25.28         
90.8955       0.05405       -153.39       9.51E-2       -16.62        9.514E-2      -16.69        0.82643       -25.43         
91.4954       0.05414       -153.22       9.515E-2      -16.73        9.511E-2      -16.82        0.82665       -25.60         
92.0954       0.05421       -153.02       9.512E-2      -16.86        9.515E-2      -16.93        0.82664       -25.74         
