!    8/6/2020   01:19:22 
! Ref Plane: 0.000 mm
# MHZ S MA R  50
!
0.3000        0.0479        178.46        9.879E-2      -1.10         9.666E-2      -0.83         0.81608       -0.32          
0.9000        0.04766       179.00        9.488E-2      -0.51         9.543E-2      -0.30         0.81046       -0.49          
1.4999        0.04774       179.15        9.508E-2      -0.35         9.534E-2      -0.39         0.80958       -0.64          
2.0999        0.04773       179.36        9.511E-2      -0.52         9.532E-2      -0.47         0.80965       -0.85          
2.6999        0.04777       179.56        9.516E-2      -0.65         9.529E-2      -0.61         0.80945       -1.02          
3.2999        0.04775       179.84        9.517E-2      -0.73         9.53E-2       -0.76         0.80967       -1.20          
3.8998        0.04784       -179.97       9.514E-2      -0.88         9.528E-2      -0.90         0.80965       -1.40          
4.4998        0.04778       -179.75       9.516E-2      -1.01         9.531E-2      -0.98         0.8097        -1.56          
5.0998        0.04789       -179.41       9.515E-2      -1.11         9.528E-2      -1.10         0.80969       -1.74          
5.6997        0.04787       -179.20       9.514E-2      -1.25         9.533E-2      -1.25         0.80988       -1.93          
6.2997        0.04789       -179.08       9.514E-2      -1.38         9.531E-2      -1.37         0.80959       -2.12          
6.8997        0.04794       -178.84       9.516E-2      -1.52         9.528E-2      -1.48         0.80983       -2.30          
7.4996        0.04799       -178.52       9.513E-2      -1.62         9.526E-2      -1.61         0.80985       -2.50          
8.0996        0.04803       -178.30       9.511E-2      -1.77         9.531E-2      -1.74         0.80961       -2.68          
8.6996        0.04803       -178.09       9.513E-2      -1.85         9.53E-2       -1.85         0.80982       -2.85          
9.2996        0.04803       -177.85       9.52E-2       -2.00         9.53E-2       -2.02         0.80999       -3.03          
9.8995        0.04805       -177.60       9.516E-2      -2.14         9.53E-2       -2.12         0.80965       -3.21          
10.4995       0.04809       -177.43       9.513E-2      -2.27         9.529E-2      -2.25         0.81002       -3.39          
11.0995       0.04814       -177.19       9.514E-2      -2.39         9.532E-2      -2.36         0.81017       -3.57          
11.6994       0.04816       -176.93       9.515E-2      -2.49         9.527E-2      -2.47         0.81021       -3.75          
12.2994       0.04819       -176.72       9.511E-2      -2.62         9.525E-2      -2.60         0.81012       -3.93          
12.8994       0.04821       -176.49       9.516E-2      -2.68         9.529E-2      -2.74         0.81012       -4.10          
13.4993       0.04821       -176.27       9.524E-2      -2.88         9.526E-2      -2.89         0.81028       -4.30          
14.0993       0.04827       -176.07       9.517E-2      -2.98         9.526E-2      -3.01         0.81028       -4.45          
14.6993       0.0483        -175.82       9.511E-2      -3.17         9.529E-2      -3.13         0.81025       -4.63          
15.2993       0.04831       -175.64       9.511E-2      -3.21         9.524E-2      -3.23         0.81038       -4.82          
15.8992       0.04835       -175.41       9.513E-2      -3.33         9.524E-2      -3.38         0.81047       -4.97          
16.4992       0.04841       -175.24       9.513E-2      -3.48         9.53E-2       -3.53         0.81034       -5.17          
17.0992       0.04841       -174.99       9.516E-2      -3.58         9.527E-2      -3.61         0.81054       -5.34          
17.6991       0.04852       -174.74       9.515E-2      -3.70         9.526E-2      -3.77         0.81048       -5.53          
18.2991       0.04851       -174.57       9.511E-2      -3.84         9.526E-2      -3.88         0.81058       -5.69          
18.8991       0.04854       -174.36       9.515E-2      -3.98         9.528E-2      -3.99         0.81086       -5.85          
19.4990       0.04855       -174.13       9.52E-2       -4.10         9.529E-2      -4.14         0.81084       -6.04          
20.0990       0.0486        -173.87       9.514E-2      -4.22         9.528E-2      -4.25         0.81079       -6.22          
20.6990       0.04863       -173.67       9.517E-2      -4.38         9.53E-2       -4.37         0.81087       -6.39          
21.2990       0.04861       -173.43       9.512E-2      -4.48         9.525E-2      -4.49         0.8107        -6.55          
21.8989       0.04867       -173.28       9.516E-2      -4.61         9.53E-2       -4.61         0.8109        -6.74          
22.4989       0.04871       -173.04       9.512E-2      -4.75         9.533E-2      -4.73         0.81089       -6.91          
23.0989       0.04879       -172.90       9.514E-2      -4.87         9.532E-2      -4.87         0.81109       -7.10          
23.6988       0.04878       -172.61       9.517E-2      -4.95         9.529E-2      -4.99         0.81071       -7.26          
24.2988       0.04882       -172.44       9.512E-2      -5.08         9.528E-2      -5.11         0.81081       -7.43          
24.8988       0.04888       -172.23       9.511E-2      -5.22         9.529E-2      -5.26         0.81066       -7.61          
25.4987       0.04893       -172.04       9.517E-2      -5.31         9.525E-2      -5.38         0.81074       -7.78          
26.0987       0.04896       -171.78       9.507E-2      -5.46         9.529E-2      -5.47         0.81061       -7.95          
26.6987       0.04902       -171.61       9.508E-2      -5.56         9.525E-2      -5.60         0.81045       -8.11          
27.2987       0.04903       -171.37       9.517E-2      -5.68         9.526E-2      -5.72         0.81034       -8.29          
27.8986       0.04908       -171.20       9.513E-2      -5.83         9.525E-2      -5.84         0.8101        -8.45          
28.4986       0.04912       -170.95       9.515E-2      -5.95         9.528E-2      -5.97         0.81011       -8.64          
29.0986       0.04912       -170.86       9.514E-2      -6.06         9.526E-2      -6.11         0.8099        -8.80          
29.6985       0.04921       -170.67       9.512E-2      -6.16         9.52E-2       -6.20         0.80977       -8.98          
30.2985       0.04921       -170.44       9.509E-2      -6.33         9.523E-2      -6.35         0.80955       -9.15          
30.8985       0.04927       -170.20       9.512E-2      -6.44         9.52E-2       -6.45         0.80959       -9.33          
31.4984       0.04931       -170.04       9.508E-2      -6.54         9.516E-2      -6.57         0.80953       -9.49          
32.0984       0.04934       -169.90       9.513E-2      -6.70         9.524E-2      -6.69         0.8095        -9.66          
32.6984       0.04936       -169.68       9.511E-2      -6.80         9.523E-2      -6.81         0.80942       -9.83          
33.2984       0.04941       -169.52       9.509E-2      -6.91         9.518E-2      -6.93         0.80935       -9.98          
33.8983       0.04944       -169.33       9.515E-2      -7.03         9.52E-2       -7.05         0.8095        -10.13         
34.4983       0.0495        -169.12       9.511E-2      -7.13         9.521E-2      -7.16         0.80969       -10.29         
35.0983       0.0495        -168.95       9.514E-2      -7.25         9.521E-2      -7.31         0.80974       -10.47         
35.6982       0.04955       -168.75       9.514E-2      -7.37         9.523E-2      -7.40         0.80992       -10.63         
36.2982       0.0496        -168.56       9.512E-2      -7.50         9.52E-2       -7.54         0.80988       -10.82         
36.8982       0.04963       -168.38       9.51E-2       -7.63         9.52E-2       -7.67         0.80982       -10.99         
37.4981       0.04971       -168.23       9.513E-2      -7.73         9.522E-2      -7.77         0.80979       -11.16         
38.0981       0.04973       -168.04       9.516E-2      -7.83         9.519E-2      -7.91         0.80975       -11.35         
38.6981       0.04974       -167.85       9.515E-2      -7.95         9.52E-2       -8.03         0.80978       -11.52         
39.2981       0.04979       -167.70       9.513E-2      -8.08         9.515E-2      -8.15         0.80975       -11.69         
39.8980       0.04983       -167.52       9.514E-2      -8.24         9.518E-2      -8.32         0.8096        -11.88         
40.4980       0.04982       -167.29       9.515E-2      -8.34         9.518E-2      -8.39         0.80964       -12.03         
41.0980       0.0499        -167.11       9.514E-2      -8.46         9.518E-2      -8.52         0.80941       -12.22         
41.6979       0.04993       -166.97       9.512E-2      -8.57         9.517E-2      -8.63         0.80964       -12.40         
42.2979       0.05001       -166.84       9.51E-2       -8.69         9.521E-2      -8.79         0.80956       -12.59         
42.8979       0.05002       -166.64       9.512E-2      -8.83         9.516E-2      -8.87         0.80966       -12.77         
43.4978       0.05003       -166.50       9.512E-2      -8.92         9.52E-2       -9.00         0.80976       -12.95         
44.0978       0.05012       -166.33       9.512E-2      -9.06         9.518E-2      -9.13         0.80967       -13.14         
44.6978       0.05016       -166.21       9.507E-2      -9.17         9.518E-2      -9.26         0.80982       -13.33         
45.2978       0.05022       -166.04       9.512E-2      -9.31         9.515E-2      -9.35         0.80972       -13.52         
45.8977       0.05028       -165.82       9.511E-2      -9.42         9.517E-2      -9.49         0.80989       -13.69         
46.4977       0.05027       -165.69       9.506E-2      -9.56         9.518E-2      -9.59         0.80994       -13.88         
47.0977       0.0503        -165.50       9.509E-2      -9.69         9.522E-2      -9.73         0.81087       -14.05         
47.6976       0.05036       -165.29       9.506E-2      -9.81         9.511E-2      -9.84         0.81094       -14.22         
48.2976       0.05042       -165.19       9.514E-2      -9.96         9.515E-2      -9.96         0.81093       -14.39         
48.8976       0.05048       -165.02       9.509E-2      -10.06        9.515E-2      -10.10        0.81114       -14.57         
49.4975       0.05053       -164.83       9.505E-2      -10.21        9.518E-2      -10.19        0.81106       -14.74         
50.0975       0.05055       -164.72       9.507E-2      -10.29        9.513E-2      -10.34        0.81114       -14.91         
50.6975       0.05057       -164.49       9.506E-2      -10.44        9.519E-2      -10.46        0.81126       -15.10         
51.2975       0.05065       -164.35       9.507E-2      -10.55        9.517E-2      -10.63        0.8114        -15.29         
51.8974       0.05074       -164.22       9.502E-2      -10.67        9.519E-2      -10.72        0.81129       -15.45         
52.4974       0.05146       -164.31       9.503E-2      -10.75        9.59E-2       -11.02        0.80931       -15.62         
53.0974       0.05075       -163.88       9.517E-2      -10.94        9.488E-2      -10.91        0.80888       -15.72         
53.6973       0.05082       -163.71       9.502E-2      -11.01        9.516E-2      -11.07        0.81189       -15.98         
54.2973       0.05086       -163.59       9.504E-2      -11.14        9.516E-2      -11.22        0.81187       -16.16         
54.8973       0.05092       -163.42       9.503E-2      -11.28        9.514E-2      -11.32        0.81196       -16.31         
55.4972       0.05095       -163.29       9.504E-2      -11.37        9.516E-2      -11.43        0.81206       -16.48         
56.0972       0.05102       -163.14       9.504E-2      -11.50        9.514E-2      -11.55        0.81192       -16.65         
56.6972       0.05105       -162.93       9.503E-2      -11.62        9.513E-2      -11.65        0.81197       -16.80         
57.2972       0.05114       -162.76       9.502E-2      -11.73        9.516E-2      -11.76        0.81202       -16.98         
57.8971       0.05114       -162.59       9.504E-2      -11.85        9.513E-2      -11.89        0.81204       -17.14         
58.4971       0.05121       -162.47       9.507E-2      -11.98        9.516E-2      -12.05        0.81222       -17.32         
59.0971       0.05124       -162.29       9.508E-2      -12.08        9.517E-2      -12.15        0.81228       -17.48         
59.6970       0.05129       -162.11       9.506E-2      -12.21        9.519E-2      -12.27        0.81238       -17.65         
60.2970       0.05133       -161.93       9.501E-2      -12.32        9.516E-2      -12.37        0.81244       -17.81         
60.8970       0.05141       -161.77       9.507E-2      -12.47        9.52E-2       -12.53        0.81259       -17.98         
61.4969       0.05143       -161.65       9.507E-2      -12.58        9.516E-2      -12.64        0.81249       -18.15         
62.0969       0.0515        -161.46       9.506E-2      -12.70        9.517E-2      -12.76        0.81238       -18.32         
62.6969       0.05151       -161.38       9.507E-2      -12.80        9.511E-2      -12.88        0.81241       -18.48         
63.2969       0.05161       -161.20       9.507E-2      -12.93        9.517E-2      -12.98        0.8125        -18.66         
63.8968       0.05165       -161.05       9.506E-2      -13.05        9.518E-2      -13.14        0.81245       -18.81         
64.4968       0.05172       -160.88       9.506E-2      -13.19        9.517E-2      -13.24        0.81257       -18.99         
65.0968       0.05177       -160.72       9.505E-2      -13.29        9.523E-2      -13.37        0.81259       -19.15         
65.6967       0.05185       -160.55       9.508E-2      -13.41        9.519E-2      -13.48        0.81267       -19.31         
66.2967       0.05187       -160.41       9.508E-2      -13.51        9.518E-2      -13.61        0.81268       -19.48         
66.8967       0.05187       -160.28       9.506E-2      -13.66        9.52E-2       -13.73        0.81258       -19.66         
67.4966       0.05193       -160.10       9.503E-2      -13.77        9.52E-2       -13.86        0.81258       -19.84         
68.0966       0.05197       -159.96       9.506E-2      -13.89        9.52E-2       -13.94        0.81262       -20.00         
68.6966       0.05208       -159.78       9.508E-2      -13.99        9.523E-2      -14.06        0.81274       -20.15         
69.2966       0.05215       -159.63       9.505E-2      -14.14        9.52E-2       -14.17        0.81262       -20.34         
69.8965       0.05222       -159.47       9.51E-2       -14.26        9.52E-2       -14.30        0.81274       -20.51         
70.4965       0.05225       -159.38       9.509E-2      -14.35        9.52E-2       -14.42        0.81292       -20.67         
71.0965       0.05227       -159.22       9.509E-2      -14.49        9.523E-2      -14.53        0.81298       -20.84         
71.6964       0.05238       -159.03       9.507E-2      -14.62        9.521E-2      -14.66        0.8129        -21.00         
72.2964       0.05239       -158.95       9.511E-2      -14.73        9.517E-2      -14.79        0.81299       -21.16         
72.8964       0.05251       -158.84       9.512E-2      -14.88        9.522E-2      -14.90        0.81302       -21.34         
73.4963       0.05258       -158.64       9.509E-2      -15.01        9.522E-2      -15.03        0.8131        -21.50         
74.0963       0.05262       -158.52       9.512E-2      -15.11        9.522E-2      -15.14        0.81325       -21.68         
74.6963       0.05266       -158.44       9.507E-2      -15.24        9.523E-2      -15.26        0.81307       -21.83         
75.2963       0.05273       -158.24       9.507E-2      -15.36        9.521E-2      -15.38        0.81324       -22.01         
75.8962       0.05277       -158.12       9.511E-2      -15.48        9.521E-2      -15.51        0.8133        -22.17         
76.4962       0.05286       -157.90       9.512E-2      -15.58        9.526E-2      -15.63        0.81355       -22.34         
77.0962       0.05294       -157.84       9.51E-2       -15.71        9.525E-2      -15.72        0.8136        -22.50         
77.6961       0.05298       -157.68       9.508E-2      -15.83        9.527E-2      -15.89        0.8139        -22.67         
78.2961       0.05306       -157.50       9.512E-2      -15.93        9.527E-2      -15.97        0.81388       -22.83         
78.8961       0.05312       -157.39       9.511E-2      -16.08        9.528E-2      -16.06        0.81406       -22.99         
79.4960       0.05317       -157.25       9.512E-2      -16.18        9.531E-2      -16.20        0.81434       -23.15         
80.0960       0.0532        -157.10       9.512E-2      -16.31        9.529E-2      -16.32        0.81438       -23.32         
80.6960       0.05328       -156.98       9.513E-2      -16.41        9.529E-2      -16.44        0.81451       -23.47         
81.2960       0.05335       -156.86       9.516E-2      -16.54        9.533E-2      -16.55        0.81471       -23.64         
81.8959       0.05343       -156.74       9.515E-2      -16.65        9.533E-2      -16.67        0.81488       -23.80         
82.4959       0.05352       -156.57       9.516E-2      -16.76        9.532E-2      -16.79        0.8151        -23.97         
83.0959       0.05357       -156.40       9.52E-2       -16.87        9.533E-2      -16.90        0.81524       -24.11         
83.6958       0.05364       -156.28       9.52E-2       -17.00        9.533E-2      -17.03        0.81542       -24.29         
84.2958       0.05369       -156.07       9.52E-2       -17.13        9.533E-2      -17.12        0.81554       -24.44         
84.8958       0.05377       -156.00       9.522E-2      -17.25        9.532E-2      -17.27        0.8156        -24.61         
85.4957       0.05383       -155.88       9.524E-2      -17.37        9.534E-2      -17.41        0.8159        -24.77         
86.0957       0.05388       -155.69       9.527E-2      -17.50        9.532E-2      -17.51        0.81581       -24.95         
86.6957       0.05394       -155.49       9.522E-2      -17.63        9.535E-2      -17.65        0.81607       -25.11         
87.2957       0.05404       -155.44       9.526E-2      -17.74        9.536E-2      -17.78        0.81626       -25.28         
87.8956       0.05404       -155.26       9.525E-2      -17.85        9.535E-2      -17.88        0.8163        -25.43         
88.4956       0.0542        -155.10       9.525E-2      -17.96        9.536E-2      -18.00        0.81638       -25.58         
89.0956       0.05426       -154.94       9.528E-2      -18.08        9.535E-2      -18.14        0.81652       -25.74         
89.6955       0.05431       -154.80       9.533E-2      -18.20        9.534E-2      -18.24        0.81673       -25.90         
90.2955       0.05439       -154.68       9.528E-2      -18.31        9.537E-2      -18.34        0.81699       -26.07         
90.8955       0.05444       -154.57       9.535E-2      -18.45        9.537E-2      -18.47        0.81705       -26.22         
91.4954       0.05453       -154.37       9.537E-2      -18.57        9.535E-2      -18.61        0.81722       -26.40         
92.0954       0.05459       -154.21       9.534E-2      -18.69        9.534E-2      -18.71        0.81718       -26.54         
