!    8/10/2020   02:02:49 
! Ref Plane: 0.000 mm
# MHZ S MA R  50
!
0.3000        0.82185       0.31          4.808E-5      14.52         4.427E-5      98.94         0.99589       -0.40          
0.9000        0.81939       0.39          1.012E-4      -117.88       3.433E-5      -64.03        0.99676       -0.31          
1.4999        0.82048       0.36          5.131E-5      179.39        5.866E-5      15.13         0.99812       -0.31          
2.0999        0.8202        0.33          8.071E-5      -106.60       1.062E-5      117.87        0.99869       -0.25          
2.6999        0.81999       0.27          5.231E-5      -69.32        9.699E-6      -120.67       0.99889       -0.20          
3.2999        0.81996       0.23          3.959E-5      8.36          8.048E-6      42.35         0.99891       -0.16          
3.8998        0.81985       0.19          2.715E-5      -27.01        2.354E-5      -68.39        0.99903       -0.15          
4.4998        0.81968       0.14          3.059E-5      -130.52       2.887E-5      27.37         0.99908       -0.13          
5.0998        0.81959       0.09          4.263E-5      -89.08        1.541E-5      77.30         0.99898       -0.12          
5.6997        0.81947       0.05          3.478E-5      109.32        2.605E-5      -113.42       0.9991        -0.11          
6.2997        0.81948       0.01          6.509E-5      134.83        5.201E-5      45.59         0.99906       -0.10          
6.8997        0.81938       -0.03         3.438E-5      -50.29        3.043E-5      -32.08        0.99911       -0.10          
7.4996        0.81946       -0.07         9.33E-6       21.35         4.224E-5      146.37        0.99914       -0.09          
8.0996        0.81945       -0.11         5.99E-5       -126.52       2.043E-5      -64.64        0.99911       -0.09          
8.6996        0.81937       -0.16         4.166E-5      90.89         2.306E-5      103.63        0.99914       -0.08          
9.2996        0.81933       -0.20         4.755E-5      -41.43        1.586E-5      25.54         0.99918       -0.08          
9.8995        0.81937       -0.24         4.762E-5      -100.37       2.961E-5      92.25         0.9992        -0.08          
10.4995       0.81924       -0.29         3.533E-5      89.69         1.501E-5      -128.79       0.9993        -0.07          
11.0995       0.81921       -0.33         2.722E-5      -51.94        2.669E-5      22.16         0.9992        -0.08          
11.6994       0.81912       -0.36         1.99E-5       153.91        4.854E-6      -10.62        0.99918       -0.07          
12.2994       0.81914       -0.41         9.484E-5      -143.10       2.407E-5      110.50        0.99921       -0.07          
12.8994       0.81918       -0.45         6.595E-5      69.06         3.211E-5      47.96         0.99919       -0.07          
13.4993       0.81911       -0.49         6.568E-5      -25.35        2.74E-5       100.22        0.9993        -0.07          
14.0993       0.8191        -0.53         1.824E-5      73.66         3.379E-5      -79.73        0.99926       -0.07          
14.6993       0.81905       -0.58         9.04E-5       -122.74       2.885E-6      -89.43        0.99923       -0.07          
15.2993       0.81892       -0.61         7.624E-5      120.97        4.864E-5      86.79         0.9993        -0.07          
15.8992       0.81894       -0.66         5.642E-5      48.23         3.182E-5      -136.69       0.9994        -0.07          
16.4992       0.81897       -0.70         3.098E-5      109.71        3.112E-5      -25.60        0.99936       -0.07          
17.0992       0.81887       -0.73         7.229E-5      64.72         1.119E-5      -137.04       0.9994        -0.07          
17.6991       0.81893       -0.76         3.289E-5      123.73        4.403E-6      116.56        0.99932       -0.07          
18.2991       0.81888       -0.81         4.348E-5      144.88        1.649E-5      82.65         0.99931       -0.07          
18.8991       0.8187        -0.86         1.31E-5       -113.53       9.019E-6      93.55         0.99934       -0.07          
19.4990       0.81882       -0.90         3.957E-5      -29.25        2.791E-5      -58.47        0.99937       -0.07          
20.0990       0.81876       -0.94         2.809E-5      -52.32        1.994E-5      -138.50       0.99939       -0.07          
20.6990       0.8188        -0.98         4.085E-5      -52.07        2.699E-5      94.57         0.99939       -0.07          
21.2990       0.81878       -1.02         5.681E-5      -135.81       4.158E-5      27.16         0.99945       -0.07          
21.8989       0.81869       -1.06         3.091E-5      -57.23        2.606E-5      120.75        0.99943       -0.07          
22.4989       0.81871       -1.10         6.741E-5      -130.75       3.222E-5      82.84         0.99942       -0.07          
23.0989       0.81858       -1.14         5.513E-5      104.10        2.801E-5      3.30          0.99947       -0.08          
23.6988       0.81864       -1.18         3.084E-5      96.38         4.575E-5      -7.44         0.99946       -0.08          
24.2988       0.81863       -1.23         3.005E-5      57.71         1.804E-5      -83.67        0.99945       -0.08          
24.8988       0.81864       -1.26         1.037E-5      -140.77       1.525E-5      79.89         0.99944       -0.08          
25.4987       0.81867       -1.29         4.785E-5      31.27         2.272E-5      3.28          0.99943       -0.08          
26.0987       0.8187        -1.33         7.79E-5       155.13        3.789E-5      30.01         0.99943       -0.08          
26.6987       0.81863       -1.38         4.903E-5      -174.12       4.423E-5      105.23        0.99947       -0.08          
27.2987       0.81857       -1.42         5.922E-5      36.32         5.257E-5      37.55         0.99951       -0.09          
27.8986       0.81861       -1.46         4.506E-5      -64.30        3.201E-5      32.48         0.99945       -0.09          
28.4986       0.81854       -1.50         9.194E-6      -71.97        1.148E-5      55.31         0.99954       -0.09          
29.0986       0.81857       -1.54         4.33E-5       38.08         1.862E-5      -58.36        0.99953       -0.09          
29.6985       0.81842       -1.57         3.895E-5      113.64        2.80E-6       74.52         0.9995        -0.09          
30.2985       0.81847       -1.61         6.651E-6      8.02          1.282E-5      -141.66       0.99951       -0.09          
30.8985       0.81849       -1.65         5.844E-5      -47.21        3.868E-5      154.21        0.99947       -0.09          
31.4984       0.81842       -1.68         7.379E-5      78.39         5.171E-5      -146.14       0.99951       -0.09          
32.0984       0.81847       -1.73         3.986E-5      -107.18       2.674E-5      66.84         0.99949       -0.09          
32.6984       0.81841       -1.77         2.157E-5      -129.03       2.454E-5      45.92         0.99952       -0.10          
33.2984       0.81855       -1.81         3.345E-5      -71.84        1.37E-5       -176.78       0.9995        -0.10          
33.8983       0.8185        -1.84         4.681E-5      -24.13        3.00E-5       -51.90        0.99955       -0.10          
34.4983       0.81828       -1.88         7.075E-6      35.10         1.312E-5      135.90        0.99956       -0.09          
35.0983       0.81841       -1.91         2.595E-5      -94.66        3.02E-5       -47.69        0.99952       -0.10          
35.6982       0.8183        -1.94         6.626E-5      -88.94        2.655E-5      139.79        0.99951       -0.10          
36.2982       0.8184        -1.97         3.948E-5      -108.01       1.021E-5      -120.53       0.99955       -0.10          
36.8982       0.81842       -2.02         8.486E-5      -122.86       4.642E-5      22.39         0.99946       -0.10          
37.4981       0.81839       -2.05         2.301E-5      -157.72       2.738E-5      45.51         0.99951       -0.10          
38.0981       0.81835       -2.09         2.086E-5      49.64         4.658E-5      125.71        0.99952       -0.11          
38.6981       0.81835       -2.12         3.323E-5      36.37         1.711E-5      114.55        0.99952       -0.11          
39.2981       0.81835       -2.17         4.606E-5      151.51        7.049E-6      -95.90        0.99952       -0.11          
39.8980       0.8184        -2.19         3.558E-5      -98.31        2.567E-5      -46.35        0.99951       -0.11          
40.4980       0.8183        -2.24         1.987E-5      -103.28       3.694E-5      86.10         0.99957       -0.11          
41.0980       0.81837       -2.29         5.723E-5      -67.66        5.855E-6      -154.54       0.99948       -0.12          
41.6979       0.8183        -2.31         2.397E-5      88.31         3.568E-5      -12.27        0.99962       -0.12          
42.2979       0.81837       -2.35         4.092E-5      58.47         8.669E-6      -26.22        0.99951       -0.12          
42.8979       0.8183        -2.39         3.404E-5      170.69        2.564E-5      120.23        0.99963       -0.12          
43.4978       0.81824       -2.42         5.145E-5      128.14        1.465E-5      169.37        0.99959       -0.12          
44.0978       0.81832       -2.46         2.501E-5      -91.24        1.895E-5      -98.63        0.99963       -0.13          
44.6978       0.81817       -2.48         3.217E-5      170.48        2.19E-5       31.24         0.99954       -0.13          
45.2978       0.81832       -2.53         3.507E-5      6.45          1.161E-5      95.94         0.99963       -0.13          
45.8977       0.81829       -2.57         2.545E-5      139.89        2.375E-5      -44.05        0.99958       -0.13          
46.4977       0.81818       -2.60         3.62E-5       148.37        1.139E-5      141.93        0.99953       -0.13          
47.0977       0.8182        -2.63         6.92E-5       70.73         1.481E-5      -53.46        0.99967       -0.13          
47.6976       0.81809       -2.66         4.22E-5       71.18         6.03E-5       -171.83       0.99973       -0.13          
48.2976       0.81816       -2.70         3.798E-5      17.49         1.794E-5      -176.82       0.99972       -0.14          
48.8976       0.81804       -2.73         4.253E-5      74.97         5.378E-5      -179.28       0.99964       -0.14          
49.4975       0.81807       -2.76         1.438E-5      -15.78        5.655E-5      67.58         0.99966       -0.14          
50.0975       0.81808       -2.81         2.616E-5      47.72         5.078E-5      -126.07       0.99965       -0.14          
50.6975       0.81811       -2.84         1.404E-5      76.71         1.502E-5      -159.62       0.99961       -0.14          
51.2975       0.81806       -2.87         4.71E-5       24.56         1.03E-5       -123.29       0.99962       -0.15          
51.8974       0.81818       -2.91         3.696E-5      67.84         2.094E-5      -172.12       0.99963       -0.15          
52.4974       0.82043       -2.94         3.421E-5      64.96         4.901E-5      21.63         0.99965       -0.15          
53.0974       0.81803       -2.96         1.461E-5      -176.49       1.685E-5      160.97        0.9997        -0.15          
53.6973       0.8181        -3.01         6.624E-5      76.28         1.396E-5      -32.15        0.99971       -0.15          
54.2973       0.81805       -3.04         3.204E-5      109.68        2.664E-5      -110.00       0.99961       -0.16          
54.8973       0.81801       -3.09         4.009E-5      -168.95       1.311E-5      19.47         0.99966       -0.16          
55.4972       0.81798       -3.11         1.75E-5       114.68        2.364E-5      -34.13        0.99967       -0.15          
56.0972       0.81812       -3.15         7.364E-5      35.74         2.867E-5      91.91         0.99965       -0.16          
56.6972       0.81813       -3.19         6.743E-5      -34.59        4.787E-6      58.24         0.99965       -0.16          
57.2972       0.81807       -3.23         7.633E-6      -51.81        1.345E-5      -93.17        0.99974       -0.16          
57.8971       0.8181        -3.26         1.373E-5      23.40         2.935E-5      31.61         0.9997        -0.16          
58.4971       0.81797       -3.29         3.254E-5      -60.87        1.714E-5      33.93         0.99965       -0.16          
59.0971       0.81798       -3.35         3.533E-5      -5.52         7.919E-6      116.64        0.99969       -0.17          
59.6970       0.81797       -3.37         1.592E-5      86.15         3.494E-5      38.84         0.9997        -0.17          
60.2970       0.81793       -3.42         3.099E-5      139.40        2.049E-5      -147.21       0.99969       -0.16          
60.8970       0.81789       -3.44         3.683E-5      -148.59       2.695E-5      -32.96        0.99969       -0.17          
61.4969       0.81787       -3.47         1.225E-5      -157.28       6.773E-6      161.38        0.99964       -0.18          
62.0969       0.81794       -3.51         1.256E-5      6.30          2.756E-5      135.87        0.99968       -0.17          
62.6969       0.81794       -3.55         5.444E-5      -61.55        1.199E-5      -15.11        0.99972       -0.18          
63.2969       0.81786       -3.58         1.408E-5      130.75        3.907E-6      172.13        0.99974       -0.18          
63.8968       0.8177        -3.61         5.609E-5      131.78        1.273E-5      -38.10        0.99969       -0.18          
64.4968       0.81769       -3.65         4.212E-5      -17.02        9.282E-6      153.57        0.99972       -0.18          
65.0968       0.81762       -3.68         4.964E-5      -175.42       5.789E-5      98.69         0.99975       -0.18          
65.6967       0.81765       -3.72         3.317E-5      -42.91        3.078E-5      27.56         0.99972       -0.18          
66.2967       0.81761       -3.75         6.514E-5      -61.52        2.789E-5      -122.90       0.99973       -0.19          
66.8967       0.81768       -3.78         1.756E-5      124.06        4.312E-5      -51.61        0.9997        -0.19          
67.4966       0.81781       -3.82         3.39E-5       98.48         6.117E-6      93.44         0.99966       -0.19          
68.0966       0.8178        -3.85         1.325E-5      -37.29        2.429E-5      102.65        0.99972       -0.19          
68.6966       0.81773       -3.91         3.04E-5       -8.19         6.922E-6      -102.34       0.99971       -0.19          
69.2966       0.81769       -3.93         2.086E-5      35.24         9.695E-6      164.16        0.99976       -0.19          
69.8965       0.81767       -3.97         2.11E-5       -91.47        2.229E-5      77.77         0.99974       -0.19          
70.4965       0.81762       -4.01         2.763E-5      -30.12        1.92E-5       -154.69       0.99974       -0.20          
71.0965       0.81754       -4.04         2.779E-5      -147.66       2.858E-5      123.51        0.99971       -0.20          
71.6964       0.81761       -4.08         1.682E-5      98.09         1.454E-5      142.55        0.99973       -0.20          
72.2964       0.81752       -4.12         5.238E-5      105.09        1.282E-5      -103.35       0.99972       -0.20          
72.8964       0.81746       -4.15         2.023E-5      -146.71       1.949E-5      77.30         0.9998        -0.20          
73.4963       0.81752       -4.19         2.586E-5      -68.84        9.817E-6      -42.47        0.99975       -0.20          
74.0963       0.81749       -4.23         6.208E-5      -124.24       3.93E-5       36.98         0.99975       -0.20          
74.6963       0.81752       -4.27         1.224E-5      97.61         2.38E-5       -41.93        0.99978       -0.20          
75.2963       0.81752       -4.31         3.978E-5      133.39        3.955E-5      -75.71        0.99975       -0.21          
75.8962       0.81744       -4.34         2.636E-5      -168.48       4.138E-5      -152.25       0.99977       -0.20          
76.4962       0.81733       -4.38         1.865E-5      -47.14        2.82E-5       72.52         0.99977       -0.20          
77.0962       0.81737       -4.41         3.214E-5      161.69        1.198E-5      41.97         0.99978       -0.20          
77.6961       0.81727       -4.45         3.405E-5      149.66        2.835E-5      70.09         0.99973       -0.20          
78.2961       0.81731       -4.48         4.958E-5      -1.74         2.902E-5      -150.29       0.99981       -0.20          
78.8961       0.81722       -4.52         4.567E-5      50.28         3.174E-5      -141.48       0.99973       -0.20          
79.4960       0.81714       -4.55         5.858E-5      -152.20       2.151E-5      29.76         0.99978       -0.20          
80.0960       0.81721       -4.59         3.614E-5      50.19         2.089E-5      22.40         0.99974       -0.20          
80.6960       0.81726       -4.62         6.215E-5      -158.56       1.343E-5      -43.74        0.99974       -0.20          
81.2960       0.81712       -4.67         1.569E-5      108.02        1.565E-5      82.86         0.99977       -0.21          
81.8959       0.81707       -4.70         9.696E-6      17.56         2.97E-5       92.04         0.99979       -0.21          
82.4959       0.81712       -4.74         1.392E-5      -10.35        2.091E-5      134.15        0.99975       -0.21          
83.0959       0.81708       -4.78         1.624E-5      -5.42         3.343E-5      -179.13       0.99976       -0.21          
83.6958       0.81698       -4.80         4.981E-5      147.81        1.633E-5      -10.23        0.99971       -0.21          
84.2958       0.81697       -4.85         3.023E-5      -128.40       2.097E-5      -145.51       0.99978       -0.21          
84.8958       0.81701       -4.89         2.85E-5       -72.63        1.937E-5      122.89        0.99976       -0.21          
85.4957       0.81692       -4.92         4.377E-5      -174.78       3.47E-5       62.09         0.99975       -0.22          
86.0957       0.81704       -4.95         1.547E-5      -152.27       1.444E-5      -118.18       0.99968       -0.22          
86.6957       0.81689       -4.99         2.048E-5      -20.95        2.026E-5      -72.78        0.99967       -0.22          
87.2957       0.81686       -5.03         4.067E-5      109.37        2.898E-5      112.97        0.99978       -0.21          
87.8956       0.81693       -5.07         3.013E-5      -22.43        1.178E-5      -89.93        0.99974       -0.22          
88.4956       0.81691       -5.11         5.25E-5       59.15         2.925E-5      -178.15       0.99974       -0.22          
89.0956       0.81685       -5.14         3.771E-5      129.68        5.032E-5      -49.37        0.99974       -0.22          
89.6955       0.81676       -5.18         4.685E-5      117.37        4.343E-5      40.69         0.99972       -0.22          
90.2955       0.81683       -5.22         9.75E-6       -94.40        7.411E-6      -20.62        0.99971       -0.22          
90.8955       0.81672       -5.26         5.744E-5      -125.19       2.30E-5       -165.00       0.99971       -0.22          
91.4954       0.81667       -5.30         6.098E-5      -109.75       3.653E-5      -91.12        0.99973       -0.23          
92.0954       0.8167        -5.34         2.629E-5      155.02        8.834E-6      -30.14        0.99974       -0.23          
