!    8/6/2020   02:10:22 
! Ref Plane: 0.000 mm
# MHZ S MA R  50
!
0.3000        0.04757       178.93        9.891E-2      -1.07         9.649E-2      -0.90         0.81494       -0.40          
0.9000        0.04767       179.07        9.498E-2      -0.53         9.531E-2      -0.28         0.80962       -0.52          
1.4999        0.04777       179.22        9.517E-2      -0.38         9.535E-2      -0.40         0.80912       -0.68          
2.0999        0.04773       179.37        9.515E-2      -0.54         9.536E-2      -0.49         0.80926       -0.88          
2.6999        0.04778       179.57        9.518E-2      -0.68         9.537E-2      -0.66         0.80937       -1.04          
3.2999        0.04778       179.83        9.522E-2      -0.76         9.537E-2      -0.81         0.80942       -1.21          
3.8998        0.04785       180.00        9.518E-2      -0.93         9.534E-2      -0.97         0.80939       -1.40          
4.4998        0.04783       -179.79       9.519E-2      -1.08         9.536E-2      -1.09         0.80947       -1.56          
5.0998        0.04791       -179.50       9.516E-2      -1.18         9.534E-2      -1.21         0.8094        -1.73          
5.6997        0.04789       -179.26       9.519E-2      -1.34         9.54E-2       -1.39         0.80958       -1.91          
6.2997        0.04793       -179.15       9.516E-2      -1.50         9.539E-2      -1.52         0.80937       -2.10          
6.8997        0.04797       -178.93       9.52E-2       -1.65         9.537E-2      -1.65         0.80959       -2.28          
7.4996        0.04802       -178.63       9.519E-2      -1.76         9.539E-2      -1.79         0.80961       -2.48          
8.0996        0.04804       -178.50       9.516E-2      -1.92         9.539E-2      -1.94         0.80942       -2.65          
8.6996        0.04805       -178.29       9.519E-2      -2.03         9.541E-2      -2.06         0.80963       -2.82          
9.2996        0.04809       -178.07       9.523E-2      -2.19         9.541E-2      -2.23         0.80975       -3.00          
9.8995        0.04813       -177.84       9.519E-2      -2.36         9.542E-2      -2.36         0.80938       -3.17          
10.4995       0.04814       -177.68       9.516E-2      -2.49         9.541E-2      -2.53         0.8098        -3.35          
11.0995       0.0482        -177.42       9.522E-2      -2.63         9.543E-2      -2.63         0.80991       -3.53          
11.6994       0.04822       -177.20       9.521E-2      -2.75         9.542E-2      -2.79         0.80994       -3.72          
12.2994       0.04824       -177.00       9.517E-2      -2.90         9.539E-2      -2.92         0.80985       -3.89          
12.8994       0.04825       -176.78       9.522E-2      -2.97         9.541E-2      -3.06         0.80983       -4.06          
13.4993       0.04829       -176.57       9.53E-2       -3.20         9.54E-2       -3.23         0.81          -4.26          
14.0993       0.04836       -176.45       9.523E-2      -3.29         9.54E-2       -3.38         0.80999       -4.41          
14.6993       0.04836       -176.16       9.52E-2       -3.48         9.545E-2      -3.51         0.80993       -4.59          
15.2993       0.04839       -176.00       9.52E-2       -3.56         9.541E-2      -3.65         0.81012       -4.77          
15.8992       0.04842       -175.80       9.526E-2      -3.70         9.542E-2      -3.81         0.81016       -4.93          
16.4992       0.04846       -175.64       9.523E-2      -3.87         9.547E-2      -3.96         0.81006       -5.12          
17.0992       0.04847       -175.40       9.527E-2      -3.99         9.544E-2      -4.09         0.81023       -5.30          
17.6991       0.04858       -175.19       9.526E-2      -4.15         9.543E-2      -4.23         0.81017       -5.49          
18.2991       0.04856       -175.07       9.525E-2      -4.30         9.547E-2      -4.37         0.81018       -5.64          
18.8991       0.04861       -174.84       9.53E-2       -4.44         9.548E-2      -4.48         0.81049       -5.80          
19.4990       0.04862       -174.61       9.535E-2      -4.60         9.549E-2      -4.65         0.8105        -5.99          
20.0990       0.04866       -174.38       9.528E-2      -4.71         9.551E-2      -4.80         0.81039       -6.17          
20.6990       0.04871       -174.21       9.532E-2      -4.89         9.551E-2      -4.93         0.81042       -6.34          
21.2990       0.04869       -173.98       9.529E-2      -5.02         9.55E-2       -5.07         0.81035       -6.50          
21.8989       0.04874       -173.83       9.533E-2      -5.17         9.552E-2      -5.20         0.81042       -6.70          
22.4989       0.04876       -173.61       9.531E-2      -5.33         9.558E-2      -5.34         0.81049       -6.86          
23.0989       0.04886       -173.49       9.53E-2       -5.44         9.557E-2      -5.50         0.81063       -7.05          
23.6988       0.04884       -173.21       9.536E-2      -5.58         9.556E-2      -5.64         0.81032       -7.21          
24.2988       0.04887       -173.07       9.532E-2      -5.71         9.555E-2      -5.79         0.8103        -7.38          
24.8988       0.04896       -172.86       9.534E-2      -5.87         9.556E-2      -5.95         0.81018       -7.56          
25.4987       0.04898       -172.68       9.538E-2      -5.98         9.554E-2      -6.09         0.8102        -7.73          
26.0987       0.04904       -172.49       9.532E-2      -6.14         9.56E-2       -6.20         0.81011       -7.91          
26.6987       0.04909       -172.32       9.536E-2      -6.27         9.554E-2      -6.34         0.80995       -8.07          
27.2987       0.04908       -172.07       9.54E-2       -6.41         9.556E-2      -6.48         0.80973       -8.25          
27.8986       0.04914       -171.93       9.539E-2      -6.60         9.556E-2      -6.62         0.80954       -8.41          
28.4986       0.04916       -171.70       9.542E-2      -6.73         9.557E-2      -6.79         0.80954       -8.60          
29.0986       0.04922       -171.63       9.539E-2      -6.84         9.557E-2      -6.92         0.80927       -8.76          
29.6985       0.04929       -171.42       9.541E-2      -6.99         9.557E-2      -7.04         0.80915       -8.95          
30.2985       0.04927       -171.20       9.54E-2       -7.14         9.557E-2      -7.20         0.8089        -9.12          
30.8985       0.0493        -170.98       9.542E-2      -7.29         9.553E-2      -7.33         0.80888       -9.30          
31.4984       0.04938       -170.84       9.539E-2      -7.40         9.554E-2      -7.48         0.80883       -9.46          
32.0984       0.04942       -170.73       9.544E-2      -7.57         9.561E-2      -7.62         0.80885       -9.63          
32.6984       0.04946       -170.52       9.545E-2      -7.70         9.562E-2      -7.74         0.80871       -9.81          
33.2984       0.04948       -170.39       9.545E-2      -7.84         9.56E-2       -7.90         0.80863       -9.96          
33.8983       0.04949       -170.21       9.55E-2       -7.96         9.561E-2      -8.05         0.80878       -10.12         
34.4983       0.04958       -170.02       9.548E-2      -8.11         9.562E-2      -8.17         0.80892       -10.28         
35.0983       0.04955       -169.89       9.551E-2      -8.24         9.565E-2      -8.35         0.80898       -10.46         
35.6982       0.04962       -169.70       9.549E-2      -8.38         9.561E-2      -8.45         0.80909       -10.63         
36.2982       0.04967       -169.51       9.555E-2      -8.55         9.565E-2      -8.64         0.80907       -10.82         
36.8982       0.04971       -169.36       9.55E-2       -8.67         9.568E-2      -8.79         0.80897       -10.99         
37.4981       0.04973       -169.25       9.557E-2      -8.82         9.569E-2      -8.90         0.80888       -11.17         
38.0981       0.0498        -169.04       9.557E-2      -8.94         9.567E-2      -9.08         0.80892       -11.36         
38.6981       0.04981       -168.88       9.558E-2      -9.08         9.566E-2      -9.21         0.80885       -11.54         
39.2981       0.04986       -168.70       9.559E-2      -9.23         9.566E-2      -9.35         0.80885       -11.72         
39.8980       0.04989       -168.56       9.557E-2      -9.40         9.568E-2      -9.53         0.80869       -11.91         
40.4980       0.04991       -168.35       9.562E-2      -9.53         9.572E-2      -9.62         0.80871       -12.07         
41.0980       0.04997       -168.18       9.564E-2      -9.69         9.572E-2      -9.80         0.80841       -12.26         
41.6979       0.05          -168.10       9.561E-2      -9.83         9.574E-2      -9.93         0.80865       -12.45         
42.2979       0.05008       -167.95       9.561E-2      -9.96         9.577E-2      -10.07        0.80854       -12.64         
42.8979       0.05009       -167.82       9.56E-2       -10.13        9.573E-2      -10.22        0.80861       -12.83         
43.4978       0.05011       -167.63       9.562E-2      -10.25        9.576E-2      -10.36        0.80863       -13.02         
44.0978       0.05019       -167.51       9.563E-2      -10.41        9.574E-2      -10.50        0.80856       -13.22         
44.6978       0.05022       -167.41       9.562E-2      -10.57        9.577E-2      -10.67        0.80873       -13.42         
45.2978       0.05028       -167.24       9.567E-2      -10.72        9.576E-2      -10.79        0.80858       -13.60         
45.8977       0.05035       -167.04       9.567E-2      -10.86        9.578E-2      -10.94        0.80876       -13.78         
46.4977       0.05035       -166.95       9.561E-2      -11.03        9.578E-2      -11.07        0.80879       -13.99         
47.0977       0.05035       -166.75       9.567E-2      -11.18        9.583E-2      -11.24        0.80967       -14.16         
47.6976       0.05043       -166.57       9.568E-2      -11.32        9.578E-2      -11.39        0.80971       -14.34         
48.2976       0.05047       -166.53       9.573E-2      -11.49        9.579E-2      -11.52        0.80973       -14.51         
48.8976       0.05052       -166.36       9.567E-2      -11.65        9.579E-2      -11.69        0.80992       -14.71         
49.4975       0.05057       -166.20       9.567E-2      -11.77        9.585E-2      -11.80        0.80979       -14.88         
50.0975       0.05057       -166.05       9.566E-2      -11.93        9.582E-2      -11.98        0.80984       -15.06         
50.6975       0.05062       -165.88       9.566E-2      -12.07        9.585E-2      -12.13        0.80999       -15.26         
51.2975       0.05069       -165.76       9.566E-2      -12.21        9.586E-2      -12.33        0.81003       -15.45         
51.8974       0.05077       -165.64       9.563E-2      -12.35        9.591E-2      -12.44        0.80995       -15.62         
52.4974       0.0515        -165.74       9.563E-2      -12.46        9.659E-2      -12.80        0.80794       -15.81         
53.0974       0.05081       -165.29       9.573E-2      -12.62        9.583E-2      -12.72        0.80748       -15.92         
53.6973       0.05085       -165.17       9.565E-2      -12.80        9.585E-2      -12.88        0.81049       -16.19         
54.2973       0.0509        -165.07       9.569E-2      -12.95        9.587E-2      -13.05        0.81047       -16.37         
54.8973       0.05091       -164.93       9.567E-2      -13.11        9.583E-2      -13.18        0.81045       -16.54         
55.4972       0.05098       -164.80       9.567E-2      -13.21        9.589E-2      -13.30        0.81058       -16.71         
56.0972       0.05103       -164.63       9.569E-2      -13.38        9.587E-2      -13.47        0.81038       -16.90         
56.6972       0.05109       -164.45       9.571E-2      -13.54        9.583E-2      -13.58        0.81037       -17.06         
57.2972       0.05118       -164.28       9.567E-2      -13.66        9.587E-2      -13.72        0.81043       -17.25         
57.8971       0.05117       -164.13       9.568E-2      -13.81        9.589E-2      -13.87        0.8104        -17.42         
58.4971       0.05125       -164.02       9.576E-2      -13.94        9.593E-2      -14.04        0.81062       -17.62         
59.0971       0.05128       -163.88       9.574E-2      -14.08        9.592E-2      -14.18        0.81051       -17.79         
59.6970       0.05133       -163.70       9.577E-2      -14.23        9.597E-2      -14.30        0.81071       -17.97         
60.2970       0.05137       -163.53       9.575E-2      -14.37        9.594E-2      -14.47        0.81064       -18.15         
60.8970       0.05144       -163.39       9.582E-2      -14.52        9.601E-2      -14.61        0.81076       -18.33         
61.4969       0.0515        -163.29       9.579E-2      -14.66        9.599E-2      -14.77        0.81056       -18.51         
62.0969       0.05156       -163.12       9.585E-2      -14.81        9.602E-2      -14.88        0.81046       -18.69         
62.6969       0.0516        -163.07       9.588E-2      -14.93        9.601E-2      -15.07        0.81034       -18.87         
63.2969       0.0517        -162.88       9.588E-2      -15.10        9.606E-2      -15.19        0.81043       -19.06         
63.8968       0.05174       -162.77       9.59E-2       -15.25        9.612E-2      -15.34        0.81034       -19.22         
64.4968       0.05184       -162.58       9.596E-2      -15.41        9.615E-2      -15.52        0.81034       -19.41         
65.0968       0.05188       -162.46       9.594E-2      -15.54        9.615E-2      -15.66        0.81031       -19.58         
65.6967       0.05197       -162.31       9.597E-2      -15.69        9.619E-2      -15.80        0.81033       -19.76         
66.2967       0.05198       -162.25       9.60E-2       -15.83        9.617E-2      -15.98        0.81028       -19.94         
66.8967       0.052         -162.11       9.602E-2      -16.01        9.623E-2      -16.12        0.8102        -20.12         
67.4966       0.05206       -161.97       9.602E-2      -16.16        9.624E-2      -16.28        0.81009       -20.32         
68.0966       0.05211       -161.86       9.606E-2      -16.33        9.626E-2      -16.42        0.81013       -20.48         
68.6966       0.05223       -161.69       9.609E-2      -16.48        9.629E-2      -16.57        0.81014       -20.64         
69.2966       0.05234       -161.56       9.611E-2      -16.66        9.631E-2      -16.72        0.81002       -20.85         
69.8965       0.05237       -161.46       9.611E-2      -16.84        9.632E-2      -16.90        0.8101        -21.03         
70.4965       0.05242       -161.39       9.611E-2      -16.98        9.631E-2      -17.06        0.81022       -21.21         
71.0965       0.05246       -161.28       9.61E-2       -17.16        9.634E-2      -17.22        0.81026       -21.38         
71.6964       0.05255       -161.13       9.612E-2      -17.32        9.634E-2      -17.39        0.81021       -21.55         
72.2964       0.05257       -161.08       9.616E-2      -17.48        9.632E-2      -17.55        0.81025       -21.73         
72.8964       0.05268       -160.98       9.617E-2      -17.62        9.633E-2      -17.70        0.81016       -21.93         
73.4963       0.05277       -160.82       9.616E-2      -17.82        9.633E-2      -17.89        0.81025       -22.10         
74.0963       0.0528        -160.70       9.619E-2      -17.94        9.639E-2      -18.02        0.81037       -22.29         
74.6963       0.05284       -160.69       9.619E-2      -18.13        9.64E-2       -18.19        0.81016       -22.45         
75.2963       0.05293       -160.52       9.622E-2      -18.29        9.64E-2       -18.34        0.81025       -22.64         
75.8962       0.05301       -160.45       9.623E-2      -18.46        9.646E-2      -18.53        0.81033       -22.81         
76.4962       0.05308       -160.25       9.624E-2      -18.62        9.643E-2      -18.71        0.81056       -23.00         
77.0962       0.05315       -160.21       9.624E-2      -18.78        9.644E-2      -18.84        0.81054       -23.17         
77.6961       0.05319       -160.11       9.625E-2      -18.97        9.649E-2      -19.05        0.81085       -23.35         
78.2961       0.0533        -159.96       9.625E-2      -19.09        9.647E-2      -19.18        0.81082       -23.53         
78.8961       0.05332       -159.93       9.623E-2      -19.29        9.65E-2       -19.35        0.81096       -23.70         
79.4960       0.0534        -159.78       9.628E-2      -19.48        9.652E-2      -19.53        0.81126       -23.86         
80.0960       0.05343       -159.73       9.629E-2      -19.64        9.649E-2      -19.70        0.81129       -24.05         
80.6960       0.05351       -159.63       9.63E-2       -19.82        9.648E-2      -19.86        0.81144       -24.21         
81.2960       0.05355       -159.55       9.631E-2      -20.01        9.653E-2      -20.03        0.81163       -24.39         
81.8959       0.05364       -159.48       9.63E-2       -20.17        9.652E-2      -20.22        0.81189       -24.56         
82.4959       0.0537        -159.37       9.631E-2      -20.36        9.652E-2      -20.42        0.81215       -24.74         
83.0959       0.05378       -159.25       9.629E-2      -20.54        9.649E-2      -20.58        0.81228       -24.90         
83.6958       0.05381       -159.19       9.631E-2      -20.72        9.646E-2      -20.80        0.81249       -25.09         
84.2958       0.05386       -159.07       9.628E-2      -20.93        9.646E-2      -20.97        0.8127        -25.25         
84.8958       0.05394       -159.05       9.624E-2      -21.11        9.643E-2      -21.20        0.81278       -25.42         
85.4957       0.05397       -159.01       9.627E-2      -21.32        9.642E-2      -21.39        0.81318       -25.61         
86.0957       0.05399       -158.88       9.618E-2      -21.51        9.636E-2      -21.60        0.81326       -25.80         
86.6957       0.05401       -158.77       9.61E-2       -21.75        9.628E-2      -21.81        0.81357       -25.97         
87.2957       0.05405       -158.78       9.604E-2      -21.95        9.619E-2      -22.03        0.81398       -26.15         
87.8956       0.05404       -158.71       9.592E-2      -22.15        9.606E-2      -22.22        0.81418       -26.32         
88.4956       0.05409       -158.64       9.577E-2      -22.36        9.593E-2      -22.41        0.81459       -26.49         
89.0956       0.05403       -158.55       9.561E-2      -22.55        9.574E-2      -22.62        0.81494       -26.67         
89.6955       0.05398       -158.44       9.548E-2      -22.71        9.554E-2      -22.78        0.81545       -26.86         
90.2955       0.0539        -158.35       9.524E-2      -22.86        9.534E-2      -22.93        0.81594       -27.07         
90.8955       0.05381       -158.23       9.494E-2      -22.98        9.502E-2      -23.05        0.8162        -27.27         
91.4954       0.0537        -157.97       9.47E-2       -23.06        9.476E-2      -23.12        0.81647       -27.49         
92.0954       0.05367       -157.72       9.447E-2      -23.06        9.457E-2      -23.12        0.81644       -27.70         
