!    8/6/2020   02:09:29 
! Ref Plane: 0.000 mm
# MHZ S MA R  50
!
0.3000        0.04739       179.04        9.894E-2      -1.01         9.654E-2      -0.82         0.81513       -0.38          
0.9000        0.0476        179.27        9.499E-2      -0.48         9.525E-2      -0.22         0.80938       -0.53          
1.4999        0.04774       179.29        9.518E-2      -0.30         9.533E-2      -0.32         0.80915       -0.68          
2.0999        0.04773       179.50        9.517E-2      -0.46         9.531E-2      -0.40         0.80931       -0.88          
2.6999        0.04775       179.71        9.518E-2      -0.55         9.537E-2      -0.51         0.80928       -1.03          
3.2999        0.04775       179.99        9.521E-2      -0.65         9.537E-2      -0.68         0.80944       -1.22          
3.8998        0.04783       -179.79       9.517E-2      -0.78         9.536E-2      -0.81         0.80938       -1.41          
4.4998        0.04781       -179.61       9.516E-2      -0.91         9.536E-2      -0.89         0.80951       -1.57          
5.0998        0.04792       -179.29       9.517E-2      -1.00         9.538E-2      -1.00         0.80943       -1.75          
5.6997        0.0479        -179.05       9.515E-2      -1.13         9.54E-2       -1.16         0.80958       -1.94          
6.2997        0.04794       -178.91       9.514E-2      -1.27         9.538E-2      -1.27         0.80941       -2.13          
6.8997        0.04799       -178.65       9.517E-2      -1.42         9.537E-2      -1.41         0.80964       -2.32          
7.4996        0.048         -178.37       9.513E-2      -1.48         9.538E-2      -1.51         0.80968       -2.52          
8.0996        0.04806       -178.17       9.516E-2      -1.63         9.54E-2       -1.65         0.8094        -2.70          
8.6996        0.04806       -177.90       9.514E-2      -1.72         9.54E-2       -1.74         0.80964       -2.87          
9.2996        0.04806       -177.66       9.521E-2      -1.87         9.543E-2      -1.91         0.80975       -3.06          
9.8995        0.04811       -177.44       9.516E-2      -2.03         9.54E-2       -2.02         0.80941       -3.23          
10.4995       0.04814       -177.21       9.514E-2      -2.14         9.538E-2      -2.15         0.80975       -3.41          
11.0995       0.04819       -176.96       9.519E-2      -2.25         9.54E-2       -2.25         0.80988       -3.60          
11.6994       0.04821       -176.75       9.518E-2      -2.35         9.541E-2      -2.36         0.80996       -3.79          
12.2994       0.04823       -176.53       9.513E-2      -2.51         9.536E-2      -2.47         0.80983       -3.96          
12.8994       0.04825       -176.26       9.518E-2      -2.55         9.538E-2      -2.61         0.80983       -4.14          
13.4993       0.04826       -176.04       9.526E-2      -2.74         9.538E-2      -2.76         0.80998       -4.34          
14.0993       0.04834       -175.88       9.519E-2      -2.82         9.535E-2      -2.88         0.80996       -4.50          
14.6993       0.04834       -175.58       9.518E-2      -2.99         9.542E-2      -2.99         0.80986       -4.68          
15.2993       0.04839       -175.39       9.513E-2      -3.03         9.537E-2      -3.12         0.81002       -4.87          
15.8992       0.0484        -175.19       9.52E-2       -3.17         9.536E-2      -3.26         0.81011       -5.03          
16.4992       0.04845       -174.98       9.515E-2      -3.31         9.539E-2      -3.39         0.80998       -5.23          
17.0992       0.04848       -174.73       9.521E-2      -3.40         9.536E-2      -3.49         0.81016       -5.41          
17.6991       0.04856       -174.48       9.519E-2      -3.54         9.536E-2      -3.64         0.81012       -5.60          
18.2991       0.04855       -174.32       9.516E-2      -3.67         9.536E-2      -3.75         0.8101        -5.75          
18.8991       0.04859       -174.08       9.521E-2      -3.80         9.539E-2      -3.85         0.81042       -5.92          
19.4990       0.04861       -173.88       9.525E-2      -3.93         9.539E-2      -3.99         0.8104        -6.11          
20.0990       0.04864       -173.58       9.519E-2      -4.05         9.537E-2      -4.11         0.81027       -6.30          
20.6990       0.04868       -173.40       9.521E-2      -4.19         9.539E-2      -4.22         0.81032       -6.47          
21.2990       0.04866       -173.12       9.52E-2       -4.30         9.539E-2      -4.35         0.81021       -6.64          
21.8989       0.04875       -173.00       9.523E-2      -4.43         9.539E-2      -4.47         0.81032       -6.83          
22.4989       0.04879       -172.76       9.517E-2      -4.57         9.545E-2      -4.57         0.81037       -7.00          
23.0989       0.04885       -172.59       9.519E-2      -4.67         9.545E-2      -4.71         0.81058       -7.19          
23.6988       0.04882       -172.27       9.522E-2      -4.79         9.543E-2      -4.84         0.81013       -7.36          
24.2988       0.04889       -172.12       9.52E-2       -4.88         9.541E-2      -4.95         0.81015       -7.53          
24.8988       0.04894       -171.88       9.517E-2      -5.01         9.541E-2      -5.10         0.81006       -7.72          
25.4987       0.04899       -171.70       9.522E-2      -5.12         9.536E-2      -5.22         0.81001       -7.89          
26.0987       0.049         -171.42       9.515E-2      -5.25         9.539E-2      -5.30         0.80992       -8.07          
26.6987       0.04906       -171.26       9.517E-2      -5.36         9.538E-2      -5.44         0.80975       -8.24          
27.2987       0.04907       -171.01       9.523E-2      -5.48         9.539E-2      -5.56         0.80953       -8.42          
27.8986       0.04913       -170.84       9.52E-2       -5.63         9.538E-2      -5.67         0.80931       -8.58          
28.4986       0.04916       -170.57       9.523E-2      -5.74         9.539E-2      -5.81         0.80927       -8.78          
29.0986       0.04918       -170.49       9.522E-2      -5.84         9.539E-2      -5.95         0.80901       -8.94          
29.6985       0.04928       -170.28       9.519E-2      -5.95         9.537E-2      -6.04         0.80891       -9.13          
30.2985       0.04926       -170.04       9.517E-2      -6.11         9.535E-2      -6.17         0.8086        -9.31          
30.8985       0.04928       -169.80       9.522E-2      -6.24         9.532E-2      -6.27         0.8086        -9.49          
31.4984       0.04936       -169.61       9.518E-2      -6.33         9.53E-2       -6.39         0.80851       -9.65          
32.0984       0.04939       -169.47       9.519E-2      -6.47         9.538E-2      -6.52         0.8085        -9.83          
32.6984       0.04941       -169.22       9.519E-2      -6.58         9.537E-2      -6.63         0.80835       -10.00         
33.2984       0.04947       -169.05       9.519E-2      -6.69         9.534E-2      -6.75         0.80831       -10.16         
33.8983       0.04947       -168.85       9.525E-2      -6.81         9.534E-2      -6.87         0.80841       -10.32         
34.4983       0.04954       -168.65       9.519E-2      -6.92         9.534E-2      -6.97         0.80853       -10.48         
35.0983       0.04954       -168.50       9.523E-2      -7.03         9.538E-2      -7.12         0.80853       -10.67         
35.6982       0.04958       -168.30       9.524E-2      -7.15         9.536E-2      -7.22         0.8087        -10.84         
36.2982       0.04961       -168.11       9.524E-2      -7.28         9.535E-2      -7.36         0.80861       -11.03         
36.8982       0.04966       -167.91       9.522E-2      -7.40         9.533E-2      -7.49         0.80849       -11.21         
37.4981       0.04972       -167.74       9.523E-2      -7.51         9.536E-2      -7.60         0.80841       -11.38         
38.0981       0.04973       -167.55       9.522E-2      -7.62         9.536E-2      -7.73         0.8084        -11.58         
38.6981       0.04978       -167.34       9.525E-2      -7.71         9.536E-2      -7.85         0.80835       -11.76         
39.2981       0.0498        -167.18       9.523E-2      -7.85         9.528E-2      -7.98         0.80834       -11.94         
39.8980       0.04986       -166.98       9.524E-2      -8.01         9.534E-2      -8.14         0.80812       -12.13         
40.4980       0.04984       -166.76       9.525E-2      -8.14         9.532E-2      -8.18         0.80811       -12.29         
41.0980       0.04993       -166.57       9.526E-2      -8.25         9.533E-2      -8.35         0.80784       -12.49         
41.6979       0.04998       -166.41       9.522E-2      -8.35         9.533E-2      -8.46         0.80806       -12.67         
42.2979       0.04999       -166.27       9.522E-2      -8.46         9.535E-2      -8.57         0.80787       -12.87         
42.8979       0.05004       -166.10       9.524E-2      -8.61         9.532E-2      -8.67         0.80796       -13.06         
43.4978       0.05001       -165.91       9.522E-2      -8.71         9.535E-2      -8.81         0.80793       -13.25         
44.0978       0.05009       -165.73       9.52E-2       -8.84         9.533E-2      -8.93         0.80785       -13.45         
44.6978       0.05018       -165.63       9.52E-2       -8.96         9.534E-2      -9.08         0.80799       -13.65         
45.2978       0.05022       -165.43       9.524E-2      -9.10         9.533E-2      -9.16         0.80783       -13.84         
45.8977       0.05028       -165.19       9.52E-2       -9.22         9.534E-2      -9.31         0.80795       -14.02         
46.4977       0.05029       -165.08       9.515E-2      -9.35         9.531E-2      -9.41         0.80795       -14.22         
47.0977       0.05028       -164.88       9.522E-2      -9.48         9.538E-2      -9.53         0.80882       -14.39         
47.6976       0.05037       -164.66       9.518E-2      -9.60         9.53E-2       -9.65         0.80885       -14.58         
48.2976       0.05041       -164.53       9.524E-2      -9.75         9.53E-2       -9.78         0.80883       -14.75         
48.8976       0.05044       -164.35       9.519E-2      -9.87         9.529E-2      -9.91         0.80896       -14.94         
49.4975       0.05052       -164.21       9.517E-2      -10.00        9.536E-2      -10.00        0.80885       -15.12         
50.0975       0.0505        -164.04       9.514E-2      -10.08        9.528E-2      -10.14        0.80881       -15.30         
50.6975       0.05055       -163.81       9.515E-2      -10.23        9.532E-2      -10.27        0.80889       -15.50         
51.2975       0.05063       -163.68       9.513E-2      -10.33        9.534E-2      -10.41        0.80892       -15.69         
51.8974       0.05069       -163.53       9.509E-2      -10.45        9.539E-2      -10.54        0.80885       -15.86         
52.4974       0.05144       -163.63       9.508E-2      -10.50        9.609E-2      -10.88        0.80672       -16.06         
53.0974       0.05074       -163.14       9.514E-2      -10.63        9.53E-2       -10.77        0.80631       -16.16         
53.6973       0.05078       -163.00       9.512E-2      -10.81        9.53E-2       -10.90        0.80923       -16.43         
54.2973       0.05084       -162.87       9.513E-2      -10.93        9.532E-2      -11.03        0.80919       -16.61         
54.8973       0.05086       -162.70       9.517E-2      -11.07        9.529E-2      -11.13        0.80911       -16.78         
55.4972       0.0509        -162.53       9.511E-2      -11.16        9.532E-2      -11.26        0.80921       -16.95         
56.0972       0.05095       -162.36       9.511E-2      -11.29        9.53E-2       -11.38        0.80904       -17.14         
56.6972       0.05101       -162.16       9.513E-2      -11.42        9.527E-2      -11.46        0.80894       -17.30         
57.2972       0.05108       -161.98       9.512E-2      -11.54        9.529E-2      -11.60        0.80892       -17.48         
57.8971       0.05109       -161.76       9.51E-2       -11.65        9.529E-2      -11.73        0.80892       -17.65         
58.4971       0.05117       -161.67       9.515E-2      -11.77        9.53E-2       -11.87        0.80906       -17.85         
59.0971       0.0512        -161.50       9.514E-2      -11.88        9.53E-2       -11.97        0.80895       -18.01         
59.6970       0.05124       -161.32       9.512E-2      -11.99        9.532E-2      -12.10        0.80912       -18.20         
60.2970       0.05125       -161.14       9.51E-2       -12.12        9.527E-2      -12.21        0.80906       -18.37         
60.8970       0.05134       -160.98       9.51E-2       -12.26        9.532E-2      -12.36        0.80914       -18.55         
61.4969       0.05138       -160.80       9.512E-2      -12.39        9.529E-2      -12.47        0.80893       -18.73         
62.0969       0.0514        -160.62       9.512E-2      -12.51        9.532E-2      -12.60        0.80883       -18.91         
62.6969       0.05144       -160.55       9.515E-2      -12.60        9.525E-2      -12.73        0.80872       -19.09         
63.2969       0.05153       -160.32       9.512E-2      -12.73        9.53E-2       -12.83        0.80877       -19.28         
63.8968       0.05158       -160.20       9.512E-2      -12.85        9.528E-2      -12.97        0.80864       -19.43         
64.4968       0.05164       -160.00       9.512E-2      -12.99        9.528E-2      -13.09        0.80866       -19.62         
65.0968       0.05167       -159.83       9.511E-2      -13.10        9.531E-2      -13.21        0.80863       -19.79         
65.6967       0.05176       -159.66       9.51E-2       -13.23        9.53E-2       -13.33        0.80864       -19.97         
66.2967       0.05176       -159.51       9.512E-2      -13.33        9.527E-2      -13.46        0.80858       -20.15         
66.8967       0.05179       -159.37       9.51E-2       -13.47        9.527E-2      -13.56        0.80839       -20.34         
67.4966       0.05183       -159.20       9.504E-2      -13.58        9.527E-2      -13.70        0.80832       -20.53         
68.0966       0.05187       -159.03       9.508E-2      -13.69        9.527E-2      -13.78        0.80826       -20.70         
68.6966       0.05195       -158.84       9.509E-2      -13.82        9.53E-2       -13.92        0.80828       -20.86         
69.2966       0.05203       -158.70       9.507E-2      -13.96        9.528E-2      -14.02        0.80814       -21.07         
69.8965       0.05211       -158.53       9.507E-2      -14.07        9.528E-2      -14.15        0.80816       -21.25         
70.4965       0.05212       -158.43       9.508E-2      -14.18        9.525E-2      -14.29        0.80822       -21.43         
71.0965       0.05217       -158.25       9.507E-2      -14.31        9.527E-2      -14.39        0.80822       -21.60         
71.6964       0.05225       -158.07       9.502E-2      -14.44        9.526E-2      -14.52        0.80806       -21.77         
72.2964       0.05225       -157.97       9.51E-2       -14.56        9.521E-2      -14.64        0.80804       -21.95         
72.8964       0.05236       -157.86       9.51E-2       -14.70        9.523E-2      -14.77        0.80799       -22.15         
73.4963       0.05246       -157.67       9.504E-2      -14.83        9.523E-2      -14.89        0.80801       -22.32         
74.0963       0.05245       -157.48       9.507E-2      -14.94        9.526E-2      -15.01        0.80804       -22.51         
74.6963       0.05249       -157.45       9.505E-2      -15.07        9.526E-2      -15.12        0.80779       -22.67         
75.2963       0.05258       -157.23       9.502E-2      -15.18        9.524E-2      -15.24        0.80788       -22.86         
75.8962       0.05261       -157.11       9.506E-2      -15.32        9.522E-2      -15.38        0.80782       -23.03         
76.4962       0.05271       -156.87       9.503E-2      -15.40        9.524E-2      -15.49        0.80799       -23.22         
77.0962       0.05277       -156.82       9.503E-2      -15.53        9.522E-2      -15.60        0.80795       -23.39         
77.6961       0.05283       -156.65       9.50E-2       -15.67        9.524E-2      -15.74        0.80815       -23.57         
78.2961       0.05293       -156.48       9.504E-2      -15.77        9.523E-2      -15.84        0.80805       -23.75         
78.8961       0.05293       -156.36       9.501E-2      -15.91        9.523E-2      -15.96        0.80813       -23.92         
79.4960       0.053         -156.16       9.503E-2      -16.02        9.525E-2      -16.07        0.8083        -24.09         
80.0960       0.05301       -156.05       9.502E-2      -16.15        9.524E-2      -16.19        0.80821       -24.28         
80.6960       0.0531        -155.93       9.502E-2      -16.26        9.519E-2      -16.32        0.8083        -24.44         
81.2960       0.05318       -155.81       9.503E-2      -16.39        9.525E-2      -16.43        0.8084        -24.62         
81.8959       0.05323       -155.63       9.502E-2      -16.49        9.522E-2      -16.54        0.80846       -24.79         
82.4959       0.05331       -155.46       9.503E-2      -16.60        9.523E-2      -16.65        0.80862       -24.98         
83.0959       0.05337       -155.30       9.501E-2      -16.72        9.523E-2      -16.78        0.8087        -25.14         
83.6958       0.05343       -155.18       9.50E-2       -16.86        9.521E-2      -16.91        0.80874       -25.32         
84.2958       0.05349       -155.00       9.501E-2      -16.98        9.519E-2      -17.02        0.80874       -25.49         
84.8958       0.05358       -154.88       9.502E-2      -17.11        9.522E-2      -17.16        0.80869       -25.67         
85.4957       0.05364       -154.72       9.505E-2      -17.21        9.522E-2      -17.30        0.80887       -25.85         
86.0957       0.05369       -154.56       9.507E-2      -17.33        9.519E-2      -17.41        0.80874       -26.04         
86.6957       0.05373       -154.36       9.50E-2       -17.48        9.52E-2       -17.53        0.80882       -26.21         
87.2957       0.0538        -154.28       9.507E-2      -17.57        9.518E-2      -17.66        0.80893       -26.39         
87.8956       0.05384       -154.11       9.503E-2      -17.69        9.514E-2      -17.77        0.80884       -26.56         
88.4956       0.05398       -153.96       9.50E-2       -17.80        9.516E-2      -17.88        0.80884       -26.73         
89.0956       0.05405       -153.76       9.501E-2      -17.93        9.513E-2      -18.02        0.80888       -26.89         
89.6955       0.05411       -153.61       9.507E-2      -18.04        9.514E-2      -18.12        0.80898       -27.07         
90.2955       0.05417       -153.48       9.507E-2      -18.16        9.518E-2      -18.23        0.80916       -27.25         
90.8955       0.05423       -153.40       9.508E-2      -18.28        9.515E-2      -18.33        0.80912       -27.42         
91.4954       0.05431       -153.17       9.508E-2      -18.40        9.512E-2      -18.49        0.80918       -27.61         
92.0954       0.05437       -153.04       9.504E-2      -18.54        9.514E-2      -18.59        0.80903       -27.77         
