!    8/6/2020   02:07:20 
! Ref Plane: 0.000 mm
# MHZ S MA R  50
!
0.3000        0.04754       179.08        9.891E-2      -1.05         9.644E-2      -0.86         0.81483       -0.41          
0.9000        0.04771       179.11        9.50E-2       -0.56         9.532E-2      -0.23         0.80956       -0.54          
1.4999        0.04777       179.25        9.514E-2      -0.36         9.533E-2      -0.33         0.80908       -0.71          
2.0999        0.04773       179.46        9.517E-2      -0.51         9.533E-2      -0.43         0.80923       -0.91          
2.6999        0.04778       179.66        9.517E-2      -0.62         9.533E-2      -0.54         0.80928       -1.06          
3.2999        0.04774       179.91        9.523E-2      -0.68         9.535E-2      -0.71         0.80936       -1.25          
3.8998        0.04785       -179.84       9.517E-2      -0.82         9.534E-2      -0.82         0.8094        -1.44          
4.4998        0.04782       -179.66       9.517E-2      -0.93         9.534E-2      -0.90         0.80945       -1.60          
5.0998        0.04789       -179.36       9.515E-2      -1.04         9.533E-2      -1.01         0.80946       -1.78          
5.6997        0.04787       -179.08       9.515E-2      -1.15         9.539E-2      -1.16         0.80963       -1.97          
6.2997        0.04791       -178.97       9.513E-2      -1.28         9.537E-2      -1.27         0.80948       -2.17          
6.8997        0.04794       -178.70       9.514E-2      -1.44         9.534E-2      -1.39         0.80966       -2.34          
7.4996        0.04799       -178.41       9.511E-2      -1.50         9.533E-2      -1.51         0.80971       -2.55          
8.0996        0.04802       -178.22       9.51E-2       -1.63         9.536E-2      -1.64         0.80943       -2.74          
8.6996        0.04805       -177.97       9.513E-2      -1.75         9.538E-2      -1.71         0.80967       -2.90          
9.2996        0.04806       -177.74       9.516E-2      -1.88         9.538E-2      -1.88         0.80985       -3.09          
9.8995        0.04809       -177.49       9.515E-2      -2.02         9.535E-2      -2.00         0.80954       -3.26          
10.4995       0.04813       -177.28       9.509E-2      -2.14         9.537E-2      -2.12         0.80995       -3.45          
11.0995       0.04819       -177.05       9.512E-2      -2.23         9.537E-2      -2.22         0.81          -3.63          
11.6994       0.0482        -176.77       9.512E-2      -2.33         9.535E-2      -2.32         0.81009       -3.82          
12.2994       0.04821       -176.57       9.508E-2      -2.47         9.53E-2       -2.44         0.81001       -4.00          
12.8994       0.04823       -176.34       9.515E-2      -2.53         9.532E-2      -2.56         0.81004       -4.17          
13.4993       0.04823       -176.13       9.518E-2      -2.71         9.53E-2       -2.72         0.81023       -4.37          
14.0993       0.0483        -175.91       9.513E-2      -2.80         9.533E-2      -2.82         0.81026       -4.53          
14.6993       0.04831       -175.66       9.506E-2      -2.96         9.532E-2      -2.95         0.81016       -4.71          
15.2993       0.04836       -175.47       9.508E-2      -3.01         9.531E-2      -3.07         0.81038       -4.90          
15.8992       0.04836       -175.27       9.512E-2      -3.13         9.527E-2      -3.19         0.81047       -5.05          
16.4992       0.04842       -175.08       9.509E-2      -3.27         9.53E-2       -3.32         0.81034       -5.25          
17.0992       0.04844       -174.85       9.511E-2      -3.37         9.527E-2      -3.41         0.81054       -5.43          
17.6991       0.04856       -174.57       9.51E-2       -3.48         9.527E-2      -3.56         0.81051       -5.62          
18.2991       0.04856       -174.40       9.506E-2      -3.62         9.53E-2       -3.66         0.81061       -5.77          
18.8991       0.04858       -174.20       9.51E-2       -3.74         9.528E-2      -3.75         0.8109        -5.94          
19.4990       0.04859       -173.93       9.513E-2      -3.86         9.528E-2      -3.89         0.81092       -6.13          
20.0990       0.0486        -173.70       9.509E-2      -3.97         9.527E-2      -4.01         0.81084       -6.31          
20.6990       0.04866       -173.52       9.513E-2      -4.09         9.53E-2       -4.12         0.81095       -6.48          
21.2990       0.04867       -173.23       9.507E-2      -4.22         9.528E-2      -4.22         0.81081       -6.65          
21.8989       0.04872       -173.09       9.508E-2      -4.32         9.527E-2      -4.34         0.81101       -6.84          
22.4989       0.04875       -172.85       9.503E-2      -4.47         9.532E-2      -4.46         0.81108       -7.01          
23.0989       0.04883       -172.70       9.506E-2      -4.55         9.532E-2      -4.58         0.81128       -7.20          
23.6988       0.04881       -172.40       9.508E-2      -4.66         9.528E-2      -4.70         0.81096       -7.36          
24.2988       0.04883       -172.24       9.506E-2      -4.78         9.525E-2      -4.81         0.81101       -7.53          
24.8988       0.04892       -171.99       9.503E-2      -4.89         9.527E-2      -4.94         0.81096       -7.71          
25.4987       0.04891       -171.81       9.506E-2      -4.99         9.522E-2      -5.06         0.81104       -7.88          
26.0987       0.04897       -171.56       9.50E-2       -5.12         9.525E-2      -5.16         0.81092       -8.05          
26.6987       0.04904       -171.38       9.502E-2      -5.22         9.521E-2      -5.27         0.81082       -8.21          
27.2987       0.04905       -171.15       9.508E-2      -5.34         9.523E-2      -5.38         0.81066       -8.39          
27.8986       0.04909       -170.95       9.504E-2      -5.46         9.522E-2      -5.48         0.81053       -8.55          
28.4986       0.04912       -170.70       9.505E-2      -5.57         9.521E-2      -5.63         0.81053       -8.74          
29.0986       0.04915       -170.61       9.503E-2      -5.65         9.52E-2       -5.75         0.81036       -8.89          
29.6985       0.04925       -170.40       9.501E-2      -5.79         9.516E-2      -5.84         0.81027       -9.08          
30.2985       0.0492        -170.18       9.501E-2      -5.93         9.516E-2      -5.97         0.81005       -9.25          
30.8985       0.04926       -169.93       9.501E-2      -6.04         9.514E-2      -6.05         0.81012       -9.42          
31.4984       0.04933       -169.77       9.496E-2      -6.12         9.509E-2      -6.17         0.8101        -9.58          
32.0984       0.04935       -169.61       9.496E-2      -6.27         9.517E-2      -6.29         0.81017       -9.75          
32.6984       0.04937       -169.37       9.495E-2      -6.36         9.515E-2      -6.39         0.81006       -9.92          
33.2984       0.04943       -169.23       9.495E-2      -6.47         9.512E-2      -6.51         0.81005       -10.07         
33.8983       0.04943       -169.04       9.503E-2      -6.59         9.513E-2      -6.63         0.81024       -10.22         
34.4983       0.04951       -168.81       9.498E-2      -6.66         9.513E-2      -6.70         0.81044       -10.38         
35.0983       0.0495        -168.66       9.501E-2      -6.80         9.514E-2      -6.87         0.81053       -10.56         
35.6982       0.04953       -168.47       9.50E-2       -6.89         9.51E-2       -6.94         0.81077       -10.72         
36.2982       0.04959       -168.27       9.499E-2      -7.01         9.509E-2      -7.10         0.81074       -10.90         
36.8982       0.04964       -168.04       9.497E-2      -7.13         9.511E-2      -7.20         0.81073       -11.07         
37.4981       0.04968       -167.89       9.499E-2      -7.22         9.51E-2       -7.29         0.81069       -11.24         
38.0981       0.0497        -167.71       9.499E-2      -7.35         9.509E-2      -7.42         0.81078       -11.42         
38.6981       0.04972       -167.50       9.499E-2      -7.43         9.507E-2      -7.53         0.81078       -11.60         
39.2981       0.04976       -167.37       9.495E-2      -7.54         9.504E-2      -7.64         0.81085       -11.76         
39.8980       0.04979       -167.18       9.496E-2      -7.69         9.504E-2      -7.81         0.8107        -11.94         
40.4980       0.0498        -166.98       9.496E-2      -7.81         9.504E-2      -7.86         0.81081       -12.10         
41.0980       0.04989       -166.75       9.499E-2      -7.89         9.504E-2      -7.99         0.81062       -12.28         
41.6979       0.0499        -166.62       9.494E-2      -8.00         9.503E-2      -8.11         0.81093       -12.46         
42.2979       0.04996       -166.49       9.494E-2      -8.12         9.505E-2      -8.21         0.81083       -12.65         
42.8979       0.04999       -166.28       9.495E-2      -8.25         9.502E-2      -8.30         0.811         -12.82         
43.4978       0.04999       -166.11       9.491E-2      -8.34         9.504E-2      -8.42         0.8111        -13.01         
44.0978       0.05007       -165.93       9.489E-2      -8.47         9.505E-2      -8.54         0.81106       -13.19         
44.6978       0.05012       -165.86       9.491E-2      -8.58         9.503E-2      -8.67         0.81126       -13.38         
45.2978       0.05019       -165.66       9.493E-2      -8.68         9.50E-2       -8.75         0.81126       -13.56         
45.8977       0.05023       -165.44       9.488E-2      -8.81         9.50E-2       -8.88         0.81147       -13.73         
46.4977       0.05022       -165.29       9.486E-2      -8.94         9.50E-2       -8.97         0.81152       -13.92         
47.0977       0.05025       -165.10       9.491E-2      -9.06         9.506E-2      -9.09         0.8125        -14.08         
47.6976       0.0503        -164.90       9.486E-2      -9.17         9.496E-2      -9.20         0.81265       -14.25         
48.2976       0.05035       -164.79       9.492E-2      -9.30         9.499E-2      -9.32         0.8127        -14.41         
48.8976       0.05038       -164.61       9.485E-2      -9.40         9.497E-2      -9.41         0.81297       -14.59         
49.4975       0.05046       -164.44       9.482E-2      -9.52         9.504E-2      -9.51         0.81292       -14.76         
50.0975       0.05045       -164.29       9.482E-2      -9.60         9.498E-2      -9.65         0.81301       -14.92         
50.6975       0.05049       -164.06       9.484E-2      -9.72         9.50E-2       -9.75         0.81325       -15.11         
51.2975       0.05058       -163.91       9.481E-2      -9.85         9.501E-2      -9.90         0.81331       -15.29         
51.8974       0.05064       -163.77       9.476E-2      -9.94         9.504E-2      -10.02        0.81331       -15.45         
52.4974       0.05138       -163.88       9.474E-2      -9.99         9.577E-2      -10.35        0.81136       -15.63         
53.0974       0.05068       -163.41       9.482E-2      -10.10        9.498E-2      -10.21        0.81101       -15.72         
53.6973       0.05069       -163.25       9.481E-2      -10.27        9.499E-2      -10.34        0.81408       -15.97         
54.2973       0.05077       -163.15       9.481E-2      -10.38        9.498E-2      -10.47        0.81409       -16.14         
54.8973       0.0508        -162.96       9.48E-2       -10.51        9.497E-2      -10.56        0.81416       -16.30         
55.4972       0.05082       -162.82       9.479E-2      -10.60        9.499E-2      -10.66        0.81435       -16.46         
56.0972       0.0509        -162.64       9.482E-2      -10.72        9.497E-2      -10.78        0.8143        -16.63         
56.6972       0.05092       -162.44       9.478E-2      -10.81        9.495E-2      -10.86        0.81434       -16.77         
57.2972       0.05101       -162.28       9.477E-2      -10.93        9.497E-2      -10.97        0.81444       -16.95         
57.8971       0.051         -162.07       9.477E-2      -11.04        9.498E-2      -11.08        0.8145        -17.11         
58.4971       0.05106       -161.94       9.483E-2      -11.15        9.499E-2      -11.24        0.81476       -17.28         
59.0971       0.05109       -161.80       9.481E-2      -11.27        9.497E-2      -11.31        0.81477       -17.44         
59.6970       0.05114       -161.59       9.48E-2       -11.37        9.501E-2      -11.44        0.81503       -17.61         
60.2970       0.05117       -161.42       9.478E-2      -11.46        9.496E-2      -11.55        0.81512       -17.76         
60.8970       0.05125       -161.25       9.483E-2      -11.61        9.502E-2      -11.68        0.81531       -17.93         
61.4969       0.05126       -161.12       9.48E-2       -11.70        9.497E-2      -11.79        0.81523       -18.10         
62.0969       0.05133       -160.93       9.48E-2       -11.84        9.497E-2      -11.89        0.8152        -18.25         
62.6969       0.05133       -160.84       9.482E-2      -11.92        9.494E-2      -12.02        0.81521       -18.42         
63.2969       0.05145       -160.61       9.479E-2      -12.05        9.498E-2      -12.12        0.81534       -18.60         
63.8968       0.05147       -160.48       9.482E-2      -12.15        9.498E-2      -12.26        0.81538       -18.74         
64.4968       0.05153       -160.31       9.484E-2      -12.27        9.498E-2      -12.35        0.81551       -18.91         
65.0968       0.05157       -160.16       9.482E-2      -12.37        9.50E-2       -12.47        0.81556       -19.06         
65.6967       0.05165       -159.97       9.481E-2      -12.49        9.499E-2      -12.57        0.81568       -19.23         
66.2967       0.05169       -159.83       9.481E-2      -12.59        9.498E-2      -12.71        0.81574       -19.40         
66.8967       0.05167       -159.72       9.479E-2      -12.71        9.501E-2      -12.81        0.81562       -19.57         
67.4966       0.05172       -159.51       9.479E-2      -12.81        9.50E-2       -12.92        0.81573       -19.74         
68.0966       0.05175       -159.36       9.481E-2      -12.92        9.50E-2       -13.01        0.81583       -19.90         
68.6966       0.05184       -159.18       9.481E-2      -13.02        9.501E-2      -13.11        0.8159        -20.05         
69.2966       0.0519        -159.01       9.479E-2      -13.17        9.504E-2      -13.21        0.81585       -20.24         
69.8965       0.05196       -158.83       9.482E-2      -13.28        9.501E-2      -13.32        0.81598       -20.40         
70.4965       0.05199       -158.76       9.482E-2      -13.38        9.50E-2       -13.45        0.81621       -20.57         
71.0965       0.05202       -158.59       9.479E-2      -13.49        9.502E-2      -13.56        0.81629       -20.73         
71.6964       0.0521        -158.42       9.48E-2       -13.61        9.502E-2      -13.67        0.81624       -20.89         
72.2964       0.05213       -158.29       9.48E-2       -13.73        9.496E-2      -13.78        0.81632       -21.05         
72.8964       0.05224       -158.18       9.483E-2      -13.87        9.50E-2       -13.90        0.81642       -21.23         
73.4963       0.05232       -157.98       9.483E-2      -13.99        9.495E-2      -14.02        0.8165        -21.39         
74.0963       0.05234       -157.84       9.481E-2      -14.08        9.501E-2      -14.13        0.81661       -21.56         
74.6963       0.05234       -157.74       9.48E-2       -14.21        9.501E-2      -14.22        0.8165        -21.71         
75.2963       0.05241       -157.55       9.481E-2      -14.31        9.497E-2      -14.33        0.81664       -21.88         
75.8962       0.05247       -157.41       9.481E-2      -14.43        9.502E-2      -14.47        0.81675       -22.05         
76.4962       0.05255       -157.21       9.484E-2      -14.51        9.501E-2      -14.60        0.81699       -22.21         
77.0962       0.05262       -157.11       9.484E-2      -14.63        9.505E-2      -14.67        0.81707       -22.37         
77.6961       0.05266       -156.98       9.48E-2       -14.75        9.506E-2      -14.82        0.8174        -22.54         
78.2961       0.05276       -156.79       9.48E-2       -14.83        9.505E-2      -14.90        0.81734       -22.71         
78.8961       0.05276       -156.66       9.48E-2       -14.98        9.504E-2      -15.00        0.81761       -22.86         
79.4960       0.05284       -156.49       9.482E-2      -15.07        9.508E-2      -15.11        0.81785       -23.02         
80.0960       0.05283       -156.35       9.484E-2      -15.21        9.506E-2      -15.24        0.8179        -23.19         
80.6960       0.05293       -156.24       9.487E-2      -15.31        9.505E-2      -15.33        0.81805       -23.35         
81.2960       0.05298       -156.12       9.487E-2      -15.44        9.507E-2      -15.45        0.81819       -23.51         
81.8959       0.05306       -155.95       9.484E-2      -15.52        9.509E-2      -15.56        0.81845       -23.67         
82.4959       0.05313       -155.79       9.486E-2      -15.65        9.509E-2      -15.66        0.81865       -23.84         
83.0959       0.05318       -155.62       9.49E-2       -15.75        9.508E-2      -15.77        0.81878       -23.99         
83.6958       0.05324       -155.48       9.487E-2      -15.85        9.507E-2      -15.90        0.81896       -24.16         
84.2958       0.0533        -155.30       9.492E-2      -16.00        9.506E-2      -15.98        0.81908       -24.31         
84.8958       0.05335       -155.21       9.488E-2      -16.10        9.506E-2      -16.15        0.81911       -24.48         
85.4957       0.05343       -155.06       9.495E-2      -16.23        9.509E-2      -16.27        0.81936       -24.65         
86.0957       0.05349       -154.87       9.493E-2      -16.33        9.505E-2      -16.38        0.81926       -24.83         
86.6957       0.05349       -154.67       9.492E-2      -16.46        9.507E-2      -16.49        0.81948       -24.98         
87.2957       0.05361       -154.57       9.495E-2      -16.56        9.509E-2      -16.62        0.81969       -25.16         
87.8956       0.05363       -154.42       9.495E-2      -16.68        9.505E-2      -16.70        0.8197        -25.31         
88.4956       0.05373       -154.23       9.492E-2      -16.77        9.508E-2      -16.83        0.81978       -25.47         
89.0956       0.05378       -154.09       9.495E-2      -16.88        9.507E-2      -16.95        0.81984       -25.62         
89.6955       0.05386       -153.91       9.498E-2      -17.01        9.509E-2      -17.05        0.8201        -25.78         
90.2955       0.05393       -153.79       9.498E-2      -17.10        9.509E-2      -17.15        0.82031       -25.96         
90.8955       0.054         -153.69       9.50E-2       -17.23        9.507E-2      -17.25        0.8203        -26.12         
91.4954       0.05404       -153.48       9.502E-2      -17.33        9.508E-2      -17.38        0.82048       -26.29         
92.0954       0.05413       -153.32       9.50E-2       -17.46        9.507E-2      -17.50        0.82045       -26.44         
