!    8/6/2020   02:08:35 
! Ref Plane: 0.000 mm
# MHZ S MA R  50
!
0.3000        0.04785       178.73        9.886E-2      -1.06         9.644E-2      -0.97         0.81508       -0.45          
0.9000        0.04777       179.04        9.495E-2      -0.51         9.528E-2      -0.34         0.8094        -0.56          
1.4999        0.0478        179.24        9.515E-2      -0.32         9.536E-2      -0.45         0.80905       -0.71          
2.0999        0.04776       179.40        9.517E-2      -0.46         9.531E-2      -0.54         0.80927       -0.91          
2.6999        0.04776       179.59        9.521E-2      -0.61         9.534E-2      -0.67         0.80923       -1.08          
3.2999        0.04777       179.87        9.521E-2      -0.69         9.534E-2      -0.83         0.80951       -1.25          
3.8998        0.04786       -179.93       9.516E-2      -0.83         9.533E-2      -0.95         0.80947       -1.44          
4.4998        0.04783       -179.73       9.515E-2      -0.96         9.536E-2      -1.04         0.80954       -1.60          
5.0998        0.04792       -179.43       9.516E-2      -1.06         9.535E-2      -1.15         0.80952       -1.78          
5.6997        0.04787       -179.16       9.516E-2      -1.18         9.538E-2      -1.32         0.80971       -1.97          
6.2997        0.04792       -179.04       9.514E-2      -1.37         9.536E-2      -1.41         0.80948       -2.16          
6.8997        0.04795       -178.80       9.516E-2      -1.51         9.535E-2      -1.53         0.80971       -2.34          
7.4996        0.048         -178.51       9.513E-2      -1.57         9.535E-2      -1.63         0.80972       -2.54          
8.0996        0.04803       -178.32       9.513E-2      -1.73         9.535E-2      -1.78         0.80943       -2.73          
8.6996        0.04804       -178.09       9.515E-2      -1.82         9.538E-2      -1.88         0.80969       -2.89          
9.2996        0.04805       -177.84       9.518E-2      -1.97         9.541E-2      -2.06         0.80983       -3.08          
9.8995        0.04807       -177.63       9.514E-2      -2.12         9.538E-2      -2.15         0.80949       -3.25          
10.4995       0.04812       -177.40       9.513E-2      -2.25         9.538E-2      -2.29         0.80989       -3.43          
11.0995       0.04818       -177.17       9.514E-2      -2.37         9.539E-2      -2.39         0.80992       -3.62          
11.6994       0.04818       -176.92       9.514E-2      -2.47         9.538E-2      -2.51         0.81004       -3.81          
12.2994       0.04818       -176.70       9.512E-2      -2.61         9.536E-2      -2.64         0.80998       -3.98          
12.8994       0.04822       -176.49       9.515E-2      -2.67         9.537E-2      -2.78         0.80993       -4.15          
13.4993       0.04823       -176.22       9.52E-2       -2.87         9.536E-2      -2.92         0.8101        -4.35          
14.0993       0.04829       -176.07       9.516E-2      -2.94         9.536E-2      -3.05         0.8101        -4.51          
14.6993       0.04832       -175.80       9.514E-2      -3.12         9.538E-2      -3.17         0.81003       -4.69          
15.2993       0.04834       -175.61       9.513E-2      -3.19         9.535E-2      -3.30         0.81017       -4.88          
15.8992       0.04835       -175.41       9.516E-2      -3.30         9.536E-2      -3.45         0.81024       -5.04          
16.4992       0.0484        -175.23       9.514E-2      -3.46         9.537E-2      -3.56         0.81006       -5.24          
17.0992       0.04844       -174.97       9.515E-2      -3.57         9.535E-2      -3.67         0.8103        -5.42          
17.6991       0.04854       -174.73       9.515E-2      -3.69         9.535E-2      -3.82         0.81023       -5.61          
18.2991       0.04852       -174.54       9.514E-2      -3.83         9.536E-2      -3.93         0.81024       -5.76          
18.8991       0.04856       -174.33       9.518E-2      -3.97         9.535E-2      -4.03         0.81058       -5.93          
19.4990       0.04855       -174.12       9.519E-2      -4.10         9.535E-2      -4.18         0.81054       -6.12          
20.0990       0.04859       -173.88       9.515E-2      -4.22         9.536E-2      -4.31         0.81042       -6.30          
20.6990       0.04863       -173.68       9.519E-2      -4.36         9.541E-2      -4.42         0.8105        -6.47          
21.2990       0.04865       -173.42       9.515E-2      -4.48         9.537E-2      -4.54         0.81035       -6.64          
21.8989       0.04872       -173.30       9.518E-2      -4.59         9.538E-2      -4.67         0.81049       -6.83          
22.4989       0.04875       -173.03       9.516E-2      -4.75         9.543E-2      -4.79         0.8105        -7.00          
23.0989       0.0488        -172.87       9.517E-2      -4.84         9.543E-2      -4.92         0.81073       -7.19          
23.6988       0.04879       -172.59       9.522E-2      -4.96         9.541E-2      -5.06         0.81035       -7.36          
24.2988       0.04884       -172.43       9.517E-2      -5.08         9.537E-2      -5.17         0.81033       -7.53          
24.8988       0.04889       -172.22       9.516E-2      -5.23         9.539E-2      -5.32         0.81023       -7.71          
25.4987       0.04893       -172.03       9.522E-2      -5.31         9.535E-2      -5.43         0.81023       -7.88          
26.0987       0.04898       -171.78       9.515E-2      -5.46         9.54E-2       -5.53         0.81015       -8.06          
26.6987       0.04904       -171.56       9.515E-2      -5.56         9.536E-2      -5.66         0.80999       -8.22          
27.2987       0.04904       -171.35       9.522E-2      -5.69         9.538E-2      -5.79         0.80979       -8.41          
27.8986       0.04908       -171.19       9.52E-2       -5.84         9.536E-2      -5.91         0.80958       -8.57          
28.4986       0.04911       -170.97       9.521E-2      -5.96         9.535E-2      -6.04         0.80952       -8.77          
29.0986       0.04913       -170.84       9.521E-2      -6.06         9.537E-2      -6.18         0.80928       -8.92          
29.6985       0.04923       -170.64       9.52E-2       -6.20         9.534E-2      -6.27         0.80917       -9.11          
30.2985       0.0492        -170.41       9.514E-2      -6.33         9.534E-2      -6.44         0.80891       -9.28          
30.8985       0.04925       -170.18       9.519E-2      -6.47         9.531E-2      -6.52         0.80892       -9.47          
31.4984       0.04931       -170.02       9.516E-2      -6.55         9.527E-2      -6.63         0.80885       -9.63          
32.0984       0.04934       -169.88       9.518E-2      -6.72         9.537E-2      -6.76         0.80884       -9.80          
32.6984       0.04936       -169.65       9.517E-2      -6.81         9.534E-2      -6.89         0.80872       -9.98          
33.2984       0.04941       -169.49       9.518E-2      -6.93         9.532E-2      -7.02         0.80863       -10.13         
33.8983       0.04943       -169.27       9.521E-2      -7.05         9.533E-2      -7.14         0.80874       -10.29         
34.4983       0.04949       -169.09       9.518E-2      -7.15         9.534E-2      -7.23         0.80889       -10.45         
35.0983       0.0495        -168.96       9.523E-2      -7.28         9.534E-2      -7.41         0.80893       -10.63         
35.6982       0.04954       -168.73       9.521E-2      -7.40         9.531E-2      -7.50         0.80906       -10.80         
36.2982       0.04958       -168.52       9.523E-2      -7.54         9.533E-2      -7.66         0.80904       -11.00         
36.8982       0.04961       -168.34       9.523E-2      -7.66         9.533E-2      -7.75         0.80888       -11.17         
37.4981       0.04966       -168.18       9.524E-2      -7.79         9.535E-2      -7.88         0.80885       -11.35         
38.0981       0.04972       -168.00       9.521E-2      -7.89         9.533E-2      -8.01         0.80885       -11.54         
38.6981       0.04973       -167.82       9.524E-2      -8.00         9.53E-2       -8.14         0.80877       -11.72         
39.2981       0.04976       -167.68       9.524E-2      -8.11         9.53E-2       -8.25         0.80874       -11.89         
39.8980       0.0498        -167.50       9.522E-2      -8.28         9.532E-2      -8.42         0.80859       -12.08         
40.4980       0.0498        -167.26       9.524E-2      -8.40         9.532E-2      -8.50         0.80858       -12.24         
41.0980       0.04989       -167.05       9.528E-2      -8.52         9.532E-2      -8.64         0.8083        -12.44         
41.6979       0.04993       -166.90       9.523E-2      -8.63         9.533E-2      -8.75         0.80853       -12.62         
42.2979       0.04996       -166.78       9.52E-2       -8.76         9.534E-2      -8.88         0.8084        -12.82         
42.8979       0.05          -166.62       9.52E-2       -8.90         9.53E-2       -8.99         0.80845       -13.00         
43.4978       0.05          -166.44       9.522E-2      -9.00         9.534E-2      -9.13         0.80853       -13.20         
44.0978       0.05009       -166.29       9.523E-2      -9.15         9.532E-2      -9.24         0.80838       -13.39         
44.6978       0.05013       -166.20       9.521E-2      -9.27         9.535E-2      -9.41         0.80854       -13.59         
45.2978       0.05019       -165.97       9.523E-2      -9.40         9.533E-2      -9.48         0.80843       -13.77         
45.8977       0.05024       -165.76       9.521E-2      -9.52         9.535E-2      -9.61         0.80855       -13.95         
46.4977       0.05026       -165.61       9.515E-2      -9.65         9.531E-2      -9.74         0.80854       -14.15         
47.0977       0.05024       -165.44       9.522E-2      -9.79         9.536E-2      -9.88         0.80944       -14.33         
47.6976       0.05034       -165.25       9.521E-2      -9.93         9.526E-2      -9.98         0.80949       -14.51         
48.2976       0.05037       -165.11       9.526E-2      -10.07        9.529E-2      -10.10        0.80948       -14.68         
48.8976       0.05044       -164.97       9.52E-2       -10.19        9.531E-2      -10.23        0.80962       -14.87         
49.4975       0.0505        -164.79       9.52E-2       -10.33        9.538E-2      -10.34        0.80951       -15.04         
50.0975       0.05048       -164.64       9.516E-2      -10.43        9.529E-2      -10.48        0.80955       -15.22         
50.6975       0.05052       -164.43       9.517E-2      -10.57        9.534E-2      -10.61        0.80962       -15.41         
51.2975       0.05059       -164.29       9.514E-2      -10.67        9.536E-2      -10.79        0.80965       -15.61         
51.8974       0.05067       -164.15       9.51E-2       -10.77        9.545E-2      -10.92        0.80956       -15.78         
52.4974       0.05142       -164.24       9.504E-2      -10.80        9.622E-2      -11.31        0.80751       -15.97         
53.0974       0.05076       -163.65       9.457E-2      -10.72        9.533E-2      -11.14        0.80708       -16.06         
53.6973       0.05075       -163.62       9.515E-2      -11.17        9.532E-2      -11.26        0.81003       -16.33         
54.2973       0.05082       -163.52       9.516E-2      -11.28        9.531E-2      -11.41        0.80997       -16.51         
54.8973       0.05086       -163.36       9.516E-2      -11.41        9.531E-2      -11.51        0.80996       -16.68         
55.4972       0.05093       -163.23       9.517E-2      -11.52        9.537E-2      -11.62        0.81008       -16.85         
56.0972       0.05096       -163.04       9.514E-2      -11.66        9.531E-2      -11.73        0.80989       -17.03         
56.6972       0.05101       -162.85       9.514E-2      -11.77        9.53E-2       -11.85        0.80982       -17.19         
57.2972       0.05107       -162.66       9.516E-2      -11.90        9.532E-2      -11.95        0.80985       -17.37         
57.8971       0.05109       -162.48       9.514E-2      -12.01        9.53E-2       -12.09        0.80984       -17.55         
58.4971       0.05114       -162.37       9.517E-2      -12.13        9.532E-2      -12.24        0.81002       -17.73         
59.0971       0.05118       -162.20       9.518E-2      -12.25        9.534E-2      -12.35        0.80992       -17.90         
59.6970       0.05123       -162.02       9.519E-2      -12.37        9.536E-2      -12.50        0.81014       -18.08         
60.2970       0.05126       -161.86       9.516E-2      -12.50        9.532E-2      -12.60        0.81011       -18.24         
60.8970       0.05133       -161.66       9.52E-2       -12.63        9.533E-2      -12.76        0.81015       -18.42         
61.4969       0.05136       -161.55       9.518E-2      -12.77        9.532E-2      -12.88        0.81001       -18.61         
62.0969       0.05143       -161.37       9.517E-2      -12.89        9.534E-2      -12.99        0.80988       -18.78         
62.6969       0.05144       -161.29       9.519E-2      -13.01        9.53E-2       -13.13        0.8098        -18.96         
63.2969       0.05152       -161.08       9.519E-2      -13.13        9.536E-2      -13.24        0.80986       -19.14         
63.8968       0.05159       -160.94       9.52E-2       -13.24        9.534E-2      -13.36        0.80981       -19.30         
64.4968       0.05166       -160.76       9.52E-2       -13.37        9.534E-2      -13.51        0.8098        -19.48         
65.0968       0.05168       -160.63       9.517E-2      -13.48        9.535E-2      -13.61        0.80978       -19.65         
65.6967       0.05176       -160.42       9.518E-2      -13.60        9.536E-2      -13.75        0.80986       -19.82         
66.2967       0.05179       -160.33       9.518E-2      -13.72        9.532E-2      -13.87        0.80979       -20.01         
66.8967       0.05178       -160.16       9.517E-2      -13.88        9.534E-2      -13.98        0.80962       -20.19         
67.4966       0.05186       -159.99       9.514E-2      -13.98        9.535E-2      -14.12        0.80955       -20.37         
68.0966       0.05189       -159.82       9.518E-2      -14.09        9.539E-2      -14.20        0.80958       -20.55         
68.6966       0.05197       -159.66       9.515E-2      -14.21        9.539E-2      -14.35        0.80958       -20.70         
69.2966       0.05208       -159.50       9.518E-2      -14.36        9.537E-2      -14.45        0.80947       -20.90         
69.8965       0.05212       -159.33       9.519E-2      -14.49        9.538E-2      -14.57        0.80953       -21.08         
70.4965       0.05215       -159.26       9.519E-2      -14.58        9.534E-2      -14.72        0.80961       -21.26         
71.0965       0.05218       -159.11       9.518E-2      -14.74        9.538E-2      -14.82        0.8096        -21.43         
71.6964       0.05227       -158.91       9.515E-2      -14.86        9.537E-2      -14.96        0.80952       -21.60         
72.2964       0.05231       -158.82       9.518E-2      -14.99        9.531E-2      -15.09        0.80948       -21.77         
72.8964       0.05241       -158.70       9.522E-2      -15.13        9.535E-2      -15.20        0.80947       -21.96         
73.4963       0.05251       -158.54       9.516E-2      -15.25        9.532E-2      -15.34        0.80949       -22.14         
74.0963       0.05252       -158.40       9.518E-2      -15.38        9.535E-2      -15.47        0.8096        -22.32         
74.6963       0.05256       -158.29       9.517E-2      -15.48        9.532E-2      -15.57        0.80931       -22.48         
75.2963       0.05264       -158.11       9.516E-2      -15.62        9.532E-2      -15.71        0.80939       -22.67         
75.8962       0.05269       -157.96       9.518E-2      -15.75        9.533E-2      -15.83        0.80943       -22.84         
76.4962       0.05277       -157.76       9.519E-2      -15.86        9.536E-2      -15.95        0.80961       -23.02         
77.0962       0.05285       -157.69       9.518E-2      -15.97        9.537E-2      -16.06        0.80958       -23.19         
77.6961       0.05288       -157.53       9.516E-2      -16.10        9.538E-2      -16.21        0.80985       -23.36         
78.2961       0.05298       -157.35       9.519E-2      -16.20        9.537E-2      -16.30        0.80978       -23.54         
78.8961       0.05302       -157.25       9.517E-2      -16.37        9.537E-2      -16.41        0.80989       -23.71         
79.4960       0.05307       -157.08       9.52E-2       -16.48        9.54E-2       -16.56        0.81007       -23.87         
80.0960       0.05311       -156.98       9.519E-2      -16.60        9.537E-2      -16.67        0.81005       -24.06         
80.6960       0.05319       -156.87       9.52E-2       -16.72        9.536E-2      -16.79        0.81011       -24.22         
81.2960       0.05325       -156.74       9.521E-2      -16.84        9.542E-2      -16.91        0.81022       -24.39         
81.8959       0.05331       -156.57       9.52E-2       -16.96        9.541E-2      -17.02        0.81037       -24.56         
82.4959       0.05342       -156.42       9.522E-2      -17.08        9.542E-2      -17.14        0.81051       -24.74         
83.0959       0.05344       -156.27       9.519E-2      -17.21        9.542E-2      -17.28        0.81058       -24.90         
83.6958       0.05353       -156.11       9.523E-2      -17.34        9.54E-2       -17.40        0.81067       -25.08         
84.2958       0.0536        -155.94       9.525E-2      -17.48        9.538E-2      -17.52        0.81076       -25.25         
84.8958       0.05364       -155.84       9.524E-2      -17.58        9.539E-2      -17.67        0.8107        -25.42         
85.4957       0.05373       -155.71       9.527E-2      -17.71        9.54E-2       -17.81        0.81092       -25.60         
86.0957       0.05377       -155.54       9.528E-2      -17.84        9.537E-2      -17.92        0.81079       -25.79         
86.6957       0.05384       -155.34       9.522E-2      -17.97        9.54E-2       -18.06        0.8109        -25.95         
87.2957       0.0539        -155.24       9.53E-2       -18.09        9.54E-2       -18.18        0.81105       -26.14         
87.8956       0.05393       -155.11       9.524E-2      -18.21        9.539E-2      -18.28        0.81105       -26.30         
88.4956       0.05409       -154.94       9.527E-2      -18.32        9.537E-2      -18.42        0.81105       -26.46         
89.0956       0.05415       -154.81       9.526E-2      -18.45        9.537E-2      -18.55        0.81111       -26.63         
89.6955       0.0542        -154.62       9.53E-2       -18.56        9.537E-2      -18.67        0.8113        -26.80         
90.2955       0.0543        -154.52       9.53E-2       -18.69        9.539E-2      -18.78        0.81144       -26.98         
90.8955       0.05433       -154.41       9.531E-2      -18.81        9.537E-2      -18.88        0.8114        -27.15         
91.4954       0.05441       -154.22       9.535E-2      -18.94        9.536E-2      -19.04        0.81151       -27.33         
92.0954       0.05449       -154.06       9.533E-2      -19.09        9.537E-2      -19.15        0.81138       -27.49         
