!    8/10/2020   01:52:19 
! Ref Plane: 0.000 mm
# MHZ S MA R  50
!
0.3000        0.82023       0.25          1.033E-5      -5.21         1.96E-5       97.51         0.99624       -0.37          
0.9000        0.81917       0.29          6.625E-5      -141.11       7.718E-5      -90.29        0.99695       -0.32          
1.4999        0.82044       0.24          4.177E-5      169.47        4.059E-5      19.00         0.99818       -0.30          
2.0999        0.82016       0.21          9.707E-5      -115.42       2.116E-5      162.19        0.99874       -0.24          
2.6999        0.82005       0.16          5.405E-5      -81.07        1.412E-5      -140.48       0.99905       -0.20          
3.2999        0.81996       0.11          5.134E-6      -5.87         9.158E-6      -126.19       0.99899       -0.16          
3.8998        0.81989       0.08          2.198E-5      -52.21        4.072E-5      -93.44        0.9991        -0.15          
4.4998        0.81977       0.02          2.573E-5      -106.44       1.828E-5      -14.86        0.99913       -0.13          
5.0998        0.81968       -0.03         1.617E-5      -144.06       2.402E-5      89.49         0.99913       -0.11          
5.6997        0.81955       -0.07         3.29E-5       121.62        1.559E-5      -67.06        0.99916       -0.11          
6.2997        0.81956       -0.11         3.644E-5      127.02        8.972E-6      179.18        0.99917       -0.10          
6.8997        0.81952       -0.15         4.581E-5      -88.18        1.053E-5      -76.20        0.99916       -0.10          
7.4996        0.81951       -0.19         3.27E-5       81.88         4.01E-5       116.15        0.99925       -0.09          
8.0996        0.81956       -0.23         4.169E-5      -132.42       2.974E-5      -87.84        0.99921       -0.09          
8.6996        0.81943       -0.28         2.602E-5      138.35        3.377E-5      118.15        0.99918       -0.09          
9.2996        0.81937       -0.32         5.312E-5      -33.60        3.666E-5      -5.91         0.99923       -0.09          
9.8995        0.81946       -0.36         5.433E-5      -81.33        2.191E-5      92.54         0.99929       -0.08          
10.4995       0.81931       -0.41         2.825E-5      114.95        1.819E-5      -43.24        0.99929       -0.08          
11.0995       0.81926       -0.44         3.473E-5      -82.71        4.216E-6      175.92        0.99925       -0.08          
11.6994       0.81921       -0.48         1.054E-5      -167.45       5.472E-5      22.34         0.99924       -0.08          
12.2994       0.81925       -0.52         8.589E-5      -160.42       2.509E-5      130.29        0.99927       -0.08          
12.8994       0.81927       -0.56         7.494E-5      65.46         2.346E-5      42.65         0.99925       -0.08          
13.4993       0.81922       -0.60         5.247E-5      -42.99        8.985E-6      98.83         0.99936       -0.08          
14.0993       0.81922       -0.65         3.942E-5      72.55         5.463E-5      -79.53        0.9993        -0.08          
14.6993       0.81915       -0.69         9.126E-5      -124.46       1.615E-5      -75.33        0.99929       -0.08          
15.2993       0.81903       -0.72         6.152E-5      127.33        5.243E-5      78.37         0.9993        -0.08          
15.8992       0.81906       -0.77         5.407E-5      49.99         2.49E-5       -105.69       0.99936       -0.08          
16.4992       0.81906       -0.81         2.21E-5       98.29         5.905E-5      -4.76         0.99936       -0.08          
17.0992       0.81897       -0.84         6.798E-5      56.00         1.533E-5      84.00         0.99937       -0.08          
17.6991       0.81904       -0.87         3.418E-5      131.10        1.503E-6      -173.06       0.99929       -0.08          
18.2991       0.81896       -0.92         4.065E-5      -167.11       1.175E-5      -121.78       0.99931       -0.08          
18.8991       0.81879       -0.97         2.935E-5      -98.99        2.719E-5      55.35         0.99941       -0.08          
19.4990       0.81895       -1.01         4.154E-5      -47.42        1.817E-5      -95.75        0.99938       -0.08          
20.0990       0.81891       -1.05         2.831E-5      -34.43        7.382E-6      -113.21       0.99934       -0.08          
20.6990       0.81886       -1.09         4.16E-5       -74.07        3.339E-5      73.58         0.99939       -0.08          
21.2990       0.81885       -1.13         4.94E-5       -154.77       1.369E-5      54.95         0.99942       -0.08          
21.8989       0.81882       -1.17         4.686E-5      -63.86        4.67E-5       81.13         0.99942       -0.09          
22.4989       0.8188        -1.21         8.139E-5      -130.85       8.055E-6      -147.36       0.99946       -0.09          
23.0989       0.81866       -1.25         5.253E-5      145.45        1.567E-5      -14.42        0.99947       -0.09          
23.6988       0.81878       -1.29         4.628E-5      84.36         4.265E-5      4.61          0.99942       -0.09          
24.2988       0.81872       -1.33         2.749E-5      113.26        4.515E-6      27.07         0.9994        -0.09          
24.8988       0.81875       -1.37         2.51E-5       23.25         1.422E-5      45.20         0.99948       -0.09          
25.4987       0.81877       -1.41         4.155E-5      17.76         3.686E-5      -62.73        0.99945       -0.09          
26.0987       0.81879       -1.44         6.054E-5      173.11        4.462E-5      36.89         0.99945       -0.09          
26.6987       0.81879       -1.48         2.534E-5      160.66        3.198E-5      109.63        0.9995        -0.09          
27.2987       0.8187        -1.53         8.04E-5       33.78         4.809E-5      81.34         0.99948       -0.10          
27.8986       0.81875       -1.56         2.448E-5      -134.69       2.466E-5      23.48         0.99943       -0.10          
28.4986       0.81867       -1.60         1.915E-5      -0.88         1.346E-5      135.91        0.99949       -0.10          
29.0986       0.81871       -1.64         2.945E-5      56.25         2.961E-5      -61.62        0.99954       -0.10          
29.6985       0.81858       -1.68         3.304E-5      103.73        4.695E-6      -177.91       0.99951       -0.10          
30.2985       0.8186        -1.72         6.587E-6      166.76        5.266E-6      173.71        0.99952       -0.10          
30.8985       0.81861       -1.75         5.29E-5       -39.71        3.199E-5      128.47        0.99953       -0.10          
31.4984       0.81856       -1.79         5.808E-5      86.43         4.822E-5      -178.57       0.99948       -0.11          
32.0984       0.81857       -1.83         3.012E-5      -111.94       1.13E-5       79.57         0.99947       -0.11          
32.6984       0.81856       -1.87         3.987E-5      -96.59        3.113E-5      42.44         0.99947       -0.11          
33.2984       0.81874       -1.91         2.171E-5      -83.50        2.101E-5      103.63        0.99951       -0.11          
33.8983       0.81863       -1.95         4.652E-5      -15.08        3.959E-5      -45.80        0.99948       -0.11          
34.4983       0.81843       -1.98         4.031E-6      -58.91        3.736E-5      56.63         0.99947       -0.11          
35.0983       0.81857       -2.02         3.387E-5      -82.90        5.024E-5      -53.38        0.99951       -0.11          
35.6982       0.8184        -2.05         2.828E-5      -79.14        4.131E-5      126.32        0.99953       -0.11          
36.2982       0.81853       -2.08         5.578E-5      -126.54       8.593E-6      -142.68       0.99954       -0.11          
36.8982       0.81851       -2.12         6.44E-5       -126.59       4.777E-5      23.25         0.99949       -0.12          
37.4981       0.81857       -2.15         1.708E-5      168.31        1.029E-5      82.34         0.99948       -0.12          
38.0981       0.81849       -2.19         1.855E-5      102.58        1.678E-5      161.75        0.99952       -0.12          
38.6981       0.81845       -2.22         3.981E-5      4.68          1.571E-5      129.55        0.99948       -0.12          
39.2981       0.81848       -2.27         3.687E-5      152.49        2.911E-5      -173.60       0.99945       -0.12          
39.8980       0.81855       -2.29         3.765E-5      -85.53        4.872E-5      -62.55        0.99953       -0.12          
40.4980       0.81848       -2.34         2.21E-5       -98.55        2.601E-5      49.86         0.99955       -0.13          
41.0980       0.81851       -2.39         5.642E-5      -75.21        9.804E-6      38.34         0.99953       -0.13          
41.6979       0.81842       -2.41         2.866E-5      50.65         1.743E-5      12.33         0.99963       -0.13          
42.2979       0.81849       -2.46         2.903E-5      78.22         1.927E-5      -14.33        0.99953       -0.13          
42.8979       0.81842       -2.49         2.664E-5      -174.71       3.151E-5      135.22        0.99957       -0.13          
43.4978       0.81838       -2.53         2.885E-5      136.35        2.363E-5      -169.69       0.99961       -0.13          
44.0978       0.81839       -2.56         8.945E-6      -102.67       1.502E-5      -5.03         0.99957       -0.14          
44.6978       0.81833       -2.58         1.251E-5      165.00        1.653E-5      -32.53        0.99956       -0.14          
45.2978       0.81848       -2.63         2.844E-5      -3.68         3.836E-6      -145.41       0.9996        -0.14          
45.8977       0.81842       -2.67         3.179E-5      145.12        9.339E-6      -10.67        0.99958       -0.14          
46.4977       0.81834       -2.70         3.757E-5      149.39        2.37E-5       107.58        0.99955       -0.14          
47.0977       0.81835       -2.73         5.357E-5      47.36         5.078E-5      -0.82         0.9997        -0.14          
47.6976       0.81822       -2.76         3.958E-5      90.34         4.427E-5      -170.62       0.99969       -0.15          
48.2976       0.81826       -2.80         3.388E-5      6.56          1.602E-5      159.75        0.9997        -0.15          
48.8976       0.8182        -2.83         3.57E-5       91.44         4.214E-5      -176.34       0.99972       -0.15          
49.4975       0.81819       -2.86         1.174E-5      -3.58         3.804E-5      69.26         0.99961       -0.15          
50.0975       0.81825       -2.91         1.778E-5      81.36         3.851E-5      -140.52       0.99963       -0.15          
50.6975       0.81825       -2.94         1.996E-5      -44.10        3.38E-5       -173.63       0.99962       -0.15          
51.2975       0.81825       -2.97         5.252E-5      45.56         1.835E-5      121.44        0.99967       -0.16          
51.8974       0.81833       -3.01         4.713E-5      48.52         2.501E-5      162.08        0.9996        -0.16          
52.4974       0.82057       -3.03         3.299E-5      42.51         2.83E-5       10.88         0.99966       -0.16          
53.0974       0.81814       -2.98         2.085E-5      143.91        3.23E-5       169.01        0.99971       -0.16          
53.6973       0.81822       -3.11         5.319E-5      83.59         2.398E-6      154.35        0.99969       -0.16          
54.2973       0.81815       -3.14         1.811E-5      165.06        3.502E-5      -38.50        0.99965       -0.17          
54.8973       0.81814       -3.19         2.546E-5      172.04        3.377E-5      24.63         0.99966       -0.17          
55.4972       0.8182        -3.21         2.074E-5      71.21         1.945E-6      -40.12        0.99969       -0.17          
56.0972       0.81831       -3.24         5.577E-5      43.07         2.032E-5      56.19         0.99965       -0.17          
56.6972       0.81822       -3.29         7.665E-5      -30.93        3.443E-5      127.84        0.9997        -0.17          
57.2972       0.8182        -3.33         1.406E-5      -99.04        1.12E-5       88.59         0.99971       -0.17          
57.8971       0.8182        -3.36         4.601E-5      39.80         2.313E-5      0.21          0.99966       -0.17          
58.4971       0.81808       -3.39         4.742E-5      -63.32        1.981E-5      47.71         0.99968       -0.18          
59.0971       0.81814       -3.45         3.875E-5      3.56          3.463E-5      111.00        0.99971       -0.18          
59.6970       0.81813       -3.47         2.025E-5      117.74        1.891E-5      23.57         0.99968       -0.18          
60.2970       0.81803       -3.51         3.484E-5      118.85        1.695E-5      -149.68       0.9997        -0.18          
60.8970       0.81799       -3.53         5.306E-5      -133.99       1.312E-5      8.66          0.99966       -0.18          
61.4969       0.81794       -3.57         3.165E-5      -112.72       1.351E-5      -24.49        0.99971       -0.19          
62.0969       0.81804       -3.60         6.271E-6      59.42         2.469E-5      123.03        0.99975       -0.19          
62.6969       0.81802       -3.65         2.137E-5      -95.86        2.484E-5      17.79         0.99972       -0.19          
63.2969       0.81798       -3.68         2.651E-5      123.39        2.667E-5      49.27         0.99975       -0.19          
63.8968       0.81779       -3.71         5.056E-5      149.97        1.057E-5      82.91         0.99972       -0.19          
64.4968       0.81785       -3.75         5.001E-5      -23.51        2.138E-5      150.87        0.99969       -0.19          
65.0968       0.81774       -3.78         2.943E-5      169.84        3.174E-5      67.15         0.99974       -0.19          
65.6967       0.81773       -3.82         3.366E-5      -87.22        2.718E-5      16.03         0.99976       -0.19          
66.2967       0.81769       -3.85         6.102E-5      -54.86        7.078E-6      -17.84        0.99975       -0.20          
66.8967       0.81782       -3.88         1.904E-5      162.96        3.485E-5      -28.62        0.99976       -0.20          
67.4966       0.81793       -3.91         3.24E-5       86.85         2.417E-5      118.17        0.99972       -0.20          
68.0966       0.81793       -3.95         9.114E-6      -43.13        4.533E-5      81.40         0.9997        -0.20          
68.6966       0.81782       -4.00         3.121E-5      35.99         5.065E-6      127.65        0.99973       -0.20          
69.2966       0.81781       -4.02         1.832E-5      14.59         2.794E-5      -168.13       0.99974       -0.20          
69.8965       0.81779       -4.06         2.955E-5      -113.52       3.319E-5      48.67         0.99976       -0.21          
70.4965       0.81773       -4.10         2.874E-5      20.72         2.617E-5      -159.50       0.99976       -0.21          
71.0965       0.81766       -4.14         3.382E-5      162.55        1.688E-5      97.97         0.99975       -0.21          
71.6964       0.81768       -4.18         2.169E-5      79.86         1.107E-5      -109.65       0.99979       -0.21          
72.2964       0.81761       -4.21         5.656E-5      109.36        2.074E-5      9.82          0.99978       -0.21          
72.8964       0.81758       -4.25         2.063E-5      -90.24        3.616E-5      89.52         0.99982       -0.21          
73.4963       0.81759       -4.29         1.697E-5      -110.64       3.528E-5      -19.83        0.99976       -0.21          
74.0963       0.8176        -4.32         8.223E-5      -123.97       4.503E-5      72.82         0.99977       -0.21          
74.6963       0.81764       -4.37         1.869E-5      -125.08       1.508E-5      -73.03        0.99979       -0.21          
75.2963       0.81758       -4.41         3.965E-5      126.65        2.875E-5      -107.97       0.99975       -0.21          
75.8962       0.81753       -4.44         6.026E-5      -150.78       3.987E-5      121.00        0.99981       -0.21          
76.4962       0.81741       -4.48         9.446E-6      -77.10        1.391E-5      75.80         0.9998        -0.21          
77.0962       0.81749       -4.51         2.755E-5      128.95        9.191E-6      133.60        0.99979       -0.21          
77.6961       0.81735       -4.55         4.078E-5      153.37        2.437E-5      63.08         0.99976       -0.21          
78.2961       0.81743       -4.58         6.686E-5      -27.26        3.403E-6      153.68        0.9998        -0.22          
78.8961       0.81729       -4.62         4.779E-5      77.57         4.00E-5       -153.60       0.99972       -0.21          
79.4960       0.81723       -4.65         5.535E-5      -137.37       1.205E-5      96.68         0.99974       -0.22          
80.0960       0.8173        -4.69         5.092E-6      38.12         2.516E-5      -111.76       0.99978       -0.21          
80.6960       0.81733       -4.72         3.869E-5      -165.34       2.236E-5      -126.92       0.99975       -0.21          
81.2960       0.81718       -4.77         1.268E-5      -110.02       2.506E-5      80.22         0.99979       -0.22          
81.8959       0.81716       -4.80         3.556E-5      35.67         9.492E-6      54.83         0.99982       -0.22          
82.4959       0.81719       -4.83         5.404E-6      -139.33       2.268E-5      161.00        0.9998        -0.22          
83.0959       0.81715       -4.88         2.185E-5      37.93         4.098E-5      151.43        0.99975       -0.22          
83.6958       0.81706       -4.90         3.137E-5      122.37        1.288E-5      -57.25        0.99975       -0.22          
84.2958       0.81706       -4.95         2.189E-5      175.84        5.995E-6      -48.36        0.99979       -0.22          
84.8958       0.81705       -4.99         2.972E-5      -56.65        9.145E-6      -5.15         0.99978       -0.23          
85.4957       0.81698       -5.02         3.105E-5      141.66        4.543E-5      99.09         0.99973       -0.23          
86.0957       0.81707       -5.06         3.378E-5      -95.13        1.284E-5      98.42         0.99972       -0.23          
86.6957       0.81698       -5.10         1.802E-5      -42.56        2.875E-5      -92.25        0.99973       -0.23          
87.2957       0.81693       -5.13         5.165E-5      120.28        2.496E-5      106.46        0.9998        -0.23          
87.8956       0.81699       -5.17         3.159E-5      -61.39        5.156E-6      -97.40        0.99977       -0.23          
88.4956       0.81697       -5.21         6.378E-5      48.88         3.532E-5      115.84        0.99978       -0.23          
89.0956       0.81694       -5.24         6.193E-5      118.10        2.824E-5      -75.56        0.99977       -0.23          
89.6955       0.81683       -5.29         4.596E-5      101.49        3.90E-5       44.41         0.99974       -0.23          
90.2955       0.81691       -5.33         5.717E-6      -65.43        3.807E-6      155.42        0.99975       -0.23          
90.8955       0.81677       -5.36         4.241E-5      -141.85       2.49E-5       -130.37       0.99973       -0.24          
91.4954       0.81675       -5.40         6.208E-5      -94.15        1.341E-5      -59.96        0.99979       -0.24          
92.0954       0.81677       -5.44         2.479E-5      178.79        1.721E-5      160.72        0.99975       -0.24          
