!    8/6/2020   03:35:34 
! Ref Plane: 0.000 mm
# MHZ S MA R  50
!
0.3000        0.04744       178.99        9.897E-2      -1.02         9.638E-2      -0.86         0.81513       -0.41          
0.9000        0.04769       179.09        9.503E-2      -0.56         9.528E-2      -0.30         0.80934       -0.54          
1.4999        0.04777       179.23        9.519E-2      -0.40         9.533E-2      -0.42         0.80911       -0.68          
2.0999        0.04774       179.41        9.517E-2      -0.56         9.532E-2      -0.51         0.80922       -0.87          
2.6999        0.04779       179.56        9.52E-2       -0.68         9.534E-2      -0.66         0.80933       -1.03          
3.2999        0.04777       179.86        9.521E-2      -0.77         9.535E-2      -0.84         0.80941       -1.21          
3.8998        0.04787       -179.99       9.516E-2      -0.94         9.535E-2      -0.98         0.80935       -1.39          
4.4998        0.04784       -179.77       9.518E-2      -1.09         9.538E-2      -1.10         0.80942       -1.55          
5.0998        0.04792       -179.48       9.516E-2      -1.19         9.534E-2      -1.22         0.80944       -1.72          
5.6997        0.04791       -179.25       9.518E-2      -1.34         9.54E-2       -1.40         0.80957       -1.90          
6.2997        0.04795       -179.12       9.514E-2      -1.50         9.537E-2      -1.52         0.80934       -2.09          
6.8997        0.04798       -178.91       9.519E-2      -1.67         9.535E-2      -1.66         0.80956       -2.26          
7.4996        0.04801       -178.62       9.518E-2      -1.76         9.537E-2      -1.79         0.80961       -2.46          
8.0996        0.04807       -178.41       9.516E-2      -1.93         9.535E-2      -1.95         0.80932       -2.64          
8.6996        0.04806       -178.20       9.517E-2      -2.06         9.541E-2      -2.08         0.80958       -2.80          
9.2996        0.0481        -177.97       9.522E-2      -2.21         9.539E-2      -2.24         0.80969       -2.99          
9.8995        0.04811       -177.74       9.52E-2       -2.37         9.542E-2      -2.38         0.80935       -3.15          
10.4995       0.04815       -177.56       9.519E-2      -2.51         9.541E-2      -2.52         0.80979       -3.33          
11.0995       0.0482        -177.34       9.521E-2      -2.65         9.543E-2      -2.64         0.80982       -3.51          
11.6994       0.04822       -177.10       9.52E-2       -2.75         9.544E-2      -2.79         0.80991       -3.69          
12.2994       0.04826       -176.87       9.519E-2      -2.92         9.541E-2      -2.93         0.80978       -3.87          
12.8994       0.04827       -176.67       9.522E-2      -2.98         9.543E-2      -3.08         0.80973       -4.03          
13.4993       0.04829       -176.47       9.53E-2       -3.22         9.543E-2      -3.25         0.80992       -4.23          
14.0993       0.04837       -176.31       9.525E-2      -3.31         9.54E-2       -3.39         0.80995       -4.39          
14.6993       0.04838       -176.06       9.521E-2      -3.49         9.547E-2      -3.52         0.80986       -4.56          
15.2993       0.04839       -175.87       9.519E-2      -3.57         9.54E-2       -3.66         0.80998       -4.74          
15.8992       0.04843       -175.68       9.524E-2      -3.72         9.545E-2      -3.83         0.81006       -4.90          
16.4992       0.04849       -175.50       9.525E-2      -3.88         9.546E-2      -3.97         0.80996       -5.09          
17.0992       0.04851       -175.25       9.527E-2      -4.01         9.544E-2      -4.10         0.81012       -5.27          
17.6991       0.04861       -175.05       9.526E-2      -4.15         9.545E-2      -4.25         0.81002       -5.45          
18.2991       0.0486        -174.91       9.526E-2      -4.30         9.548E-2      -4.39         0.81007       -5.60          
18.8991       0.04863       -174.68       9.53E-2       -4.46         9.549E-2      -4.50         0.81037       -5.77          
19.4990       0.04865       -174.47       9.532E-2      -4.60         9.549E-2      -4.67         0.81028       -5.95          
20.0990       0.0487        -174.23       9.529E-2      -4.72         9.55E-2       -4.81         0.81023       -6.14          
20.6990       0.04874       -174.03       9.532E-2      -4.90         9.553E-2      -4.96         0.81029       -6.30          
21.2990       0.04873       -173.79       9.533E-2      -5.04         9.553E-2      -5.09         0.81016       -6.47          
21.8989       0.04879       -173.67       9.535E-2      -5.17         9.554E-2      -5.24         0.81029       -6.65          
22.4989       0.04884       -173.44       9.533E-2      -5.33         9.56E-2       -5.36         0.81029       -6.83          
23.0989       0.0489        -173.29       9.532E-2      -5.44         9.56E-2       -5.54         0.81047       -7.01          
23.6988       0.04889       -173.01       9.538E-2      -5.59         9.559E-2      -5.66         0.81011       -7.18          
24.2988       0.04892       -172.89       9.536E-2      -5.71         9.559E-2      -5.80         0.81013       -7.34          
24.8988       0.049         -172.67       9.536E-2      -5.88         9.559E-2      -5.97         0.81          -7.52          
25.4987       0.04904       -172.51       9.54E-2       -6.00         9.558E-2      -6.10         0.81001       -7.69          
26.0987       0.04907       -172.29       9.532E-2      -6.15         9.562E-2      -6.22         0.80992       -7.87          
26.6987       0.04915       -172.09       9.538E-2      -6.29         9.557E-2      -6.37         0.80974       -8.03          
27.2987       0.04914       -171.88       9.545E-2      -6.42         9.561E-2      -6.51         0.80952       -8.21          
27.8986       0.04918       -171.74       9.542E-2      -6.61         9.56E-2       -6.65         0.80932       -8.37          
28.4986       0.04924       -171.49       9.546E-2      -6.73         9.562E-2      -6.80         0.80931       -8.57          
29.0986       0.04928       -171.43       9.543E-2      -6.86         9.563E-2      -6.95         0.80911       -8.72          
29.6985       0.04935       -171.20       9.545E-2      -6.99         9.56E-2       -7.06         0.80893       -8.91          
30.2985       0.04934       -170.99       9.544E-2      -7.15         9.561E-2      -7.24         0.80863       -9.08          
30.8985       0.04937       -170.78       9.549E-2      -7.30         9.559E-2      -7.36         0.80868       -9.26          
31.4984       0.04946       -170.62       9.544E-2      -7.40         9.557E-2      -7.49         0.80858       -9.42          
32.0984       0.04951       -170.51       9.548E-2      -7.57         9.566E-2      -7.66         0.8086        -9.60          
32.6984       0.04952       -170.28       9.548E-2      -7.70         9.568E-2      -7.78         0.80845       -9.77          
33.2984       0.04957       -170.14       9.548E-2      -7.86         9.565E-2      -7.93         0.80838       -9.93          
33.8983       0.04959       -169.95       9.555E-2      -7.99         9.567E-2      -8.06         0.8085        -10.09         
34.4983       0.04965       -169.76       9.553E-2      -8.11         9.57E-2       -8.20         0.80861       -10.24         
35.0983       0.04963       -169.64       9.557E-2      -8.25         9.571E-2      -8.37         0.80864       -10.43         
35.6982       0.04969       -169.44       9.557E-2      -8.40         9.568E-2      -8.50         0.8088        -10.60         
36.2982       0.04975       -169.25       9.56E-2       -8.55         9.569E-2      -8.66         0.8088        -10.79         
36.8982       0.04978       -169.07       9.558E-2      -8.70         9.573E-2      -8.81         0.8087        -10.96         
37.4981       0.04984       -168.96       9.561E-2      -8.82         9.575E-2      -8.94         0.80859       -11.14         
38.0981       0.0499        -168.77       9.563E-2      -8.95         9.574E-2      -9.10         0.80859       -11.33         
38.6981       0.04993       -168.61       9.565E-2      -9.09         9.574E-2      -9.23         0.80853       -11.52         
39.2981       0.04996       -168.45       9.566E-2      -9.23         9.572E-2      -9.39         0.8085        -11.69         
39.8980       0.04999       -168.28       9.564E-2      -9.40         9.578E-2      -9.57         0.80836       -11.88         
40.4980       0.05003       -168.07       9.568E-2      -9.56         9.577E-2      -9.65         0.80835       -12.05         
41.0980       0.0501        -167.89       9.571E-2      -9.70         9.58E-2       -9.83         0.80809       -12.24         
41.6979       0.05013       -167.78       9.569E-2      -9.84         9.581E-2      -9.96         0.80828       -12.43         
42.2979       0.0502        -167.67       9.569E-2      -9.97         9.585E-2      -10.10        0.8082        -12.62         
42.8979       0.05024       -167.48       9.567E-2      -10.16        9.581E-2      -10.23        0.80827       -12.81         
43.4978       0.05022       -167.34       9.57E-2       -10.27        9.585E-2      -10.40        0.80831       -13.00         
44.0978       0.05033       -167.22       9.571E-2      -10.43        9.585E-2      -10.53        0.8082        -13.20         
44.6978       0.05037       -167.11       9.571E-2      -10.58        9.585E-2      -10.71        0.80838       -13.40         
45.2978       0.05042       -166.93       9.577E-2      -10.74        9.585E-2      -10.83        0.80828       -13.59         
45.8977       0.05051       -166.76       9.578E-2      -10.88        9.588E-2      -10.96        0.8084        -13.77         
46.4977       0.05049       -166.61       9.573E-2      -11.05        9.588E-2      -11.10        0.80841       -13.97         
47.0977       0.05051       -166.44       9.58E-2       -11.19        9.591E-2      -11.27        0.80934       -14.15         
47.6976       0.05058       -166.26       9.577E-2      -11.36        9.588E-2      -11.41        0.80936       -14.33         
48.2976       0.05064       -166.16       9.583E-2      -11.52        9.589E-2      -11.54        0.80937       -14.51         
48.8976       0.0507        -166.02       9.58E-2       -11.65        9.591E-2      -11.70        0.80954       -14.70         
49.4975       0.05076       -165.84       9.581E-2      -11.79        9.597E-2      -11.85        0.80943       -14.88         
50.0975       0.05076       -165.73       9.58E-2       -11.94        9.594E-2      -12.01        0.80948       -15.06         
50.6975       0.05082       -165.54       9.58E-2       -12.11        9.596E-2      -12.17        0.80962       -15.26         
51.2975       0.05088       -165.40       9.58E-2       -12.23        9.603E-2      -12.34        0.80964       -15.45         
51.8974       0.05096       -165.26       9.575E-2      -12.36        9.606E-2      -12.49        0.80963       -15.63         
52.4974       0.05171       -165.40       9.577E-2      -12.46        9.678E-2      -12.85        0.80754       -15.82         
53.0974       0.05101       -164.93       9.58E-2       -12.57        9.601E-2      -12.77        0.80711       -15.92         
53.6973       0.05106       -164.80       9.581E-2      -12.81        9.602E-2      -12.93        0.81009       -16.20         
54.2973       0.05112       -164.72       9.583E-2      -12.97        9.605E-2      -13.08        0.81008       -16.38         
54.8973       0.05116       -164.56       9.583E-2      -13.13        9.601E-2      -13.20        0.81008       -16.55         
55.4972       0.05121       -164.43       9.587E-2      -13.26        9.605E-2      -13.35        0.81019       -16.73         
56.0972       0.05128       -164.27       9.585E-2      -13.41        9.605E-2      -13.50        0.81004       -16.92         
56.6972       0.05132       -164.07       9.587E-2      -13.56        9.602E-2      -13.60        0.81003       -17.08         
57.2972       0.05141       -163.93       9.589E-2      -13.69        9.605E-2      -13.76        0.81001       -17.27         
57.8971       0.05141       -163.77       9.589E-2      -13.82        9.606E-2      -13.90        0.81          -17.45         
58.4971       0.05148       -163.63       9.595E-2      -13.97        9.608E-2      -14.07        0.81019       -17.64         
59.0971       0.05154       -163.52       9.593E-2      -14.11        9.611E-2      -14.22        0.81013       -17.81         
59.6970       0.05159       -163.31       9.596E-2      -14.24        9.616E-2      -14.34        0.81031       -18.00         
60.2970       0.05162       -163.16       9.592E-2      -14.38        9.613E-2      -14.51        0.81035       -18.18         
60.8970       0.05171       -163.01       9.601E-2      -14.54        9.619E-2      -14.67        0.81034       -18.36         
61.4969       0.05173       -162.91       9.602E-2      -14.68        9.617E-2      -14.83        0.81022       -18.55         
62.0969       0.05184       -162.73       9.603E-2      -14.82        9.622E-2      -14.93        0.81009       -18.73         
62.6969       0.05186       -162.64       9.608E-2      -14.98        9.618E-2      -15.11        0.81003       -18.92         
63.2969       0.05198       -162.49       9.607E-2      -15.13        9.626E-2      -15.24        0.81007       -19.11         
63.8968       0.05201       -162.35       9.611E-2      -15.27        9.629E-2      -15.38        0.80996       -19.27         
64.4968       0.05211       -162.17       9.614E-2      -15.42        9.632E-2      -15.54        0.81001       -19.46         
65.0968       0.05217       -162.04       9.614E-2      -15.53        9.639E-2      -15.68        0.80997       -19.63         
65.6967       0.05228       -161.89       9.619E-2      -15.70        9.64E-2       -15.82        0.80999       -19.81         
66.2967       0.05228       -161.79       9.624E-2      -15.85        9.64E-2       -16.00        0.80995       -20.00         
66.8967       0.05234       -161.68       9.627E-2      -16.03        9.646E-2      -16.14        0.80978       -20.18         
67.4966       0.0524        -161.51       9.626E-2      -16.17        9.646E-2      -16.30        0.80971       -20.38         
68.0966       0.05247       -161.42       9.628E-2      -16.33        9.653E-2      -16.44        0.80976       -20.55         
68.6966       0.05257       -161.27       9.633E-2      -16.48        9.651E-2      -16.59        0.80975       -20.71         
69.2966       0.05268       -161.13       9.637E-2      -16.67        9.659E-2      -16.74        0.80962       -20.92         
69.8965       0.05271       -161.00       9.64E-2       -16.83        9.659E-2      -16.92        0.80972       -21.10         
70.4965       0.05277       -160.96       9.639E-2      -16.97        9.661E-2      -17.07        0.80982       -21.28         
71.0965       0.05284       -160.82       9.639E-2      -17.16        9.663E-2      -17.24        0.80987       -21.45         
71.6964       0.05291       -160.65       9.638E-2      -17.31        9.663E-2      -17.40        0.80983       -21.63         
72.2964       0.05296       -160.58       9.646E-2      -17.47        9.659E-2      -17.55        0.80983       -21.81         
72.8964       0.05309       -160.49       9.649E-2      -17.64        9.665E-2      -17.72        0.80976       -22.01         
73.4963       0.05318       -160.32       9.646E-2      -17.81        9.665E-2      -17.88        0.80983       -22.19         
74.0963       0.0532        -160.22       9.652E-2      -17.92        9.67E-2       -18.03        0.80989       -22.37         
74.6963       0.05328       -160.15       9.654E-2      -18.11        9.675E-2      -18.18        0.80967       -22.54         
75.2963       0.05335       -160.02       9.656E-2      -18.27        9.672E-2      -18.34        0.80979       -22.73         
75.8962       0.05346       -159.91       9.658E-2      -18.44        9.678E-2      -18.52        0.80983       -22.90         
76.4962       0.05357       -159.74       9.663E-2      -18.60        9.682E-2      -18.70        0.81005       -23.09         
77.0962       0.05362       -159.68       9.664E-2      -18.75        9.684E-2      -18.83        0.81006       -23.26         
77.6961       0.05367       -159.62       9.667E-2      -18.95        9.687E-2      -19.03        0.81033       -23.44         
78.2961       0.05379       -159.45       9.668E-2      -19.08        9.687E-2      -19.16        0.81027       -23.62         
78.8961       0.05384       -159.36       9.667E-2      -19.27        9.694E-2      -19.33        0.81042       -23.79         
79.4960       0.05393       -159.24       9.673E-2      -19.43        9.698E-2      -19.50        0.81066       -23.96         
80.0960       0.05398       -159.16       9.673E-2      -19.62        9.694E-2      -19.67        0.81064       -24.15         
80.6960       0.05405       -159.09       9.679E-2      -19.77        9.696E-2      -19.83        0.81079       -24.31         
81.2960       0.05413       -159.00       9.682E-2      -19.95        9.703E-2      -20.01        0.81094       -24.49         
81.8959       0.05421       -158.89       9.682E-2      -20.11        9.705E-2      -20.16        0.81115       -24.66         
82.4959       0.05433       -158.76       9.685E-2      -20.28        9.708E-2      -20.36        0.81134       -24.85         
83.0959       0.05439       -158.69       9.688E-2      -20.48        9.708E-2      -20.52        0.81147       -25.00         
83.6958       0.05446       -158.57       9.689E-2      -20.65        9.709E-2      -20.74        0.81168       -25.19         
84.2958       0.05453       -158.44       9.693E-2      -20.84        9.708E-2      -20.89        0.81178       -25.36         
84.8958       0.05462       -158.39       9.693E-2      -21.02        9.711E-2      -21.10        0.8118        -25.53         
85.4957       0.05472       -158.33       9.70E-2       -21.19        9.714E-2      -21.30        0.81211       -25.71         
86.0957       0.0548        -158.24       9.699E-2      -21.39        9.713E-2      -21.48        0.81202       -25.90         
86.6957       0.05484       -158.09       9.697E-2      -21.59        9.716E-2      -21.66        0.81226       -26.07         
87.2957       0.05494       -158.04       9.701E-2      -21.78        9.718E-2      -21.88        0.81256       -26.25         
87.8956       0.05499       -157.99       9.702E-2      -21.99        9.714E-2      -22.07        0.81265       -26.41         
88.4956       0.05514       -157.93       9.703E-2      -22.17        9.717E-2      -22.26        0.81275       -26.57         
89.0956       0.0552        -157.83       9.702E-2      -22.38        9.713E-2      -22.48        0.81303       -26.74         
89.6955       0.05523       -157.77       9.706E-2      -22.61        9.714E-2      -22.69        0.81328       -26.90         
90.2955       0.05531       -157.73       9.703E-2      -22.81        9.715E-2      -22.89        0.81367       -27.08         
90.8955       0.05538       -157.76       9.702E-2      -23.06        9.707E-2      -23.12        0.81386       -27.25         
91.4954       0.05542       -157.67       9.696E-2      -23.30        9.703E-2      -23.39        0.81429       -27.43         
92.0954       0.05546       -157.67       9.688E-2      -23.59        9.697E-2      -23.65        0.81444       -27.59         
