!    8/6/2020   03:36:50 
! Ref Plane: 0.000 mm
# MHZ S MA R  50
!
0.3000        0.04762       178.88        9.89E-2       -0.93         9.645E-2      -0.89         0.81582       -0.37          
0.9000        0.04767       179.17        9.499E-2      -0.45         9.529E-2      -0.25         0.80941       -0.50          
1.4999        0.04778       179.29        9.516E-2      -0.27         9.535E-2      -0.37         0.80916       -0.67          
2.0999        0.04776       179.50        9.519E-2      -0.43         9.534E-2      -0.46         0.80932       -0.87          
2.6999        0.04778       179.67        9.521E-2      -0.53         9.534E-2      -0.58         0.80929       -1.03          
3.2999        0.04778       179.98        9.522E-2      -0.63         9.537E-2      -0.73         0.80948       -1.22          
3.8998        0.04786       -179.83       9.518E-2      -0.78         9.535E-2      -0.86         0.80943       -1.41          
4.4998        0.04782       -179.58       9.52E-2       -0.90         9.536E-2      -0.95         0.80951       -1.57          
5.0998        0.04793       -179.29       9.518E-2      -1.00         9.536E-2      -1.06         0.80948       -1.75          
5.6997        0.04791       -179.02       9.515E-2      -1.11         9.54E-2       -1.21         0.80964       -1.94          
6.2997        0.04795       -178.87       9.518E-2      -1.26         9.538E-2      -1.32         0.80948       -2.13          
6.8997        0.04798       -178.62       9.517E-2      -1.42         9.535E-2      -1.43         0.8096        -2.32          
7.4996        0.04801       -178.31       9.516E-2      -1.50         9.537E-2      -1.56         0.80964       -2.52          
8.0996        0.04805       -178.10       9.514E-2      -1.65         9.54E-2       -1.69         0.8094        -2.70          
8.6996        0.04808       -177.90       9.517E-2      -1.76         9.537E-2      -1.78         0.80959       -2.88          
9.2996        0.04808       -177.62       9.523E-2      -1.89         9.545E-2      -1.95         0.80976       -3.06          
9.8995        0.04809       -177.36       9.518E-2      -2.03         9.541E-2      -2.05         0.80944       -3.23          
10.4995       0.04815       -177.18       9.516E-2      -2.15         9.542E-2      -2.19         0.8098        -3.42          
11.0995       0.0482        -176.92       9.518E-2      -2.26         9.542E-2      -2.29         0.80986       -3.60          
11.6994       0.04824       -176.69       9.52E-2       -2.36         9.54E-2       -2.40         0.80989       -3.79          
12.2994       0.04826       -176.45       9.515E-2      -2.51         9.539E-2      -2.52         0.80976       -3.97          
12.8994       0.04825       -176.21       9.521E-2      -2.57         9.542E-2      -2.65         0.80978       -4.14          
13.4993       0.04829       -175.97       9.528E-2      -2.76         9.539E-2      -2.80         0.80989       -4.34          
14.0993       0.04835       -175.78       9.523E-2      -2.83         9.54E-2       -2.93         0.80995       -4.50          
14.6993       0.04838       -175.52       9.517E-2      -3.02         9.543E-2      -3.04         0.80981       -4.68          
15.2993       0.0484        -175.34       9.519E-2      -3.06         9.54E-2       -3.17         0.81          -4.87          
15.8992       0.04841       -175.13       9.521E-2      -3.19         9.54E-2       -3.30         0.81001       -5.03          
16.4992       0.04846       -174.91       9.52E-2       -3.34         9.542E-2      -3.44         0.80994       -5.23          
17.0992       0.0485        -174.62       9.524E-2      -3.42         9.539E-2      -3.54         0.81008       -5.41          
17.6991       0.04859       -174.40       9.52E-2       -3.56         9.541E-2      -3.68         0.80998       -5.60          
18.2991       0.0486        -174.23       9.521E-2      -3.69         9.543E-2      -3.79         0.80999       -5.76          
18.8991       0.04863       -174.01       9.525E-2      -3.83         9.543E-2      -3.89         0.81034       -5.93          
19.4990       0.04864       -173.72       9.528E-2      -3.97         9.541E-2      -4.04         0.81026       -6.12          
20.0990       0.04867       -173.53       9.524E-2      -4.08         9.543E-2      -4.16         0.81013       -6.31          
20.6990       0.04872       -173.32       9.53E-2       -4.21         9.546E-2      -4.26         0.81023       -6.48          
21.2990       0.04872       -173.02       9.526E-2      -4.32         9.546E-2      -4.39         0.81008       -6.65          
21.8989       0.04878       -172.90       9.527E-2      -4.44         9.548E-2      -4.51         0.81017       -6.84          
22.4989       0.0488        -172.62       9.522E-2      -4.61         9.552E-2      -4.61         0.81018       -7.02          
23.0989       0.04887       -172.46       9.527E-2      -4.69         9.55E-2       -4.76         0.81034       -7.21          
23.6988       0.04888       -172.17       9.531E-2      -4.80         9.549E-2      -4.91         0.80994       -7.38          
24.2988       0.0489        -172.00       9.525E-2      -4.92         9.548E-2      -5.00         0.80994       -7.55          
24.8988       0.04896       -171.79       9.527E-2      -5.07         9.548E-2      -5.15         0.80985       -7.74          
25.4987       0.049         -171.57       9.53E-2       -5.16         9.547E-2      -5.29         0.8098        -7.91          
26.0987       0.04906       -171.30       9.522E-2      -5.29         9.551E-2      -5.37         0.8097        -8.10          
26.6987       0.04912       -171.11       9.524E-2      -5.40         9.545E-2      -5.50         0.80953       -8.26          
27.2987       0.04912       -170.86       9.534E-2      -5.53         9.546E-2      -5.61         0.80934       -8.45          
27.8986       0.04918       -170.69       9.531E-2      -5.68         9.547E-2      -5.73         0.80909       -8.61          
28.4986       0.0492        -170.45       9.533E-2      -5.79         9.546E-2      -5.87         0.80904       -8.81          
29.0986       0.04922       -170.34       9.533E-2      -5.89         9.551E-2      -5.99         0.80878       -8.97          
29.6985       0.04932       -170.12       9.531E-2      -6.02         9.546E-2      -6.09         0.80862       -9.17          
30.2985       0.04931       -169.90       9.53E-2       -6.15         9.547E-2      -6.25         0.80837       -9.35          
30.8985       0.04934       -169.64       9.532E-2      -6.29         9.544E-2      -6.33         0.80837       -9.53          
31.4984       0.04939       -169.46       9.53E-2       -6.39         9.542E-2      -6.45         0.80824       -9.70          
32.0984       0.04945       -169.33       9.532E-2      -6.54         9.551E-2      -6.58         0.80824       -9.88          
32.6984       0.04947       -169.10       9.533E-2      -6.64         9.549E-2      -6.69         0.80809       -10.06         
33.2984       0.04948       -168.91       9.532E-2      -6.75         9.545E-2      -6.83         0.80799       -10.22         
33.8983       0.04952       -168.72       9.539E-2      -6.87         9.546E-2      -6.95         0.80809       -10.38         
34.4983       0.04959       -168.50       9.538E-2      -6.98         9.551E-2      -7.04         0.80825       -10.55         
35.0983       0.0496        -168.36       9.541E-2      -7.09         9.549E-2      -7.20         0.80825       -10.74         
35.6982       0.04964       -168.14       9.54E-2       -7.22         9.548E-2      -7.32         0.80838       -10.91         
36.2982       0.04969       -167.96       9.54E-2       -7.36         9.546E-2      -7.46         0.80828       -11.11         
36.8982       0.04971       -167.74       9.537E-2      -7.47         9.547E-2      -7.57         0.80822       -11.29         
37.4981       0.04976       -167.57       9.54E-2       -7.60         9.552E-2      -7.68         0.8081        -11.48         
38.0981       0.0498        -167.36       9.544E-2      -7.71         9.549E-2      -7.81         0.80811       -11.67         
38.6981       0.04983       -167.19       9.542E-2      -7.81         9.549E-2      -7.95         0.808         -11.86         
39.2981       0.04987       -166.99       9.543E-2      -7.94         9.547E-2      -8.06         0.80798       -12.04         
39.8980       0.0499        -166.83       9.542E-2      -8.10         9.55E-2       -8.23         0.80781       -12.24         
40.4980       0.04992       -166.59       9.543E-2      -8.21         9.552E-2      -8.28         0.80783       -12.41         
41.0980       0.05002       -166.37       9.545E-2      -8.33         9.552E-2      -8.46         0.80754       -12.61         
41.6979       0.05003       -166.21       9.544E-2      -8.45         9.551E-2      -8.55         0.80773       -12.80         
42.2979       0.0501        -166.08       9.543E-2      -8.56         9.555E-2      -8.69         0.80756       -13.01         
42.8979       0.05012       -165.92       9.544E-2      -8.70         9.55E-2       -8.79         0.80761       -13.20         
43.4978       0.0501        -165.74       9.543E-2      -8.82         9.552E-2      -8.92         0.80762       -13.40         
44.0978       0.0502        -165.55       9.544E-2      -8.95         9.552E-2      -9.06         0.80753       -13.61         
44.6978       0.05024       -165.43       9.544E-2      -9.07         9.553E-2      -9.19         0.80768       -13.81         
45.2978       0.05032       -165.25       9.548E-2      -9.21         9.554E-2      -9.29         0.80756       -14.01         
45.8977       0.05036       -165.01       9.544E-2      -9.32         9.555E-2      -9.42         0.80766       -14.20         
46.4977       0.05038       -164.91       9.541E-2      -9.47         9.555E-2      -9.54         0.80762       -14.40         
47.0977       0.05037       -164.67       9.548E-2      -9.61         9.558E-2      -9.66         0.8085        -14.59         
47.6976       0.05044       -164.46       9.541E-2      -9.74         9.55E-2       -9.80         0.80857       -14.78         
48.2976       0.0505        -164.35       9.547E-2      -9.89         9.552E-2      -9.91         0.80848       -14.96         
48.8976       0.05054       -164.13       9.545E-2      -10.01        9.554E-2      -10.04        0.80865       -15.16         
49.4975       0.05059       -163.97       9.541E-2      -10.14        9.56E-2       -10.15        0.80854       -15.34         
50.0975       0.05061       -163.82       9.541E-2      -10.24        9.553E-2      -10.28        0.80852       -15.53         
50.6975       0.05068       -163.62       9.543E-2      -10.39        9.56E-2       -10.43        0.80862       -15.74         
51.2975       0.05073       -163.46       9.541E-2      -10.48        9.563E-2      -10.61        0.80865       -15.94         
51.8974       0.05082       -163.30       9.535E-2      -10.58        9.568E-2      -10.73        0.80854       -16.12         
52.4974       0.05155       -163.39       9.532E-2      -10.62        9.648E-2      -11.14        0.8065        -16.32         
53.0974       0.05091       -162.81       9.49E-2       -10.57        9.557E-2      -10.96        0.80601       -16.43         
53.6973       0.05089       -162.74       9.546E-2      -10.97        9.557E-2      -11.07        0.80898       -16.71         
54.2973       0.05096       -162.67       9.543E-2      -11.10        9.561E-2      -11.22        0.80892       -16.91         
54.8973       0.05097       -162.48       9.545E-2      -11.25        9.558E-2      -11.33        0.80894       -17.08         
55.4972       0.05101       -162.33       9.544E-2      -11.35        9.562E-2      -11.44        0.80898       -17.27         
56.0972       0.05109       -162.13       9.545E-2      -11.49        9.557E-2      -11.56        0.8088        -17.46         
56.6972       0.05114       -161.95       9.544E-2      -11.60        9.558E-2      -11.68        0.80874       -17.63         
57.2972       0.05123       -161.76       9.544E-2      -11.74        9.559E-2      -11.79        0.80878       -17.83         
57.8971       0.05124       -161.56       9.542E-2      -11.84        9.561E-2      -11.94        0.80872       -18.01         
58.4971       0.0513        -161.42       9.547E-2      -11.97        9.562E-2      -12.09        0.80884       -18.21         
59.0971       0.05132       -161.28       9.547E-2      -12.11        9.561E-2      -12.20        0.80875       -18.39         
59.6970       0.05136       -161.04       9.549E-2      -12.21        9.565E-2      -12.30        0.80896       -18.58         
60.2970       0.05143       -160.89       9.546E-2      -12.34        9.561E-2      -12.44        0.80891       -18.76         
60.8970       0.05148       -160.68       9.547E-2      -12.49        9.566E-2      -12.60        0.80896       -18.96         
61.4969       0.05152       -160.56       9.547E-2      -12.62        9.562E-2      -12.71        0.80876       -19.15         
62.0969       0.05158       -160.39       9.547E-2      -12.73        9.565E-2      -12.84        0.80867       -19.34         
62.6969       0.05158       -160.28       9.551E-2      -12.85        9.56E-2       -12.98        0.80857       -19.53         
63.2969       0.05168       -160.08       9.549E-2      -12.98        9.564E-2      -13.08        0.80863       -19.73         
63.8968       0.05174       -159.93       9.55E-2       -13.09        9.562E-2      -13.23        0.80854       -19.90         
64.4968       0.05179       -159.75       9.551E-2      -13.23        9.563E-2      -13.36        0.80857       -20.10         
65.0968       0.05184       -159.60       9.549E-2      -13.38        9.567E-2      -13.49        0.80852       -20.28         
65.6967       0.05193       -159.41       9.548E-2      -13.49        9.566E-2      -13.60        0.80855       -20.47         
66.2967       0.05192       -159.25       9.548E-2      -13.60        9.565E-2      -13.74        0.80845       -20.66         
66.8967       0.05198       -159.12       9.549E-2      -13.75        9.565E-2      -13.88        0.80833       -20.86         
67.4966       0.05202       -158.91       9.546E-2      -13.87        9.565E-2      -14.00        0.80823       -21.06         
68.0966       0.05204       -158.79       9.547E-2      -13.98        9.565E-2      -14.09        0.80825       -21.24         
68.6966       0.05215       -158.60       9.546E-2      -14.12        9.567E-2      -14.22        0.80825       -21.42         
69.2966       0.05223       -158.42       9.549E-2      -14.26        9.569E-2      -14.33        0.8081        -21.63         
69.8965       0.05228       -158.25       9.547E-2      -14.39        9.566E-2      -14.46        0.80817       -21.83         
70.4965       0.05232       -158.17       9.547E-2      -14.49        9.562E-2      -14.60        0.80823       -22.02         
71.0965       0.05238       -157.96       9.548E-2      -14.65        9.566E-2      -14.71        0.80823       -22.20         
71.6964       0.05244       -157.79       9.545E-2      -14.77        9.565E-2      -14.87        0.80812       -22.39         
72.2964       0.05248       -157.70       9.549E-2      -14.91        9.56E-2       -15.00        0.80809       -22.57         
72.8964       0.05258       -157.58       9.55E-2       -15.03        9.562E-2      -15.12        0.80805       -22.78         
73.4963       0.05267       -157.37       9.544E-2      -15.18        9.56E-2       -15.26        0.80802       -22.97         
74.0963       0.05269       -157.24       9.548E-2      -15.30        9.563E-2      -15.37        0.80809       -23.17         
74.6963       0.05272       -157.14       9.545E-2      -15.42        9.563E-2      -15.49        0.8078        -23.35         
75.2963       0.05281       -156.94       9.544E-2      -15.55        9.561E-2      -15.63        0.80789       -23.54         
75.8962       0.05281       -156.77       9.546E-2      -15.67        9.561E-2      -15.77        0.80794       -23.73         
76.4962       0.05291       -156.60       9.546E-2      -15.79        9.561E-2      -15.90        0.80808       -23.93         
77.0962       0.05299       -156.48       9.545E-2      -15.92        9.562E-2      -16.02        0.80806       -24.11         
77.6961       0.05303       -156.36       9.542E-2      -16.06        9.564E-2      -16.15        0.80826       -24.31         
78.2961       0.05316       -156.16       9.546E-2      -16.16        9.561E-2      -16.25        0.80817       -24.50         
78.8961       0.05317       -156.04       9.543E-2      -16.31        9.561E-2      -16.36        0.80829       -24.68         
79.4960       0.05324       -155.88       9.544E-2      -16.42        9.564E-2      -16.51        0.80847       -24.86         
80.0960       0.05329       -155.74       9.543E-2      -16.57        9.561E-2      -16.63        0.80839       -25.06         
80.6960       0.05334       -155.64       9.544E-2      -16.69        9.559E-2      -16.75        0.80846       -25.24         
81.2960       0.05342       -155.51       9.544E-2      -16.80        9.564E-2      -16.87        0.80855       -25.43         
81.8959       0.0535        -155.34       9.544E-2      -16.94        9.562E-2      -16.99        0.80869       -25.61         
82.4959       0.05359       -155.17       9.545E-2      -17.06        9.563E-2      -17.12        0.80883       -25.81         
83.0959       0.05363       -155.01       9.542E-2      -17.19        9.562E-2      -17.25        0.80887       -25.98         
83.6958       0.0537        -154.85       9.544E-2      -17.31        9.559E-2      -17.37        0.80896       -26.18         
84.2958       0.05376       -154.68       9.544E-2      -17.44        9.558E-2      -17.49        0.80899       -26.36         
84.8958       0.05384       -154.56       9.546E-2      -17.56        9.557E-2      -17.65        0.80888       -26.55         
85.4957       0.05392       -154.43       9.547E-2      -17.70        9.557E-2      -17.79        0.8091        -26.74         
86.0957       0.05397       -154.24       9.546E-2      -17.83        9.556E-2      -17.91        0.80895       -26.94         
86.6957       0.05403       -154.04       9.542E-2      -17.97        9.557E-2      -18.04        0.80906       -27.12         
87.2957       0.05413       -153.95       9.547E-2      -18.09        9.556E-2      -18.17        0.80921       -27.32         
87.8956       0.05411       -153.81       9.542E-2      -18.20        9.552E-2      -18.29        0.80912       -27.49         
88.4956       0.05427       -153.63       9.541E-2      -18.30        9.554E-2      -18.43        0.80913       -27.68         
89.0956       0.05433       -153.47       9.541E-2      -18.46        9.553E-2      -18.56        0.80917       -27.86         
89.6955       0.0544        -153.31       9.546E-2      -18.57        9.553E-2      -18.67        0.8093        -28.04         
90.2955       0.05447       -153.16       9.541E-2      -18.71        9.552E-2      -18.78        0.80945       -28.24         
90.8955       0.05454       -153.06       9.544E-2      -18.82        9.548E-2      -18.89        0.80941       -28.42         
91.4954       0.05461       -152.85       9.549E-2      -18.95        9.545E-2      -19.04        0.80946       -28.61         
92.0954       0.05467       -152.72       9.543E-2      -19.12        9.547E-2      -19.17        0.80932       -28.79         
