!    8/6/2020   03:30:38 
! Ref Plane: 0.000 mm
# MHZ S MA R  50
!
0.3000        0.04758       179.09        9.891E-2      -1.06         9.634E-2      -0.89         0.81488       -0.44          
0.9000        0.04778       179.09        9.501E-2      -0.55         9.527E-2      -0.27         0.80936       -0.57          
1.4999        0.0478        179.28        9.517E-2      -0.36         9.534E-2      -0.35         0.80897       -0.72          
2.0999        0.04775       179.51        9.515E-2      -0.50         9.532E-2      -0.43         0.80917       -0.91          
2.6999        0.04779       179.70        9.517E-2      -0.59         9.534E-2      -0.56         0.80928       -1.07          
3.2999        0.04777       179.97        9.521E-2      -0.67         9.535E-2      -0.70         0.80938       -1.25          
3.8998        0.04785       -179.85       9.514E-2      -0.81         9.533E-2      -0.85         0.80933       -1.44          
4.4998        0.04783       -179.65       9.514E-2      -0.94         9.533E-2      -0.94         0.80938       -1.60          
5.0998        0.04792       -179.30       9.515E-2      -1.01         9.532E-2      -1.02         0.80939       -1.78          
5.6997        0.04788       -179.05       9.516E-2      -1.15         9.538E-2      -1.18         0.80957       -1.96          
6.2997        0.04795       -178.91       9.511E-2      -1.28         9.535E-2      -1.28         0.8094        -2.15          
6.8997        0.04797       -178.65       9.513E-2      -1.42         9.532E-2      -1.41         0.80959       -2.33          
7.4996        0.04801       -178.35       9.512E-2      -1.50         9.532E-2      -1.51         0.80957       -2.53          
8.0996        0.04804       -178.13       9.512E-2      -1.63         9.534E-2      -1.64         0.80939       -2.72          
8.6996        0.04807       -177.92       9.513E-2      -1.72         9.536E-2      -1.74         0.8096        -2.89          
9.2996        0.04809       -177.65       9.518E-2      -1.86         9.536E-2      -1.89         0.80978       -3.08          
9.8995        0.0481        -177.41       9.511E-2      -1.99         9.535E-2      -2.02         0.80945       -3.25          
10.4995       0.04814       -177.21       9.51E-2       -2.11         9.537E-2      -2.12         0.80983       -3.43          
11.0995       0.04818       -176.94       9.513E-2      -2.22         9.535E-2      -2.22         0.80993       -3.62          
11.6994       0.0482        -176.71       9.513E-2      -2.31         9.535E-2      -2.33         0.81001       -3.80          
12.2994       0.04825       -176.46       9.509E-2      -2.45         9.532E-2      -2.46         0.80991       -3.98          
12.8994       0.04825       -176.25       9.511E-2      -2.49         9.533E-2      -2.59         0.80991       -4.15          
13.4993       0.04825       -175.98       9.518E-2      -2.68         9.531E-2      -2.73         0.81008       -4.34          
14.0993       0.04832       -175.82       9.513E-2      -2.76         9.528E-2      -2.84         0.81013       -4.51          
14.6993       0.04833       -175.54       9.506E-2      -2.93         9.535E-2      -2.93         0.81004       -4.68          
15.2993       0.04838       -175.32       9.506E-2      -2.98         9.529E-2      -3.07         0.81023       -4.87          
15.8992       0.04839       -175.11       9.51E-2       -3.08         9.53E-2       -3.21         0.81031       -5.03          
16.4992       0.04846       -174.91       9.507E-2      -3.23         9.53E-2       -3.32         0.8102        -5.22          
17.0992       0.04848       -174.66       9.509E-2      -3.33         9.53E-2       -3.41         0.8104        -5.40          
17.6991       0.04857       -174.42       9.51E-2       -3.45         9.528E-2      -3.55         0.81033       -5.59          
18.2991       0.04856       -174.24       9.504E-2      -3.57         9.528E-2      -3.66         0.81037       -5.74          
18.8991       0.04858       -174.02       9.507E-2      -3.70         9.53E-2       -3.76         0.81073       -5.91          
19.4990       0.04863       -173.79       9.513E-2      -3.83         9.529E-2      -3.90         0.81069       -6.09          
20.0990       0.04868       -173.55       9.508E-2      -3.92         9.529E-2      -4.01         0.81063       -6.28          
20.6990       0.0487        -173.36       9.511E-2      -4.07         9.528E-2      -4.11         0.8107        -6.45          
21.2990       0.04872       -173.09       9.506E-2      -4.17         9.529E-2      -4.23         0.8106        -6.61          
21.8989       0.04875       -172.92       9.509E-2      -4.29         9.529E-2      -4.34         0.8107        -6.80          
22.4989       0.0488        -172.66       9.505E-2      -4.44         9.533E-2      -4.45         0.81082       -6.97          
23.0989       0.04886       -172.52       9.505E-2      -4.51         9.533E-2      -4.58         0.811         -7.16          
23.6988       0.04886       -172.20       9.509E-2      -4.63         9.53E-2       -4.70         0.81065       -7.32          
24.2988       0.04888       -172.04       9.502E-2      -4.74         9.527E-2      -4.82         0.81067       -7.49          
24.8988       0.04896       -171.81       9.504E-2      -4.85         9.529E-2      -4.94         0.81057       -7.67          
25.4987       0.04897       -171.63       9.506E-2      -4.95         9.525E-2      -5.07         0.81064       -7.84          
26.0987       0.04905       -171.35       9.499E-2      -5.08         9.525E-2      -5.15         0.81055       -8.01          
26.6987       0.04908       -171.19       9.501E-2      -5.18         9.522E-2      -5.26         0.8104        -8.17          
27.2987       0.04911       -170.93       9.507E-2      -5.30         9.521E-2      -5.37         0.81018       -8.35          
27.8986       0.04912       -170.75       9.504E-2      -5.44         9.522E-2      -5.49         0.81008       -8.51          
28.4986       0.04915       -170.49       9.504E-2      -5.53         9.523E-2      -5.62         0.81007       -8.70          
29.0986       0.0492        -170.42       9.504E-2      -5.61         9.52E-2       -5.73         0.8098        -8.85          
29.6985       0.04929       -170.19       9.503E-2      -5.76         9.518E-2      -5.81         0.80971       -9.04          
30.2985       0.04928       -169.96       9.498E-2      -5.88         9.517E-2      -5.98         0.8095        -9.21          
30.8985       0.04932       -169.69       9.499E-2      -6.02         9.516E-2      -6.05         0.80956       -9.38          
31.4984       0.04939       -169.54       9.497E-2      -6.09         9.51E-2       -6.16         0.80948       -9.54          
32.0984       0.04944       -169.39       9.495E-2      -6.23         9.517E-2      -6.28         0.80953       -9.71          
32.6984       0.04945       -169.16       9.498E-2      -6.31         9.517E-2      -6.38         0.80942       -9.88          
33.2984       0.04947       -169.00       9.498E-2      -6.42         9.514E-2      -6.50         0.80941       -10.03         
33.8983       0.04949       -168.80       9.50E-2       -6.53         9.512E-2      -6.61         0.80957       -10.18         
34.4983       0.04957       -168.56       9.498E-2      -6.63         9.514E-2      -6.70         0.80974       -10.34         
35.0983       0.04955       -168.42       9.499E-2      -6.75         9.515E-2      -6.86         0.80983       -10.52         
35.6982       0.04961       -168.22       9.50E-2       -6.84         9.511E-2      -6.94         0.80999       -10.67         
36.2982       0.04968       -168.01       9.498E-2      -6.97         9.508E-2      -7.10         0.80997       -10.86         
36.8982       0.04969       -167.80       9.499E-2      -7.11         9.51E-2       -7.19         0.80992       -11.03         
37.4981       0.04975       -167.64       9.497E-2      -7.20         9.512E-2      -7.28         0.80985       -11.20         
38.0981       0.04978       -167.44       9.498E-2      -7.30         9.51E-2       -7.40         0.8099        -11.38         
38.6981       0.04982       -167.26       9.499E-2      -7.38         9.508E-2      -7.54         0.8099        -11.56         
39.2981       0.04983       -167.08       9.495E-2      -7.50         9.504E-2      -7.64         0.80993       -11.73         
39.8980       0.04989       -166.91       9.496E-2      -7.65         9.507E-2      -7.79         0.80979       -11.91         
40.4980       0.04988       -166.67       9.493E-2      -7.77         9.505E-2      -7.85         0.80989       -12.06         
41.0980       0.04997       -166.46       9.497E-2      -7.86         9.505E-2      -7.98         0.80967       -12.25         
41.6979       0.04999       -166.31       9.49E-2       -7.96         9.504E-2      -8.07         0.80992       -12.43         
42.2979       0.05005       -166.14       9.489E-2      -8.09         9.508E-2      -8.19         0.8098        -12.61         
42.8979       0.05007       -166.00       9.49E-2       -8.21         9.501E-2      -8.29         0.80994       -12.79         
43.4978       0.05006       -165.83       9.49E-2       -8.30         9.504E-2      -8.41         0.81005       -12.97         
44.0978       0.05014       -165.63       9.489E-2      -8.42         9.503E-2      -8.52         0.80998       -13.16         
44.6978       0.0502        -165.53       9.487E-2      -8.54         9.502E-2      -8.66         0.81018       -13.35         
45.2978       0.05026       -165.34       9.492E-2      -8.65         9.50E-2       -8.74         0.8101        -13.52         
45.8977       0.05033       -165.10       9.485E-2      -8.76         9.499E-2      -8.83         0.81028       -13.70         
46.4977       0.05032       -164.97       9.481E-2      -8.90         9.499E-2      -8.97         0.81032       -13.89         
47.0977       0.05034       -164.80       9.487E-2      -9.01         9.505E-2      -9.07         0.81125       -14.05         
47.6976       0.05037       -164.56       9.485E-2      -9.13         9.497E-2      -9.19         0.81135       -14.23         
48.2976       0.05047       -164.47       9.489E-2      -9.25         9.501E-2      -9.27         0.81137       -14.39         
48.8976       0.05049       -164.29       9.483E-2      -9.36         9.496E-2      -9.40         0.81159       -14.57         
49.4975       0.05056       -164.09       9.482E-2      -9.48         9.504E-2      -9.51         0.81154       -14.73         
50.0975       0.05055       -163.92       9.478E-2      -9.57         9.495E-2      -9.63         0.81163       -14.90         
50.6975       0.05062       -163.71       9.478E-2      -9.69         9.50E-2       -9.76         0.81178       -15.08         
51.2975       0.05065       -163.57       9.478E-2      -9.78         9.50E-2       -9.91         0.81187       -15.26         
51.8974       0.05076       -163.43       9.471E-2      -9.89         9.504E-2      -10.01        0.81185       -15.42         
52.4974       0.05146       -163.55       9.47E-2       -9.94         9.579E-2      -10.33        0.80981       -15.60         
53.0974       0.05077       -163.05       9.475E-2      -10.03        9.496E-2      -10.21        0.80941       -15.69         
53.6973       0.05084       -162.88       9.476E-2      -10.24        9.497E-2      -10.32        0.81243       -15.95         
54.2973       0.05088       -162.76       9.477E-2      -10.35        9.499E-2      -10.45        0.81248       -16.12         
54.8973       0.0509        -162.61       9.476E-2      -10.47        9.494E-2      -10.54        0.81256       -16.27         
55.4972       0.05096       -162.45       9.474E-2      -10.55        9.497E-2      -10.65        0.81268       -16.44         
56.0972       0.051         -162.30       9.477E-2      -10.67        9.497E-2      -10.77        0.81256       -16.61         
56.6972       0.05105       -162.06       9.476E-2      -10.79        9.494E-2      -10.84        0.81261       -16.75         
57.2972       0.05114       -161.88       9.473E-2      -10.89        9.494E-2      -10.95        0.81267       -16.93         
57.8971       0.05112       -161.70       9.474E-2      -10.99        9.493E-2      -11.08        0.81269       -17.09         
58.4971       0.05121       -161.57       9.478E-2      -11.10        9.496E-2      -11.22        0.81298       -17.26         
59.0971       0.05122       -161.41       9.475E-2      -11.21        9.494E-2      -11.29        0.81294       -17.42         
59.6970       0.05129       -161.22       9.478E-2      -11.33        9.498E-2      -11.42        0.81319       -17.58         
60.2970       0.0513        -161.04       9.472E-2      -11.42        9.491E-2      -11.53        0.81321       -17.74         
60.8970       0.05137       -160.87       9.476E-2      -11.54        9.495E-2      -11.65        0.81335       -17.91         
61.4969       0.0514        -160.75       9.473E-2      -11.66        9.493E-2      -11.78        0.81321       -18.08         
62.0969       0.05146       -160.53       9.475E-2      -11.77        9.498E-2      -11.86        0.8132        -18.24         
62.6969       0.05147       -160.43       9.476E-2      -11.88        9.491E-2      -12.00        0.81319       -18.40         
63.2969       0.05158       -160.27       9.475E-2      -11.97        9.494E-2      -12.08        0.81328       -18.57         
63.8968       0.05161       -160.10       9.475E-2      -12.09        9.495E-2      -12.22        0.81332       -18.72         
64.4968       0.05166       -159.92       9.475E-2      -12.22        9.494E-2      -12.31        0.81343       -18.90         
65.0968       0.05171       -159.76       9.472E-2      -12.33        9.493E-2      -12.44        0.81343       -19.05         
65.6967       0.05179       -159.59       9.476E-2      -12.42        9.496E-2      -12.54        0.81351       -19.21         
66.2967       0.05181       -159.42       9.473E-2      -12.53        9.493E-2      -12.66        0.81354       -19.38         
66.8967       0.05182       -159.30       9.473E-2      -12.66        9.493E-2      -12.77        0.81346       -19.55         
67.4966       0.05188       -159.12       9.47E-2       -12.74        9.494E-2      -12.87        0.81345       -19.73         
68.0966       0.05189       -158.97       9.471E-2      -12.87        9.495E-2      -12.97        0.81354       -19.88         
68.6966       0.05198       -158.77       9.471E-2      -12.96        9.494E-2      -13.09        0.81363       -20.03         
69.2966       0.05208       -158.60       9.471E-2      -13.09        9.497E-2      -13.18        0.8135        -20.22         
69.8965       0.05213       -158.46       9.475E-2      -13.22        9.493E-2      -13.29        0.81365       -20.39         
70.4965       0.05217       -158.36       9.474E-2      -13.31        9.492E-2      -13.41        0.81382       -20.55         
71.0965       0.0522        -158.18       9.471E-2      -13.42        9.495E-2      -13.51        0.81386       -20.71         
71.6964       0.05229       -157.98       9.47E-2       -13.54        9.497E-2      -13.62        0.81383       -20.87         
72.2964       0.05231       -157.88       9.473E-2      -13.66        9.489E-2      -13.74        0.81389       -21.03         
72.8964       0.05241       -157.76       9.474E-2      -13.79        9.491E-2      -13.85        0.81395       -21.21         
73.4963       0.05248       -157.56       9.472E-2      -13.92        9.49E-2       -13.98        0.814         -21.37         
74.0963       0.05249       -157.46       9.472E-2      -13.99        9.494E-2      -14.08        0.81417       -21.55         
74.6963       0.05252       -157.35       9.469E-2      -14.12        9.494E-2      -14.19        0.81399       -21.69         
75.2963       0.05261       -157.15       9.47E-2       -14.22        9.49E-2       -14.28        0.8141        -21.87         
75.8962       0.05263       -156.99       9.472E-2      -14.35        9.494E-2      -14.42        0.81417       -22.03         
76.4962       0.05272       -156.77       9.472E-2      -14.44        9.493E-2      -14.54        0.81441       -22.20         
77.0962       0.05278       -156.71       9.472E-2      -14.54        9.494E-2      -14.61        0.81444       -22.36         
77.6961       0.05283       -156.57       9.47E-2       -14.67        9.495E-2      -14.77        0.81477       -22.52         
78.2961       0.05294       -156.35       9.472E-2      -14.75        9.495E-2      -14.85        0.81475       -22.69         
78.8961       0.05296       -156.24       9.47E-2       -14.88        9.495E-2      -14.94        0.81492       -22.84         
79.4960       0.05304       -156.08       9.473E-2      -14.99        9.498E-2      -15.06        0.81515       -23.00         
80.0960       0.05304       -155.95       9.47E-2       -15.12        9.496E-2      -15.17        0.81519       -23.17         
80.6960       0.05313       -155.85       9.475E-2      -15.23        9.493E-2      -15.27        0.81531       -23.32         
81.2960       0.05319       -155.67       9.475E-2      -15.33        9.498E-2      -15.38        0.81545       -23.49         
81.8959       0.05325       -155.51       9.473E-2      -15.43        9.50E-2       -15.49        0.81564       -23.65         
82.4959       0.05335       -155.37       9.473E-2      -15.55        9.499E-2      -15.60        0.81583       -23.82         
83.0959       0.05341       -155.21       9.476E-2      -15.65        9.498E-2      -15.71        0.81593       -23.97         
83.6958       0.05344       -155.05       9.475E-2      -15.76        9.497E-2      -15.83        0.81611       -24.14         
84.2958       0.05348       -154.85       9.477E-2      -15.89        9.494E-2      -15.92        0.81615       -24.30         
84.8958       0.05356       -154.73       9.479E-2      -15.99        9.496E-2      -16.06        0.81618       -24.46         
85.4957       0.05362       -154.63       9.479E-2      -16.12        9.496E-2      -16.19        0.81643       -24.63         
86.0957       0.05371       -154.44       9.48E-2       -16.24        9.495E-2      -16.29        0.81632       -24.81         
86.6957       0.05373       -154.24       9.477E-2      -16.34        9.499E-2      -16.41        0.81648       -24.97         
87.2957       0.0538        -154.14       9.48E-2       -16.44        9.497E-2      -16.55        0.81663       -25.14         
87.8956       0.05384       -154.00       9.479E-2      -16.57        9.495E-2      -16.62        0.81667       -25.29         
88.4956       0.05398       -153.79       9.478E-2      -16.66        9.494E-2      -16.74        0.81671       -25.45         
89.0956       0.05402       -153.64       9.479E-2      -16.77        9.494E-2      -16.86        0.81681       -25.61         
89.6955       0.05409       -153.48       9.484E-2      -16.89        9.495E-2      -16.97        0.817         -25.76         
90.2955       0.05418       -153.33       9.484E-2      -16.99        9.498E-2      -17.07        0.81721       -25.94         
90.8955       0.05423       -153.21       9.485E-2      -17.11        9.494E-2      -17.17        0.81718       -26.10         
91.4954       0.05428       -153.02       9.486E-2      -17.22        9.495E-2      -17.29        0.81731       -26.27         
92.0954       0.05435       -152.88       9.486E-2      -17.33        9.496E-2      -17.40        0.81726       -26.42         
