!    8/6/2020   03:34:46 
! Ref Plane: 0.000 mm
# MHZ S MA R  50
!
0.3000        0.04743       178.99        9.892E-2      -0.99         9.635E-2      -0.87         0.81519       -0.38          
0.9000        0.0477        179.13        9.498E-2      -0.49         9.524E-2      -0.28         0.80954       -0.52          
1.4999        0.04776       179.29        9.516E-2      -0.32         9.528E-2      -0.36         0.80909       -0.67          
2.0999        0.04772       179.50        9.514E-2      -0.50         9.53E-2       -0.47         0.80928       -0.87          
2.6999        0.04775       179.67        9.517E-2      -0.60         9.531E-2      -0.60         0.8093        -1.03          
3.2999        0.04776       179.95        9.517E-2      -0.68         9.532E-2      -0.74         0.80947       -1.20          
3.8998        0.04786       -179.86       9.514E-2      -0.83         9.533E-2      -0.89         0.80938       -1.39          
4.4998        0.0478        -179.65       9.512E-2      -0.95         9.535E-2      -0.99         0.80945       -1.55          
5.0998        0.04791       -179.34       9.513E-2      -1.06         9.532E-2      -1.10         0.80945       -1.73          
5.6997        0.0479        -179.10       9.513E-2      -1.19         9.535E-2      -1.25         0.80962       -1.91          
6.2997        0.04793       -178.93       9.511E-2      -1.33         9.533E-2      -1.36         0.80937       -2.10          
6.8997        0.04793       -178.70       9.512E-2      -1.50         9.531E-2      -1.49         0.80959       -2.28          
7.4996        0.048         -178.44       9.511E-2      -1.58         9.534E-2      -1.61         0.80961       -2.48          
8.0996        0.04805       -178.23       9.509E-2      -1.71         9.534E-2      -1.76         0.80934       -2.67          
8.6996        0.04806       -177.96       9.512E-2      -1.82         9.535E-2      -1.85         0.8096        -2.83          
9.2996        0.04807       -177.71       9.517E-2      -1.97         9.538E-2      -2.02         0.80974       -3.02          
9.8995        0.0481        -177.48       9.515E-2      -2.11         9.538E-2      -2.14         0.80939       -3.19          
10.4995       0.04815       -177.27       9.511E-2      -2.24         9.536E-2      -2.26         0.80974       -3.37          
11.0995       0.0482        -177.05       9.514E-2      -2.35         9.537E-2      -2.38         0.80981       -3.55          
11.6994       0.04822       -176.79       9.513E-2      -2.45         9.536E-2      -2.50         0.80987       -3.74          
12.2994       0.04822       -176.56       9.512E-2      -2.60         9.535E-2      -2.62         0.8098        -3.92          
12.8994       0.04826       -176.32       9.516E-2      -2.67         9.534E-2      -2.78         0.80981       -4.09          
13.4993       0.04824       -176.07       9.522E-2      -2.87         9.535E-2      -2.90         0.80995       -4.29          
14.0993       0.04831       -175.91       9.516E-2      -2.96         9.535E-2      -3.04         0.80994       -4.45          
14.6993       0.04835       -175.61       9.512E-2      -3.14         9.537E-2      -3.14         0.80985       -4.62          
15.2993       0.04837       -175.45       9.512E-2      -3.20         9.535E-2      -3.28         0.81001       -4.81          
15.8992       0.04838       -175.23       9.515E-2      -3.30         9.534E-2      -3.43         0.81005       -4.97          
16.4992       0.04846       -175.02       9.515E-2      -3.46         9.54E-2       -3.58         0.80991       -5.17          
17.0992       0.04844       -174.79       9.519E-2      -3.58         9.535E-2      -3.68         0.81009       -5.35          
17.6991       0.04857       -174.54       9.517E-2      -3.71         9.537E-2      -3.81         0.81005       -5.53          
18.2991       0.04858       -174.38       9.514E-2      -3.85         9.537E-2      -3.94         0.81005       -5.69          
18.8991       0.04859       -174.16       9.52E-2       -3.98         9.539E-2      -4.05         0.81034       -5.86          
19.4990       0.04863       -173.89       9.522E-2      -4.11         9.539E-2      -4.19         0.81032       -6.05          
20.0990       0.04867       -173.66       9.517E-2      -4.22         9.539E-2      -4.31         0.81015       -6.23          
20.6990       0.04869       -173.48       9.521E-2      -4.37         9.541E-2      -4.43         0.81026       -6.40          
21.2990       0.0487        -173.23       9.519E-2      -4.50         9.54E-2       -4.55         0.81011       -6.57          
21.8989       0.04877       -173.10       9.521E-2      -4.62         9.541E-2      -4.69         0.81019       -6.77          
22.4989       0.04879       -172.83       9.518E-2      -4.78         9.547E-2      -4.79         0.81026       -6.94          
23.0989       0.04887       -172.66       9.52E-2       -4.88         9.546E-2      -4.94         0.81041       -7.12          
23.6988       0.04887       -172.37       9.525E-2      -4.98         9.543E-2      -5.08         0.81002       -7.30          
24.2988       0.04889       -172.17       9.52E-2       -5.10         9.542E-2      -5.20         0.81006       -7.46          
24.8988       0.04896       -171.99       9.521E-2      -5.27         9.543E-2      -5.35         0.80988       -7.64          
25.4987       0.04901       -171.78       9.524E-2      -5.35         9.54E-2       -5.47         0.80992       -7.82          
26.0987       0.04904       -171.55       9.516E-2      -5.49         9.545E-2      -5.56         0.80977       -8.00          
26.6987       0.04911       -171.33       9.522E-2      -5.60         9.541E-2      -5.70         0.80962       -8.17          
27.2987       0.04912       -171.10       9.528E-2      -5.72         9.543E-2      -5.83         0.80939       -8.35          
27.8986       0.04916       -170.95       9.523E-2      -5.89         9.541E-2      -5.95         0.80918       -8.51          
28.4986       0.04918       -170.69       9.528E-2      -6.00         9.541E-2      -6.08         0.80913       -8.71          
29.0986       0.04922       -170.57       9.526E-2      -6.11         9.542E-2      -6.22         0.80885       -8.87          
29.6985       0.0493        -170.37       9.525E-2      -6.23         9.541E-2      -6.32         0.80873       -9.06          
30.2985       0.0493        -170.16       9.521E-2      -6.38         9.541E-2      -6.47         0.80843       -9.23          
30.8985       0.04935       -169.90       9.526E-2      -6.51         9.539E-2      -6.57         0.80849       -9.42          
31.4984       0.0494        -169.75       9.523E-2      -6.61         9.536E-2      -6.69         0.80835       -9.58          
32.0984       0.04945       -169.57       9.526E-2      -6.77         9.544E-2      -6.83         0.80833       -9.76          
32.6984       0.04944       -169.35       9.524E-2      -6.88         9.541E-2      -6.96         0.80817       -9.94          
33.2984       0.04948       -169.22       9.526E-2      -6.99         9.54E-2       -7.08         0.80807       -10.09         
33.8983       0.04952       -168.99       9.531E-2      -7.11         9.539E-2      -7.20         0.80821       -10.25         
34.4983       0.0496        -168.78       9.528E-2      -7.23         9.542E-2      -7.33         0.8083        -10.41         
35.0983       0.04961       -168.65       9.534E-2      -7.35         9.543E-2      -7.48         0.80833       -10.60         
35.6982       0.04964       -168.43       9.529E-2      -7.45         9.544E-2      -7.57         0.80847       -10.77         
36.2982       0.04968       -168.26       9.531E-2      -7.61         9.542E-2      -7.74         0.80841       -10.97         
36.8982       0.04971       -168.04       9.53E-2       -7.73         9.544E-2      -7.86         0.80832       -11.14         
37.4981       0.04978       -167.88       9.534E-2      -7.87         9.546E-2      -7.97         0.80819       -11.32         
38.0981       0.0498        -167.69       9.534E-2      -7.97         9.546E-2      -8.11         0.80818       -11.52         
38.6981       0.04984       -167.51       9.536E-2      -8.08         9.544E-2      -8.24         0.80808       -11.70         
39.2981       0.04988       -167.33       9.535E-2      -8.20         9.544E-2      -8.36         0.80804       -11.88         
39.8980       0.04993       -167.15       9.537E-2      -8.37         9.544E-2      -8.53         0.80788       -12.07         
40.4980       0.04994       -166.91       9.538E-2      -8.50         9.545E-2      -8.61         0.80787       -12.24         
41.0980       0.05002       -166.73       9.537E-2      -8.63         9.547E-2      -8.76         0.80755       -12.44         
41.6979       0.05004       -166.58       9.535E-2      -8.72         9.547E-2      -8.87         0.80776       -12.63         
42.2979       0.05012       -166.44       9.534E-2      -8.86         9.55E-2       -9.00         0.80764       -12.83         
42.8979       0.05013       -166.25       9.535E-2      -9.02         9.546E-2      -9.13         0.80771       -13.01         
43.4978       0.05013       -166.10       9.535E-2      -9.12         9.548E-2      -9.25         0.80768       -13.21         
44.0978       0.05022       -165.90       9.537E-2      -9.27         9.548E-2      -9.37         0.80759       -13.41         
44.6978       0.05027       -165.79       9.535E-2      -9.40         9.548E-2      -9.53         0.80769       -13.61         
45.2978       0.05032       -165.62       9.54E-2       -9.54         9.548E-2      -9.61         0.80757       -13.80         
45.8977       0.05039       -165.42       9.535E-2      -9.66         9.55E-2       -9.77         0.80766       -13.99         
46.4977       0.05041       -165.29       9.531E-2      -9.79         9.547E-2      -9.89         0.80762       -14.19         
47.0977       0.05041       -165.07       9.541E-2      -9.93         9.555E-2      -10.01        0.80856       -14.37         
47.6976       0.05048       -164.86       9.534E-2      -10.06        9.544E-2      -10.13        0.80853       -14.55         
48.2976       0.05054       -164.75       9.54E-2       -10.22        9.55E-2       -10.24        0.8085        -14.73         
48.8976       0.05059       -164.59       9.536E-2      -10.35        9.548E-2      -10.38        0.80863       -14.92         
49.4975       0.05065       -164.40       9.535E-2      -10.47        9.556E-2      -10.49        0.80854       -15.10         
50.0975       0.05065       -164.27       9.534E-2      -10.58        9.548E-2      -10.65        0.80852       -15.29         
50.6975       0.05073       -164.05       9.534E-2      -10.74        9.554E-2      -10.78        0.80864       -15.49         
51.2975       0.05077       -163.89       9.533E-2      -10.85        9.555E-2      -10.96        0.8086        -15.69         
51.8974       0.05084       -163.76       9.53E-2       -10.96        9.56E-2       -11.10        0.80846       -15.86         
52.4974       0.05161       -163.87       9.528E-2      -11.03        9.635E-2      -11.44        0.80644       -16.05         
53.0974       0.05088       -163.35       9.523E-2      -11.11        9.551E-2      -11.34        0.80599       -16.16         
53.6973       0.05095       -163.23       9.537E-2      -11.35        9.556E-2      -11.46        0.80886       -16.43         
54.2973       0.05103       -163.13       9.537E-2      -11.46        9.554E-2      -11.60        0.80882       -16.62         
54.8973       0.05104       -162.95       9.535E-2      -11.62        9.555E-2      -11.71        0.8088        -16.79         
55.4972       0.05107       -162.77       9.535E-2      -11.73        9.558E-2      -11.85        0.80882       -16.97         
56.0972       0.05115       -162.65       9.536E-2      -11.88        9.557E-2      -11.96        0.80865       -17.16         
56.6972       0.0512        -162.45       9.536E-2      -11.98        9.553E-2      -12.08        0.80862       -17.33         
57.2972       0.05129       -162.26       9.538E-2      -12.12        9.555E-2      -12.19        0.8086        -17.52         
57.8971       0.05127       -162.05       9.534E-2      -12.26        9.555E-2      -12.34        0.80861       -17.70         
58.4971       0.05135       -161.93       9.538E-2      -12.37        9.559E-2      -12.49        0.80872       -17.89         
59.0971       0.05138       -161.76       9.539E-2      -12.50        9.558E-2      -12.62        0.80865       -18.06         
59.6970       0.05144       -161.59       9.538E-2      -12.62        9.563E-2      -12.74        0.80882       -18.25         
60.2970       0.05146       -161.41       9.539E-2      -12.76        9.556E-2      -12.86        0.80877       -18.42         
60.8970       0.05156       -161.24       9.54E-2       -12.89        9.562E-2      -13.02        0.80883       -18.61         
61.4969       0.05157       -161.11       9.538E-2      -13.03        9.559E-2      -13.14        0.8086        -18.80         
62.0969       0.05163       -160.92       9.539E-2      -13.15        9.561E-2      -13.27        0.80846       -18.98         
62.6969       0.05164       -160.86       9.542E-2      -13.27        9.554E-2      -13.40        0.80838       -19.16         
63.2969       0.05173       -160.64       9.541E-2      -13.41        9.56E-2       -13.53        0.80837       -19.36         
63.8968       0.0518        -160.48       9.542E-2      -13.53        9.561E-2      -13.65        0.80829       -19.52         
64.4968       0.05187       -160.31       9.542E-2      -13.66        9.562E-2      -13.79        0.8083        -19.71         
65.0968       0.05191       -160.15       9.541E-2      -13.79        9.564E-2      -13.92        0.80827       -19.89         
65.6967       0.05201       -159.97       9.54E-2       -13.92        9.562E-2      -14.04        0.80827       -20.07         
66.2967       0.05204       -159.86       9.541E-2      -14.03        9.56E-2       -14.17        0.80818       -20.26         
66.8967       0.05204       -159.72       9.541E-2      -14.18        9.561E-2      -14.29        0.80799       -20.45         
67.4966       0.05212       -159.52       9.54E-2       -14.30        9.561E-2      -14.43        0.80791       -20.64         
68.0966       0.05213       -159.37       9.541E-2      -14.41        9.564E-2      -14.53        0.80791       -20.82         
68.6966       0.05226       -159.19       9.543E-2      -14.54        9.564E-2      -14.66        0.80787       -20.99         
69.2966       0.05233       -159.03       9.541E-2      -14.71        9.564E-2      -14.78        0.80773       -21.20         
69.8965       0.05237       -158.88       9.543E-2      -14.83        9.566E-2      -14.91        0.80772       -21.38         
70.4965       0.05244       -158.80       9.542E-2      -14.94        9.562E-2      -15.05        0.80776       -21.56         
71.0965       0.05246       -158.61       9.54E-2       -15.10        9.567E-2      -15.17        0.8078        -21.74         
71.6964       0.05257       -158.42       9.54E-2       -15.22        9.565E-2      -15.32        0.80766       -21.92         
72.2964       0.05258       -158.35       9.544E-2      -15.35        9.558E-2      -15.46        0.80756       -22.10         
72.8964       0.05269       -158.23       9.547E-2      -15.50        9.562E-2      -15.58        0.80756       -22.30         
73.4963       0.0528        -158.03       9.541E-2      -15.63        9.561E-2      -15.71        0.80756       -22.48         
74.0963       0.05282       -157.90       9.545E-2      -15.76        9.563E-2      -15.84        0.80761       -22.67         
74.6963       0.05285       -157.83       9.543E-2      -15.88        9.563E-2      -15.95        0.8073        -22.84         
75.2963       0.05294       -157.63       9.54E-2       -16.02        9.562E-2      -16.10        0.80741       -23.03         
75.8962       0.05298       -157.49       9.544E-2      -16.15        9.564E-2      -16.23        0.80734       -23.21         
76.4962       0.05308       -157.29       9.543E-2      -16.26        9.566E-2      -16.37        0.80751       -23.40         
77.0962       0.05316       -157.20       9.544E-2      -16.39        9.566E-2      -16.48        0.80749       -23.58         
77.6961       0.05322       -157.06       9.541E-2      -16.55        9.567E-2      -16.63        0.80765       -23.76         
78.2961       0.05332       -156.89       9.547E-2      -16.62        9.565E-2      -16.73        0.8075        -23.95         
78.8961       0.05334       -156.76       9.544E-2      -16.78        9.568E-2      -16.85        0.80764       -24.12         
79.4960       0.05344       -156.59       9.545E-2      -16.92        9.569E-2      -17.01        0.80778       -24.30         
80.0960       0.05345       -156.46       9.547E-2      -17.06        9.567E-2      -17.11        0.80772       -24.49         
80.6960       0.05353       -156.37       9.544E-2      -17.18        9.567E-2      -17.23        0.80773       -24.66         
81.2960       0.05361       -156.22       9.547E-2      -17.31        9.569E-2      -17.38        0.80785       -24.84         
81.8959       0.05369       -156.09       9.544E-2      -17.42        9.569E-2      -17.50        0.80795       -25.01         
82.4959       0.05378       -155.92       9.549E-2      -17.55        9.571E-2      -17.62        0.80806       -25.21         
83.0959       0.05385       -155.78       9.546E-2      -17.68        9.568E-2      -17.75        0.80812       -25.37         
83.6958       0.05388       -155.62       9.549E-2      -17.82        9.569E-2      -17.88        0.80817       -25.56         
84.2958       0.05397       -155.44       9.55E-2       -17.96        9.565E-2      -18.00        0.80819       -25.73         
84.8958       0.05403       -155.31       9.549E-2      -18.07        9.568E-2      -18.15        0.80813       -25.91         
85.4957       0.05411       -155.21       9.553E-2      -18.21        9.567E-2      -18.30        0.8083        -26.10         
86.0957       0.05418       -155.06       9.554E-2      -18.33        9.568E-2      -18.42        0.80815       -26.29         
86.6957       0.05424       -154.85       9.548E-2      -18.49        9.57E-2       -18.58        0.80818       -26.46         
87.2957       0.05434       -154.79       9.554E-2      -18.62        9.569E-2      -18.71        0.80826       -26.65         
87.8956       0.05437       -154.62       9.55E-2       -18.73        9.563E-2      -18.81        0.80826       -26.82         
88.4956       0.05449       -154.43       9.55E-2       -18.85        9.564E-2      -18.94        0.8082        -26.99         
89.0956       0.05457       -154.29       9.552E-2      -18.98        9.562E-2      -19.08        0.80828       -27.17         
89.6955       0.05462       -154.11       9.555E-2      -19.12        9.565E-2      -19.20        0.80836       -27.34         
90.2955       0.05473       -154.02       9.554E-2      -19.23        9.567E-2      -19.33        0.80851       -27.53         
90.8955       0.05478       -153.92       9.557E-2      -19.36        9.564E-2      -19.44        0.80844       -27.70         
91.4954       0.05488       -153.70       9.558E-2      -19.48        9.562E-2      -19.60        0.80849       -27.90         
92.0954       0.05493       -153.58       9.555E-2      -19.63        9.565E-2      -19.71        0.80836       -28.06         
