!    8/10/2020   01:49:34 
! Ref Plane: 0.000 mm
# MHZ S MA R  50
!
0.3000        0.82071       0.19          1.803E-5      -69.77        1.964E-5      82.43         0.99599       -0.35          
0.9000        0.81899       0.24          8.537E-5      -132.03       5.787E-5      -86.93        0.99705       -0.31          
1.4999        0.82018       0.21          8.497E-5      -177.59       4.531E-5      18.69         0.99838       -0.28          
2.0999        0.81998       0.18          6.473E-5      -96.54        3.979E-5      148.13        0.9988        -0.23          
2.6999        0.81994       0.13          6.731E-5      -97.60        1.923E-5      -148.45       0.99892       -0.19          
3.2999        0.81977       0.08          1.00E-5       41.21         1.447E-5      -20.90        0.99897       -0.15          
3.8998        0.8197        0.05          8.80E-6       -83.45        4.367E-5      -81.78        0.99905       -0.14          
4.4998        0.81961       -0.01         2.348E-5      -57.22        4.344E-5      0.33          0.99905       -0.12          
5.0998        0.81945       -0.05         2.844E-5      -69.41        1.256E-5      -0.44         0.99903       -0.11          
5.6997        0.81941       -0.10         2.142E-5      93.29         2.608E-5      -75.30        0.99912       -0.11          
6.2997        0.81941       -0.14         5.139E-5      133.45        2.084E-5      104.46        0.99906       -0.10          
6.8997        0.81931       -0.18         5.351E-5      -77.03        3.867E-5      -102.19       0.99911       -0.10          
7.4996        0.81933       -0.22         1.799E-5      159.44        5.244E-5      120.56        0.99916       -0.09          
8.0996        0.81938       -0.26         6.682E-5      -125.34       1.02E-5       -4.19         0.99917       -0.09          
8.6996        0.81929       -0.32         2.53E-5       116.27        5.019E-5      137.12        0.99915       -0.09          
9.2996        0.81919       -0.36         4.803E-5      -22.83        4.006E-5      -20.28        0.99917       -0.08          
9.8995        0.81932       -0.39         5.157E-5      -84.68        4.64E-5       70.20         0.99921       -0.08          
10.4995       0.81915       -0.45         1.619E-5      120.67        8.687E-6      147.34        0.99924       -0.08          
11.0995       0.81911       -0.49         4.149E-5      -78.55        2.381E-5      68.00         0.99923       -0.08          
11.6994       0.81902       -0.52         1.607E-5      -177.25       4.051E-5      6.59          0.99916       -0.08          
12.2994       0.81909       -0.57         7.048E-5      -148.13       4.289E-5      153.99        0.99924       -0.07          
12.8994       0.81906       -0.61         5.749E-5      66.89         3.997E-5      21.75         0.99923       -0.07          
13.4993       0.81902       -0.65         6.493E-5      -19.91        1.498E-5      128.85        0.9993        -0.07          
14.0993       0.81906       -0.69         3.767E-5      37.40         1.829E-5      14.21         0.99928       -0.07          
14.6993       0.81898       -0.74         8.079E-5      -125.28       1.87E-5       69.39         0.99922       -0.07          
15.2993       0.81886       -0.77         6.138E-5      121.42        5.971E-5      86.39         0.99927       -0.07          
15.8992       0.81884       -0.83         4.688E-5      63.67         2.122E-5      -177.02       0.99934       -0.08          
16.4992       0.81888       -0.86         4.949E-5      124.40        2.906E-5      -33.79        0.99934       -0.08          
17.0992       0.81874       -0.89         4.277E-5      54.13         8.989E-6      -132.93       0.99933       -0.07          
17.6991       0.81884       -0.93         4.624E-5      134.09        2.356E-5      -119.44       0.9993        -0.08          
18.2991       0.81877       -0.98         5.422E-5      157.76        3.96E-6       84.37         0.99928       -0.07          
18.8991       0.81862       -1.03         2.688E-5      -105.21       3.134E-5      76.37         0.99937       -0.07          
19.4990       0.81874       -1.07         3.121E-5      -63.26        5.411E-5      -36.63        0.99938       -0.08          
20.0990       0.81871       -1.11         2.606E-5      22.72         1.499E-5      130.76        0.99933       -0.08          
20.6990       0.8187        -1.15         5.005E-5      -30.23        3.478E-5      84.31         0.99938       -0.08          
21.2990       0.81867       -1.20         5.761E-5      -126.72       1.841E-5      -4.25         0.99942       -0.08          
21.8989       0.81858       -1.24         4.362E-5      -60.49        4.36E-5       79.57         0.9994        -0.08          
22.4989       0.81859       -1.28         6.772E-5      -131.74       1.868E-5      36.95         0.9994        -0.08          
23.0989       0.8185        -1.31         2.092E-5      127.10        2.184E-5      -46.45        0.99939       -0.09          
23.6988       0.81857       -1.35         2.213E-5      15.08         3.814E-5      14.04         0.99942       -0.09          
24.2988       0.8185        -1.40         2.692E-5      26.60         1.899E-5      6.17          0.99941       -0.09          
24.8988       0.81854       -1.43         2.103E-5      107.44        1.751E-5      29.74         0.99949       -0.09          
25.4987       0.81857       -1.47         4.598E-5      10.23         3.707E-5      -16.15        0.99946       -0.09          
26.0987       0.81853       -1.51         7.953E-5      156.30        4.566E-5      67.28         0.9994        -0.08          
26.6987       0.81849       -1.56         4.656E-5      -172.87       2.088E-5      68.53         0.99938       -0.09          
27.2987       0.81841       -1.60         5.712E-5      21.79         5.728E-5      57.32         0.99947       -0.09          
27.8986       0.8185        -1.64         1.857E-5      -70.56        2.34E-5       10.53         0.99935       -0.09          
28.4986       0.81843       -1.68         2.491E-5      12.48         1.389E-5      114.24        0.99936       -0.10          
29.0986       0.81847       -1.72         2.565E-5      35.47         5.441E-5      -28.89        0.99956       -0.10          
29.6985       0.81832       -1.76         4.409E-5      125.27        2.734E-5      -162.94       0.99948       -0.10          
30.2985       0.81834       -1.79         2.119E-5      -127.82       4.274E-7      -160.62       0.99953       -0.10          
30.8985       0.81838       -1.83         5.475E-5      -54.20        3.645E-5      158.18        0.99944       -0.10          
31.4984       0.81826       -1.87         5.698E-5      77.41         3.103E-5      -172.50       0.99942       -0.10          
32.0984       0.81833       -1.91         4.048E-5      -134.11       5.666E-6      -90.45        0.9995        -0.10          
32.6984       0.81828       -1.95         1.771E-5      -130.85       2.03E-5       -2.41         0.99943       -0.10          
33.2984       0.81848       -1.99         2.824E-5      -136.67       3.723E-5      167.83        0.99948       -0.11          
33.8983       0.81832       -2.03         5.484E-5      -26.75        3.107E-5      -36.28        0.99943       -0.11          
34.4983       0.81814       -2.07         1.295E-5      -164.54       1.195E-5      119.10        0.99949       -0.11          
35.0983       0.81827       -2.10         3.886E-5      -76.54        3.852E-5      -62.45        0.99949       -0.11          
35.6982       0.81817       -2.14         3.351E-5      -105.39       2.592E-5      104.13        0.99947       -0.11          
36.2982       0.81825       -2.16         2.069E-5      -113.56       1.18E-5       -40.26        0.99952       -0.11          
36.8982       0.81825       -2.21         5.598E-5      -150.82       2.922E-5      46.03         0.99946       -0.11          
37.4981       0.81821       -2.25         3.56E-5       -165.49       1.787E-5      125.75        0.99939       -0.11          
38.0981       0.8182        -2.28         7.052E-6      -15.18        2.441E-5      77.39         0.99946       -0.12          
38.6981       0.81814       -2.31         4.915E-5      9.81          2.59E-5       105.72        0.99943       -0.12          
39.2981       0.81818       -2.36         4.324E-5      156.26        3.479E-5      -166.81       0.99942       -0.12          
39.8980       0.81827       -2.39         4.767E-5      -102.48       3.992E-5      -73.80        0.99948       -0.12          
40.4980       0.81813       -2.44         3.334E-5      -69.57        2.296E-5      37.56         0.9995        -0.12          
41.0980       0.81817       -2.48         5.712E-5      -55.65        9.782E-6      17.87         0.99946       -0.13          
41.6979       0.8181        -2.51         4.568E-5      51.15         3.521E-5      36.28         0.99959       -0.13          
42.2979       0.81819       -2.55         3.038E-5      86.18         2.467E-5      29.84         0.99954       -0.13          
42.8979       0.8181        -2.59         4.691E-5      -169.67       4.44E-5       151.12        0.99955       -0.13          
43.4978       0.81806       -2.62         5.127E-5      123.76        2.053E-5      162.22        0.99955       -0.13          
44.0978       0.81808       -2.66         1.664E-5      -51.04        9.555E-6      -67.05        0.99954       -0.13          
44.6978       0.81797       -2.69         1.945E-5      172.83        2.772E-5      3.44          0.99949       -0.14          
45.2978       0.81811       -2.73         4.622E-5      -17.22        9.615E-7      -87.91        0.9996        -0.14          
45.8977       0.81805       -2.77         2.64E-5       128.10        1.407E-5      -101.19       0.9995        -0.14          
46.4977       0.81795       -2.81         4.936E-5      145.12        2.489E-5      80.56         0.99951       -0.14          
47.0977       0.81797       -2.83         8.678E-5      56.86         2.11E-5       13.13         0.9996        -0.14          
47.6976       0.81783       -2.86         4.463E-5      65.81         6.519E-5      142.34        0.99968       -0.15          
48.2976       0.81792       -2.91         5.849E-5      15.32         2.223E-5      124.67        0.99965       -0.15          
48.8976       0.81782       -2.94         4.405E-5      111.70        3.521E-5      164.00        0.99961       -0.15          
49.4975       0.81782       -2.98         1.679E-5      6.84          3.789E-5      89.39         0.99957       -0.15          
50.0975       0.81784       -3.02         3.277E-5      120.41        2.06E-5       -152.30       0.99962       -0.15          
50.6975       0.81787       -3.05         1.135E-5      170.39        7.079E-6      103.75        0.99957       -0.15          
51.2975       0.81786       -3.08         4.399E-5      43.97         1.547E-5      -131.58       0.9996        -0.16          
51.8974       0.81794       -3.12         3.454E-5      63.28         3.815E-5      116.55        0.9996        -0.16          
52.4974       0.82015       -3.15         3.729E-5      70.59         2.084E-5      5.34          0.99959       -0.16          
53.0974       0.81777       -3.19         1.175E-5      65.40         3.896E-5      -161.42       0.99963       -0.16          
53.6973       0.81783       -3.22         6.979E-5      81.95         4.565E-6      -127.39       0.99961       -0.16          
54.2973       0.81777       -3.26         1.584E-5      -136.31       2.358E-5      -97.43        0.9996        -0.17          
54.8973       0.81776       -3.30         3.848E-5      -161.73       2.012E-5      42.01         0.99961       -0.17          
55.4972       0.81777       -3.33         2.072E-5      117.30        1.634E-5      -110.42       0.99959       -0.17          
56.0972       0.81785       -3.36         4.643E-5      39.32         1.079E-5      32.77         0.99956       -0.17          
56.6972       0.81782       -3.41         6.356E-5      -32.99        1.194E-5      103.99        0.99959       -0.17          
57.2972       0.81777       -3.45         3.381E-5      -70.22        1.07E-5       -178.83       0.99965       -0.18          
57.8971       0.81776       -3.49         2.236E-5      9.28          3.848E-5      6.96          0.99959       -0.18          
58.4971       0.81762       -3.52         1.701E-5      36.90         2.181E-5      49.14         0.99961       -0.18          
59.0971       0.8177        -3.57         4.128E-5      1.34          2.202E-5      96.36         0.99965       -0.18          
59.6970       0.81769       -3.59         1.682E-5      117.54        1.38E-5       84.35         0.99959       -0.18          
60.2970       0.81757       -3.64         3.908E-5      125.62        1.838E-5      -150.31       0.99964       -0.18          
60.8970       0.8175        -3.67         4.187E-5      -133.13       1.035E-5      6.88          0.9996        -0.18          
61.4969       0.81753       -3.70         2.559E-5      162.25        2.866E-5      2.39          0.99963       -0.19          
62.0969       0.81755       -3.73         1.095E-5      -72.02        3.216E-5      122.41        0.99966       -0.19          
62.6969       0.81756       -3.78         3.507E-5      -97.31        7.042E-6      -9.42         0.9996        -0.19          
63.2969       0.81752       -3.81         2.329E-5      165.11        2.261E-5      171.84        0.99966       -0.19          
63.8968       0.81732       -3.85         7.374E-5      126.38        1.575E-5      -17.50        0.99959       -0.20          
64.4968       0.81734       -3.88         4.748E-5      -37.10        1.029E-5      -170.60       0.9996        -0.20          
65.0968       0.81724       -3.92         5.381E-5      177.35        2.223E-5      93.85         0.99964       -0.20          
65.6967       0.81723       -3.95         4.913E-5      -57.87        1.865E-5      1.99          0.99963       -0.20          
66.2967       0.81719       -3.99         5.665E-5      -67.76        8.807E-6      131.33        0.99962       -0.20          
66.8967       0.81732       -4.02         3.024E-5      173.86        2.712E-5      -33.05        0.99965       -0.20          
67.4966       0.8174        -4.05         3.207E-5      112.31        2.311E-5      -113.36       0.99962       -0.20          
68.0966       0.81743       -4.09         2.026E-5      -15.16        2.715E-5      50.94         0.99961       -0.20          
68.6966       0.81731       -4.15         4.592E-5      1.76          1.058E-5      158.60        0.99963       -0.20          
69.2966       0.81727       -4.17         3.159E-5      -0.68         4.023E-5      171.60        0.99962       -0.21          
69.8965       0.81726       -4.21         3.427E-5      -72.29        2.983E-5      43.40         0.99965       -0.21          
70.4965       0.81724       -4.25         4.027E-5      1.02          2.654E-5      -140.94       0.99961       -0.21          
71.0965       0.8171        -4.29         1.949E-5      174.66        2.65E-5       115.38        0.99964       -0.22          
71.6964       0.81717       -4.33         2.047E-5      98.13         1.167E-5      109.27        0.99961       -0.22          
72.2964       0.81706       -4.36         4.122E-5      88.90         4.794E-6      122.53        0.99963       -0.21          
72.8964       0.81704       -4.40         1.919E-5      -171.60       2.149E-5      64.07         0.99969       -0.22          
73.4963       0.81702       -4.44         2.262E-5      -108.29       2.784E-5      5.15          0.99961       -0.22          
74.0963       0.81703       -4.48         7.029E-5      -138.78       2.979E-5      74.44         0.99962       -0.22          
74.6963       0.81707       -4.52         1.95E-5       158.07        1.95E-5       -141.36       0.99963       -0.22          
75.2963       0.81705       -4.56         4.804E-5      130.56        4.239E-5      -94.57        0.99963       -0.22          
75.8962       0.81693       -4.60         3.057E-5      -138.43       2.697E-5      153.10        0.99967       -0.22          
76.4962       0.81687       -4.63         3.435E-5      -29.06        2.185E-5      79.60         0.99963       -0.22          
77.0962       0.8169        -4.67         2.15E-5       -175.99       2.139E-5      125.58        0.99967       -0.22          
77.6961       0.81679       -4.70         2.36E-5       120.33        4.435E-6      77.97         0.99961       -0.22          
78.2961       0.81684       -4.74         3.176E-5      -13.39        1.515E-5      156.17        0.99971       -0.22          
78.8961       0.8167        -4.78         5.012E-5      58.11         3.466E-5      -137.96       0.99959       -0.22          
79.4960       0.81662       -4.81         6.28E-5       -140.05       1.742E-5      114.99        0.99963       -0.22          
80.0960       0.81672       -4.85         1.235E-5      0.20          6.107E-6      -129.44       0.99961       -0.22          
80.6960       0.8167        -4.88         5.867E-5      -172.77       2.655E-5      -99.16        0.99962       -0.22          
81.2960       0.81658       -4.93         2.271E-5      92.58         4.128E-5      79.65         0.99966       -0.22          
81.8959       0.81654       -4.97         1.424E-5      48.88         1.185E-5      58.02         0.99961       -0.22          
82.4959       0.81657       -5.00         1.715E-5      -11.08        4.656E-5      115.07        0.99961       -0.23          
83.0959       0.81653       -5.04         2.715E-5      -15.15        2.174E-5      -175.52       0.99958       -0.23          
83.6958       0.81638       -5.07         5.451E-5      112.37        1.616E-5      -98.60        0.99956       -0.23          
84.2958       0.81644       -5.12         3.077E-5      -87.78        1.489E-5      67.03         0.9996        -0.23          
84.8958       0.81643       -5.16         3.01E-5       -57.88        1.868E-5      -118.58       0.99961       -0.23          
85.4957       0.81627       -5.19         2.508E-5      168.83        2.142E-5      93.33         0.99962       -0.23          
86.0957       0.81644       -5.23         4.525E-5      -102.10       9.236E-6      -154.38       0.99954       -0.23          
86.6957       0.8163        -5.27         2.035E-5      -93.09        1.62E-5       -114.56       0.99952       -0.24          
87.2957       0.81629       -5.30         6.422E-5      105.88        2.026E-5      57.33         0.9996        -0.24          
87.8956       0.81627       -5.35         7.84E-6       36.72         1.711E-5      -138.52       0.9996        -0.24          
88.4956       0.81629       -5.39         4.567E-5      69.97         1.791E-5      -176.31       0.99965       -0.24          
89.0956       0.8162        -5.42         6.845E-5      127.79        3.263E-5      -54.32        0.99955       -0.24          
89.6955       0.81617       -5.47         5.057E-5      119.53        3.778E-5      32.21         0.99957       -0.24          
90.2955       0.8162        -5.50         2.292E-5      -49.43        1.098E-5      96.16         0.99957       -0.24          
90.8955       0.81604       -5.54         5.533E-5      -139.35       1.962E-5      -177.28       0.99958       -0.25          
91.4954       0.81602       -5.58         3.634E-5      -113.33       1.086E-5      -56.53        0.9996        -0.25          
92.0954       0.81603       -5.62         1.963E-5      -156.88       1.799E-5      -172.33       0.99955       -0.25          
