!    7/30/2020   14:00:46 
! Ref Plane: 0.000 mm
# MHZ S MA R  50
!
0.3000        0.00296       45.93         9.969E-1      -0.50         9.968E-1      0.09          0.00172       18.93          
0.9000        0.00318       48.97         9.977E-1      -1.06         9.972E-1      -0.90         0.00212       33.23          
1.4999        0.00372       47.09         9.981E-1      -1.67         9.98E-1       -1.60         0.00272       33.66          
2.0999        0.00417       45.69         9.977E-1      -2.31         9.975E-1      -2.26         0.00317       35.17          
2.6999        0.00461       44.03         9.974E-1      -2.97         9.973E-1      -2.91         0.0036        34.75          
3.2999        0.00501       42.39         9.97E-1       -3.60         9.968E-1      -3.58         0.004         32.99          
3.8998        0.00527       40.47         9.967E-1      -4.24         9.965E-1      -4.20         0.00434       33.23          
4.4998        0.00558       38.94         9.963E-1      -4.90         9.962E-1      -4.85         0.00467       32.00          
5.0998        0.00582       37.07         9.96E-1       -5.55         9.959E-1      -5.49         0.00495       30.05          
5.6997        0.00607       35.09         9.956E-1      -6.19         9.955E-1      -6.13         0.00527       29.98          
6.2997        0.00635       33.78         9.954E-1      -6.83         9.952E-1      -6.77         0.0055        28.26          
6.8997        0.00655       31.66         9.951E-1      -7.45         9.951E-1      -7.41         0.00572       26.91          
7.4996        0.00673       29.88         9.949E-1      -8.09         9.947E-1      -8.05         0.00598       25.58          
8.0996        0.00691       27.93         9.945E-1      -8.72         9.946E-1      -8.68         0.00619       23.88          
8.6996        0.00699       26.04         9.943E-1      -9.37         9.943E-1      -9.32         0.0064        22.53          
9.2996        0.00727       24.48         9.941E-1      -10.01        9.938E-1      -9.96         0.00651       20.79          
9.8995        0.0074        22.58         9.939E-1      -10.65        9.938E-1      -10.59        0.00671       19.43          
10.4995       0.00749       20.71         9.935E-1      -11.28        9.935E-1      -11.25        0.00686       17.73          
11.0995       0.00759       19.15         9.933E-1      -11.91        9.933E-1      -11.88        0.00698       16.04          
11.6994       0.00765       17.45         9.931E-1      -12.55        9.931E-1      -12.51        0.00712       14.94          
12.2994       0.00781       15.43         9.929E-1      -13.19        9.929E-1      -13.14        0.00723       13.89          
12.8994       0.00788       13.41         9.927E-1      -13.83        9.928E-1      -13.77        0.00736       12.49          
13.4993       0.00797       11.53         9.925E-1      -14.46        9.925E-1      -14.40        0.00747       10.79          
14.0993       0.00806       9.60          9.924E-1      -15.10        9.923E-1      -15.06        0.00761       9.31           
14.6993       0.00818       8.15          9.923E-1      -15.74        9.922E-1      -15.69        0.00771       8.00           
15.2993       0.00824       6.55          9.92E-1       -16.38        9.92E-1       -16.33        0.00775       6.19           
15.8992       0.00827       4.80          9.92E-1       -17.01        9.919E-1      -16.97        0.00784       5.05           
16.4992       0.00834       3.23          9.919E-1      -17.65        9.92E-1       -17.59        0.0079        3.55           
17.0992       0.00849       1.20          9.917E-1      -18.28        9.917E-1      -18.22        0.008         2.35           
17.6991       0.00854       -0.22         9.917E-1      -18.91        9.918E-1      -18.85        0.00813       1.47           
18.2991       0.00862       -2.10         9.915E-1      -19.55        9.916E-1      -19.51        0.00813       -0.74          
18.8991       0.00866       -3.97         9.912E-1      -20.20        9.914E-1      -20.14        0.0082        -1.71          
19.4990       0.0088        -5.60         9.913E-1      -20.83        9.915E-1      -20.77        0.00829       -2.97          
20.0990       0.00881       -7.18         9.912E-1      -21.46        9.913E-1      -21.40        0.00833       -4.14          
20.6990       0.00889       -8.90         9.91E-1       -22.09        9.913E-1      -22.03        0.0085        -6.26          
21.2990       0.00898       -10.55        9.91E-1       -22.72        9.911E-1      -22.68        0.00848       -7.60          
21.8989       0.00907       -11.80        9.908E-1      -23.36        9.91E-1       -23.31        0.00856       -8.62          
22.4989       0.00913       -13.43        9.908E-1      -23.99        9.91E-1       -23.94        0.00863       -10.37         
23.0989       0.0092        -15.33        9.907E-1      -24.62        9.909E-1      -24.57        0.00867       -11.33         
23.6988       0.00931       -16.85        9.908E-1      -25.25        9.91E-1       -25.20        0.00875       -13.28         
24.2988       0.00942       -18.55        9.908E-1      -25.89        9.908E-1      -25.82        0.00879       -14.74         
24.8988       0.00956       -20.02        9.907E-1      -26.53        9.908E-1      -26.45        0.00891       -16.20         
25.4987       0.00962       -21.78        9.906E-1      -27.15        9.909E-1      -27.08        0.00894       -17.30         
26.0987       0.00968       -23.22        9.906E-1      -27.78        9.909E-1      -27.71        0.00897       -18.80         
26.6987       0.00979       -24.80        9.906E-1      -28.41        9.908E-1      -28.36        0.00901       -19.85         
27.2987       0.00992       -26.33        9.903E-1      -29.03        9.907E-1      -28.98        0.00913       -21.39         
27.8986       0.00997       -27.97        9.905E-1      -29.66        9.907E-1      -29.61        0.00916       -22.94         
28.4986       0.01007       -29.49        9.904E-1      -30.29        9.906E-1      -30.24        0.00919       -24.45         
29.0986       0.01017       -30.75        9.904E-1      -30.93        9.905E-1      -30.87        0.00925       -25.43         
29.6985       0.01028       -32.06        9.901E-1      -31.56        9.905E-1      -31.50        0.00926       -27.00         
30.2985       0.01034       -33.91        9.902E-1      -32.19        9.904E-1      -32.13        0.00934       -28.22         
30.8985       0.01045       -35.19        9.901E-1      -32.81        9.903E-1      -32.76        0.00937       -29.84         
31.4984       0.01052       -36.52        9.899E-1      -33.44        9.902E-1      -33.39        0.00942       -30.79         
32.0984       0.01059       -37.66        9.898E-1      -34.07        9.902E-1      -34.04        0.00949       -31.96         
32.6984       0.0107        -39.27        9.898E-1      -34.71        9.901E-1      -34.67        0.0095        -33.66         
33.2984       0.01081       -40.48        9.898E-1      -35.36        9.902E-1      -35.30        0.00957       -34.58         
33.8983       0.0109        -41.81        9.899E-1      -35.99        9.90E-1       -35.93        0.00964       -36.03         
34.4983       0.01098       -43.20        9.897E-1      -36.62        9.90E-1       -36.57        0.00963       -37.17         
35.0983       0.01105       -44.49        9.895E-1      -37.26        9.901E-1      -37.21        0.00973       -37.91         
35.6982       0.01116       -45.46        9.894E-1      -37.89        9.898E-1      -37.84        0.00972       -39.97         
36.2982       0.01128       -46.87        9.893E-1      -38.49        9.898E-1      -38.46        0.00978       -40.64         
36.8982       0.01138       -47.91        9.891E-1      -39.14        9.897E-1      -39.09        0.00983       -41.99         
37.4981       0.01141       -49.17        9.891E-1      -39.76        9.895E-1      -39.71        0.00983       -43.32         
38.0981       0.01158       -50.10        9.889E-1      -40.38        9.893E-1      -40.33        0.00985       -44.55         
38.6981       0.01166       -51.23        9.887E-1      -41.00        9.894E-1      -40.96        0.00998       -45.47         
39.2981       0.0117        -52.32        9.888E-1      -41.64        9.89E-1       -41.59        0.01001       -46.52         
39.8980       0.01181       -53.44        9.886E-1      -42.25        9.892E-1      -42.21        0.01006       -47.62         
40.4980       0.0119        -54.33        9.883E-1      -42.88        9.89E-1       -42.85        0.01015       -48.99         
41.0980       0.01199       -55.25        9.883E-1      -43.52        9.889E-1      -43.48        0.01016       -49.54         
41.6979       0.01204       -56.02        9.882E-1      -44.13        9.888E-1      -44.10        0.01015       -50.66         
42.2979       0.01214       -56.72        9.881E-1      -44.77        9.885E-1      -44.73        0.01023       -51.54         
42.8979       0.01221       -57.67        9.879E-1      -45.40        9.885E-1      -45.35        0.01023       -52.56         
43.4978       0.01226       -58.23        9.877E-1      -46.03        9.883E-1      -45.98        0.01026       -53.88         
44.0978       0.01233       -59.36        9.878E-1      -46.65        9.881E-1      -46.60        0.01033       -54.34         
44.6978       0.01231       -60.09        9.874E-1      -47.28        9.881E-1      -47.21        0.01037       -55.06         
45.2978       0.01242       -60.64        9.875E-1      -47.91        9.881E-1      -47.85        0.01041       -55.78         
45.8977       0.01255       -61.34        9.873E-1      -48.54        9.879E-1      -48.48        0.01044       -56.80         
46.4977       0.01258       -62.14        9.872E-1      -49.16        9.876E-1      -49.10        0.01046       -57.26         
47.0977       0.01258       -62.93        9.869E-1      -49.78        9.874E-1      -49.79        0.0102        -57.99         
47.6976       0.01272       -63.61        9.868E-1      -50.43        9.873E-1      -50.41        0.01022       -58.78         
48.2976       0.01279       -64.33        9.866E-1      -51.05        9.874E-1      -51.05        0.01029       -60.08         
48.8976       0.01289       -65.11        9.866E-1      -51.69        9.871E-1      -51.68        0.01034       -60.99         
49.4975       0.01298       -65.81        9.864E-1      -52.32        9.87E-1       -52.31        0.01038       -61.85         
50.0975       0.01296       -66.62        9.864E-1      -52.96        9.87E-1       -52.93        0.01039       -62.69         
50.6975       0.01307       -67.42        9.864E-1      -53.58        9.869E-1      -53.56        0.01044       -63.92         
51.2975       0.01312       -68.20        9.864E-1      -54.20        9.868E-1      -54.19        0.0105        -64.67         
51.8974       0.01325       -69.10        9.862E-1      -54.83        9.868E-1      -54.82        0.01057       -65.42         
52.4974       0.0134        -70.54        9.857E-1      -55.43        9.843E-1      -55.36        0.01091       -67.28         
53.0974       0.01332       -70.32        9.86E-1       -56.14        9.865E-1      -56.07        0.01086       -65.98         
53.6973       0.01337       -71.04        9.859E-1      -56.76        9.864E-1      -56.69        0.01085       -67.07         
54.2973       0.01341       -72.06        9.858E-1      -57.39        9.864E-1      -57.32        0.01086       -67.93         
54.8973       0.01353       -73.15        9.858E-1      -58.02        9.864E-1      -57.97        0.01096       -68.76         
55.4972       0.01356       -74.25        9.857E-1      -58.65        9.862E-1      -58.58        0.01095       -70.06         
56.0972       0.01369       -75.20        9.859E-1      -59.27        9.861E-1      -59.21        0.01097       -70.74         
56.6972       0.01373       -76.37        9.858E-1      -59.90        9.861E-1      -59.86        0.01102       -72.16         
57.2972       0.01376       -77.58        9.857E-1      -60.53        9.86E-1       -60.49        0.01108       -72.91         
57.8971       0.01384       -78.58        9.857E-1      -61.16        9.86E-1       -61.12        0.01112       -74.01         
58.4971       0.01386       -79.72        9.854E-1      -61.79        9.858E-1      -61.72        0.01119       -75.38         
59.0971       0.01395       -80.97        9.855E-1      -62.44        9.858E-1      -62.37        0.01113       -76.38         
59.6970       0.01399       -82.24        9.855E-1      -63.05        9.857E-1      -63.00        0.01118       -77.46         
60.2970       0.014         -83.17        9.854E-1      -63.70        9.857E-1      -63.63        0.01122       -78.57         
60.8970       0.01404       -84.12        9.853E-1      -64.33        9.855E-1      -64.24        0.0112        -80.14         
61.4969       0.01406       -85.30        9.852E-1      -64.96        9.855E-1      -64.87        0.01122       -80.74         
62.0969       0.01411       -86.40        9.852E-1      -65.58        9.856E-1      -65.50        0.01121       -82.15         
62.6969       0.01402       -87.51        9.851E-1      -66.21        9.856E-1      -66.14        0.01123       -82.99         
63.2969       0.01407       -88.82        9.851E-1      -66.85        9.854E-1      -66.77        0.01115       -84.61         
63.8968       0.01408       -89.91        9.85E-1       -67.47        9.853E-1      -67.40        0.01122       -85.95         
64.4968       0.01406       -91.18        9.849E-1      -68.10        9.854E-1      -68.03        0.01113       -87.02         
65.0968       0.01407       -92.30        9.849E-1      -68.72        9.852E-1      -68.66        0.01107       -88.26         
65.6967       0.01411       -93.40        9.849E-1      -69.35        9.851E-1      -69.29        0.01103       -89.27         
66.2967       0.0141        -94.50        9.848E-1      -69.98        9.851E-1      -69.93        0.01101       -90.53         
66.8967       0.01406       -95.48        9.848E-1      -70.60        9.851E-1      -70.54        0.01102       -91.42         
67.4966       0.0141        -96.59        9.849E-1      -71.23        9.851E-1      -71.17        0.011         -92.71         
68.0966       0.0141        -97.52        9.848E-1      -71.85        9.85E-1       -71.80        0.01101       -93.85         
68.6966       0.01401       -98.68        9.848E-1      -72.50        9.849E-1      -72.44        0.01091       -95.22         
69.2966       0.01404       -99.81        9.847E-1      -73.11        9.849E-1      -73.07        0.0109        -96.18         
69.8965       0.01405       -101.16       9.847E-1      -73.74        9.849E-1      -73.70        0.01078       -97.34         
70.4965       0.01395       -102.17       9.846E-1      -74.39        9.848E-1      -74.32        0.0108        -98.63         
71.0965       0.01396       -103.07       9.847E-1      -75.01        9.846E-1      -74.95        0.01069       -99.90         
71.6964       0.014         -104.10       9.845E-1      -75.64        9.847E-1      -75.58        0.01063       -100.88        
72.2964       0.01392       -105.08       9.844E-1      -76.26        9.847E-1      -76.21        0.01058       -101.81        
72.8964       0.0139        -106.52       9.844E-1      -76.90        9.846E-1      -76.83        0.01051       -102.73        
73.4963       0.01389       -107.26       9.844E-1      -77.52        9.845E-1      -77.46        0.01048       -103.94        
74.0963       0.01388       -108.31       9.843E-1      -78.16        9.844E-1      -78.09        0.01039       -105.00        
74.6963       0.01383       -109.20       9.842E-1      -78.78        9.846E-1      -78.73        0.01038       -106.10        
75.2963       0.01382       -110.23       9.842E-1      -79.40        9.845E-1      -79.35        0.01032       -107.29        
75.8962       0.01389       -111.04       9.842E-1      -80.03        9.843E-1      -79.98        0.01026       -108.64        
76.4962       0.01385       -111.96       9.84E-1       -80.66        9.841E-1      -80.61        0.01025       -109.42        
77.0962       0.01383       -112.89       9.84E-1       -81.28        9.842E-1      -81.23        0.01011       -110.24        
77.6961       0.01384       -113.98       9.838E-1      -81.91        9.839E-1      -81.86        0.01007       -111.39        
78.2961       0.01384       -114.70       9.838E-1      -82.54        9.84E-1       -82.49        0.01          -112.51        
78.8961       0.01383       -115.59       9.837E-1      -83.16        9.837E-1      -83.12        0.00995       -113.25        
79.4960       0.01382       -116.56       9.836E-1      -83.79        9.836E-1      -83.74        0.00989       -114.42        
80.0960       0.01383       -117.51       9.834E-1      -84.42        9.837E-1      -84.37        0.00983       -115.32        
80.6960       0.01382       -118.30       9.836E-1      -85.04        9.836E-1      -85.00        0.00982       -116.37        
81.2960       0.0138        -119.24       9.833E-1      -85.66        9.835E-1      -85.64        0.00982       -117.20        
81.8959       0.01381       -120.19       9.832E-1      -86.31        9.834E-1      -86.25        0.00972       -118.25        
82.4959       0.0138        -121.09       9.833E-1      -86.91        9.833E-1      -86.90        0.00967       -119.55        
83.0959       0.01385       -121.90       9.832E-1      -87.56        9.832E-1      -87.52        0.00962       -120.10        
83.6958       0.01384       -122.74       9.829E-1      -88.19        9.831E-1      -88.13        0.00955       -120.87        
84.2958       0.01388       -123.84       9.828E-1      -88.81        9.83E-1       -88.77        0.00947       -121.94        
84.8958       0.01396       -124.57       9.83E-1       -89.44        9.829E-1      -89.40        0.00947       -122.96        
85.4957       0.01388       -125.80       9.826E-1      -90.07        9.828E-1      -90.03        0.00942       -123.73        
86.0957       0.01395       -126.66       9.827E-1      -90.69        9.829E-1      -90.65        0.00942       -125.24        
86.6957       0.01394       -127.62       9.827E-1      -91.32        9.827E-1      -91.27        0.0094        -125.91        
87.2957       0.01393       -128.78       9.824E-1      -91.95        9.828E-1      -91.90        0.00935       -126.61        
87.8956       0.01395       -129.74       9.825E-1      -92.57        9.828E-1      -92.55        0.00934       -127.75        
88.4956       0.01404       -130.73       9.824E-1      -93.22        9.827E-1      -93.16        0.00924       -128.63        
89.0956       0.01405       -131.51       9.823E-1      -93.85        9.826E-1      -93.79        0.0093        -129.80        
89.6955       0.014         -132.64       9.82E-1       -94.47        9.825E-1      -94.43        0.00921       -130.91        
90.2955       0.01408       -133.58       9.821E-1      -95.10        9.824E-1      -95.06        0.00921       -132.15        
90.8955       0.01411       -135.04       9.819E-1      -95.73        9.823E-1      -95.69        0.00914       -133.18        
91.4954       0.01409       -135.72       9.819E-1      -96.36        9.823E-1      -96.32        0.00909       -134.38        
92.0954       0.01415       -136.96       9.819E-1      -96.98        9.822E-1      -96.95        0.00911       -134.95        
