!    7/30/2020   13:59:44 
! Ref Plane: 0.000 mm
# MHZ S MA R  50
!
0.3000        0.00183       26.02         9.963E-1      -0.52         9.988E-1      -0.15         0.00181       13.89          
0.9000        0.00219       33.24         9.97E-1       -1.13         9.98E-1       -1.11         0.00221       29.96          
1.4999        0.00283       34.40         9.972E-1      -1.80         9.979E-1      -1.77         0.00283       32.29          
2.0999        0.00333       35.60         9.97E-1       -2.48         9.972E-1      -2.45         0.00333       33.61          
2.6999        0.00378       35.26         9.97E-1       -3.17         9.967E-1      -3.13         0.00377       33.38          
3.2999        0.00422       34.86         9.965E-1      -3.83         9.964E-1      -3.80         0.00419       32.53          
3.8998        0.00458       33.86         9.961E-1      -4.49         9.959E-1      -4.46         0.00458       32.29          
4.4998        0.00491       32.88         9.958E-1      -5.16         9.957E-1      -5.13         0.00492       31.53          
5.0998        0.00525       31.77         9.955E-1      -5.82         9.953E-1      -5.79         0.00524       30.51          
5.6997        0.00561       30.51         9.952E-1      -6.48         9.949E-1      -6.45         0.00562       29.75          
6.2997        0.00592       29.29         9.95E-1       -7.14         9.947E-1      -7.10         0.00588       28.51          
6.8997        0.00616       27.71         9.947E-1      -7.80         9.944E-1      -7.76         0.00611       27.44          
7.4996        0.00645       26.10         9.944E-1      -8.45         9.94E-1       -8.42         0.00636       26.26          
8.0996        0.0067        24.68         9.942E-1      -9.10         9.938E-1      -9.07         0.00659       24.90          
8.6996        0.00685       22.97         9.939E-1      -9.77         9.935E-1      -9.73         0.00682       23.64          
9.2996        0.00712       21.68         9.937E-1      -10.42        9.931E-1      -10.38        0.00698       22.39          
9.8995        0.00733       20.18         9.935E-1      -11.08        9.931E-1      -11.04        0.00717       21.11          
10.4995       0.00749       18.54         9.933E-1      -11.73        9.927E-1      -11.70        0.00729       19.53          
11.0995       0.00764       16.88         9.931E-1      -12.38        9.926E-1      -12.35        0.00744       18.26          
11.6994       0.00778       15.61         9.928E-1      -13.04        9.923E-1      -13.01        0.0076        17.26          
12.2994       0.00797       14.08         9.927E-1      -13.70        9.921E-1      -13.66        0.00771       16.09          
12.8994       0.00813       12.44         9.924E-1      -14.35        9.92E-1       -14.31        0.00788       14.89          
13.4993       0.00829       10.83         9.923E-1      -15.00        9.918E-1      -14.96        0.00797       13.64          
14.0993       0.00838       9.20          9.921E-1      -15.66        9.916E-1      -15.63        0.0081        12.26          
14.6993       0.00857       8.05          9.92E-1       -16.32        9.914E-1      -16.28        0.00823       11.09          
15.2993       0.00866       6.48          9.918E-1      -16.97        9.912E-1      -16.93        0.00829       9.77           
15.8992       0.00878       5.02          9.917E-1      -17.63        9.912E-1      -17.59        0.00837       8.81           
16.4992       0.00888       3.55          9.916E-1      -18.28        9.911E-1      -18.24        0.00843       7.37           
17.0992       0.00907       2.01          9.915E-1      -18.93        9.91E-1       -18.89        0.00849       6.44           
17.6991       0.00917       0.61          9.914E-1      -19.58        9.909E-1      -19.54        0.00863       5.14           
18.2991       0.0093        -0.87         9.912E-1      -20.24        9.908E-1      -20.21        0.00862       3.82           
18.8991       0.0094        -2.35         9.91E-1       -20.90        9.906E-1      -20.86        0.00869       2.95           
19.4990       0.00957       -3.88         9.91E-1       -21.55        9.906E-1      -21.51        0.00878       1.74           
20.0990       0.00965       -5.37         9.909E-1      -22.21        9.905E-1      -22.16        0.00882       0.31           
20.6990       0.00976       -6.78         9.907E-1      -22.85        9.904E-1      -22.81        0.00893       -1.11          
21.2990       0.00989       -8.18         9.907E-1      -23.51        9.903E-1      -23.47        0.00891       -2.24          
21.8989       0.01002       -9.33         9.906E-1      -24.16        9.902E-1      -24.12        0.00898       -3.22          
22.4989       0.01013       -10.92        9.905E-1      -24.81        9.902E-1      -24.77        0.009         -4.63          
23.0989       0.01025       -12.41        9.904E-1      -25.46        9.90E-1       -25.41        0.00907       -5.81          
23.6988       0.01039       -13.80        9.905E-1      -26.11        9.90E-1       -26.06        0.00909       -7.33          
24.2988       0.01053       -15.22        9.905E-1      -26.77        9.90E-1       -26.71        0.00911       -8.65          
24.8988       0.01067       -16.69        9.904E-1      -27.42        9.90E-1       -27.36        0.00914       -10.13         
25.4987       0.01079       -18.15        9.903E-1      -28.06        9.90E-1       -28.01        0.00918       -10.94         
26.0987       0.0109        -19.51        9.904E-1      -28.71        9.899E-1      -28.66        0.00921       -12.53         
26.6987       0.01105       -20.87        9.903E-1      -29.36        9.898E-1      -29.31        0.00926       -13.51         
27.2987       0.0112        -22.17        9.901E-1      -30.01        9.897E-1      -29.96        0.00928       -14.83         
27.8986       0.01131       -23.60        9.902E-1      -30.65        9.897E-1      -30.61        0.00929       -16.40         
28.4986       0.01141       -24.96        9.902E-1      -31.30        9.896E-1      -31.26        0.00928       -17.47         
29.0986       0.01151       -26.19        9.90E-1       -31.95        9.895E-1      -31.91        0.00932       -18.64         
29.6985       0.01168       -27.56        9.90E-1       -32.60        9.895E-1      -32.56        0.00931       -20.03         
30.2985       0.01179       -29.04        9.899E-1      -33.26        9.894E-1      -33.20        0.00935       -21.32         
30.8985       0.01192       -30.38        9.898E-1      -33.90        9.893E-1      -33.85        0.00933       -22.57         
31.4984       0.01203       -31.54        9.897E-1      -34.55        9.892E-1      -34.50        0.00936       -23.68         
32.0984       0.01213       -32.85        9.896E-1      -35.20        9.892E-1      -35.16        0.00937       -24.80         
32.6984       0.01228       -34.03        9.895E-1      -35.85        9.891E-1      -35.81        0.00934       -26.26         
33.2984       0.01234       -35.28        9.895E-1      -36.51        9.891E-1      -36.47        0.00936       -27.26         
33.8983       0.01248       -36.62        9.896E-1      -37.16        9.891E-1      -37.12        0.00939       -28.72         
34.4983       0.01259       -37.86        9.894E-1      -37.82        9.89E-1       -37.77        0.00938       -29.98         
35.0983       0.01269       -39.04        9.893E-1      -38.47        9.89E-1       -38.43        0.00938       -30.79         
35.6982       0.01282       -40.15        9.891E-1      -39.13        9.888E-1      -39.09        0.00937       -32.60         
36.2982       0.01295       -41.32        9.891E-1      -39.76        9.887E-1      -39.73        0.00936       -33.45         
36.8982       0.01309       -42.45        9.888E-1      -40.41        9.885E-1      -40.37        0.0094        -34.92         
37.4981       0.01314       -43.82        9.888E-1      -41.06        9.884E-1      -41.02        0.00937       -36.06         
38.0981       0.01328       -44.47        9.886E-1      -41.70        9.883E-1      -41.66        0.00934       -37.26         
38.6981       0.0134        -45.73        9.884E-1      -42.34        9.883E-1      -42.31        0.00938       -38.40         
39.2981       0.0135        -46.75        9.884E-1      -42.99        9.88E-1       -42.96        0.00941       -39.79         
39.8980       0.01361       -47.85        9.882E-1      -43.63        9.88E-1       -43.60        0.00941       -40.71         
40.4980       0.01374       -48.68        9.88E-1       -44.27        9.879E-1      -44.25        0.00939       -42.08         
41.0980       0.01383       -49.63        9.879E-1      -44.93        9.878E-1      -44.90        0.0094        -42.89         
41.6979       0.01394       -50.53        9.879E-1      -45.57        9.877E-1      -45.54        0.00937       -44.08         
42.2979       0.01401       -51.31        9.877E-1      -46.22        9.875E-1      -46.18        0.00938       -45.13         
42.8979       0.01415       -52.15        9.875E-1      -46.87        9.874E-1      -46.83        0.00938       -46.03         
43.4978       0.01418       -52.89        9.874E-1      -47.51        9.872E-1      -47.47        0.00936       -47.13         
44.0978       0.01432       -53.87        9.873E-1      -48.16        9.87E-1       -48.12        0.00939       -48.02         
44.6978       0.01431       -54.81        9.87E-1       -48.81        9.87E-1       -48.75        0.0094        -48.51         
45.2978       0.01451       -55.42        9.87E-1       -49.46        9.869E-1      -49.41        0.00936       -49.77         
45.8977       0.0146        -56.12        9.869E-1      -50.11        9.867E-1      -50.05        0.00937       -50.81         
46.4977       0.01465       -56.94        9.867E-1      -50.75        9.865E-1      -50.70        0.00939       -51.32         
47.0977       0.01467       -57.88        9.864E-1      -51.41        9.862E-1      -51.40        0.00909       -51.63         
47.6976       0.01483       -58.49        9.863E-1      -52.07        9.861E-1      -52.04        0.0091        -52.68         
48.2976       0.0149        -59.50        9.862E-1      -52.72        9.861E-1      -52.70        0.00907       -54.09         
48.8976       0.01503       -60.33        9.861E-1      -53.37        9.86E-1       -53.35        0.00908       -55.32         
49.4975       0.01511       -61.02        9.86E-1       -54.02        9.859E-1      -53.99        0.00911       -56.18         
50.0975       0.01513       -61.85        9.86E-1       -54.67        9.858E-1      -54.64        0.00907       -57.21         
50.6975       0.01529       -62.80        9.859E-1      -55.32        9.856E-1      -55.29        0.00909       -58.46         
51.2975       0.01534       -63.61        9.86E-1       -55.97        9.854E-1      -55.93        0.00913       -59.47         
51.8974       0.01548       -64.48        9.86E-1       -56.64        9.852E-1      -56.56        0.00916       -60.49         
52.4974       0.01567       -65.88        9.865E-1      -57.32        9.811E-1      -57.09        0.00925       -61.73         
53.0974       0.01563       -66.02        9.854E-1      -57.94        9.853E-1      -57.88        0.00937       -61.68         
53.6973       0.01569       -66.87        9.853E-1      -58.58        9.852E-1      -58.53        0.00931       -62.53         
54.2973       0.0157        -67.97        9.853E-1      -59.23        9.852E-1      -59.18        0.00929       -63.47         
54.8973       0.01586       -68.97        9.852E-1      -59.89        9.852E-1      -59.84        0.00932       -64.88         
55.4972       0.01588       -69.98        9.852E-1      -60.53        9.85E-1       -60.48        0.00933       -66.09         
56.0972       0.016         -70.98        9.852E-1      -61.18        9.849E-1      -61.13        0.00931       -66.95         
56.6972       0.01608       -72.20        9.852E-1      -61.83        9.849E-1      -61.79        0.00926       -68.66         
57.2972       0.01619       -73.46        9.85E-1       -62.48        9.848E-1      -62.44        0.0093        -69.56         
57.8971       0.01619       -74.41        9.85E-1       -63.13        9.848E-1      -63.08        0.00933       -70.99         
58.4971       0.01626       -75.73        9.849E-1      -63.78        9.846E-1      -63.72        0.0093        -72.78         
59.0971       0.01638       -76.88        9.848E-1      -64.44        9.846E-1      -64.38        0.00926       -73.98         
59.6970       0.01643       -78.13        9.848E-1      -65.08        9.845E-1      -65.03        0.00925       -75.38         
60.2970       0.01645       -79.16        9.847E-1      -65.74        9.845E-1      -65.68        0.00921       -76.60         
60.8970       0.01649       -80.11        9.846E-1      -66.39        9.843E-1      -66.32        0.00915       -78.23         
61.4969       0.01655       -81.25        9.846E-1      -67.04        9.843E-1      -66.97        0.00915       -79.15         
62.0969       0.01658       -82.49        9.846E-1      -67.69        9.843E-1      -67.61        0.0091        -81.12         
62.6969       0.0165        -83.48        9.844E-1      -68.33        9.842E-1      -68.27        0.00911       -82.08         
63.2969       0.01656       -84.77        9.844E-1      -68.98        9.841E-1      -68.92        0.009         -83.98         
63.8968       0.01657       -86.15        9.843E-1      -69.63        9.841E-1      -69.56        0.00899       -85.65         
64.4968       0.01661       -87.35        9.843E-1      -70.28        9.84E-1       -70.22        0.00889       -87.02         
65.0968       0.01659       -88.33        9.843E-1      -70.92        9.839E-1      -70.86        0.00884       -88.56         
65.6967       0.01664       -89.39        9.842E-1      -71.57        9.839E-1      -71.51        0.00873       -89.80         
66.2967       0.01664       -90.48        9.841E-1      -72.22        9.838E-1      -72.17        0.00873       -91.21         
66.8967       0.01664       -91.53        9.841E-1      -72.86        9.838E-1      -72.81        0.00867       -92.61         
67.4966       0.01668       -92.65        9.842E-1      -73.51        9.838E-1      -73.46        0.00859       -94.38         
68.0966       0.01662       -93.60        9.841E-1      -74.16        9.837E-1      -74.10        0.0086        -96.05         
68.6966       0.01664       -94.88        9.841E-1      -74.81        9.836E-1      -74.76        0.00843       -97.77         
69.2966       0.01664       -95.98        9.84E-1       -75.45        9.835E-1      -75.41        0.00839       -99.07         
69.8965       0.01672       -97.14        9.839E-1      -76.10        9.835E-1      -76.06        0.00825       -100.67        
70.4965       0.01657       -98.28        9.839E-1      -76.76        9.835E-1      -76.70        0.00823       -102.28        
71.0965       0.01659       -99.19        9.839E-1      -77.41        9.834E-1      -77.35        0.00816       -103.82        
71.6964       0.01666       -100.15       9.837E-1      -78.05        9.834E-1      -78.00        0.00802       -105.15        
72.2964       0.01661       -101.30       9.837E-1      -78.69        9.834E-1      -78.65        0.00804       -106.51        
72.8964       0.01662       -102.79       9.836E-1      -79.35        9.833E-1      -79.29        0.00796       -107.91        
73.4963       0.01658       -103.55       9.836E-1      -79.99        9.832E-1      -79.94        0.00786       -109.38        
74.0963       0.01661       -104.58       9.836E-1      -80.64        9.831E-1      -80.58        0.00779       -111.23        
74.6963       0.01655       -105.54       9.834E-1      -81.29        9.831E-1      -81.24        0.00773       -112.70        
75.2963       0.01656       -106.64       9.834E-1      -81.93        9.831E-1      -81.88        0.00768       -114.36        
75.8962       0.01669       -107.48       9.834E-1      -82.59        9.829E-1      -82.53        0.00758       -115.82        
76.4962       0.01665       -108.39       9.832E-1      -83.23        9.828E-1      -83.18        0.00755       -117.26        
77.0962       0.01666       -109.45       9.832E-1      -83.88        9.828E-1      -83.82        0.00744       -118.81        
77.6961       0.01665       -110.50       9.83E-1       -84.53        9.826E-1      -84.47        0.0074        -120.30        
78.2961       0.0167        -111.26       9.83E-1       -85.17        9.826E-1      -85.12        0.0073        -122.03        
78.8961       0.01672       -112.23       9.829E-1      -85.82        9.823E-1      -85.77        0.00725       -123.23        
79.4960       0.01675       -113.34       9.828E-1      -86.46        9.823E-1      -86.41        0.00721       -124.63        
80.0960       0.01669       -114.28       9.827E-1      -87.11        9.822E-1      -87.06        0.00714       -126.42        
80.6960       0.01674       -115.02       9.826E-1      -87.75        9.821E-1      -87.71        0.00712       -127.72        
81.2960       0.01677       -116.05       9.825E-1      -88.40        9.82E-1       -88.36        0.00708       -129.24        
81.8959       0.01673       -117.09       9.825E-1      -89.05        9.819E-1      -89.00        0.00699       -130.77        
82.4959       0.0168        -117.97       9.824E-1      -89.69        9.818E-1      -89.66        0.00698       -132.35        
83.0959       0.01681       -118.93       9.823E-1      -90.34        9.817E-1      -90.30        0.00687       -133.45        
83.6958       0.01688       -119.85       9.821E-1      -90.99        9.816E-1      -90.94        0.00684       -134.87        
84.2958       0.0169        -120.90       9.82E-1       -91.63        9.815E-1      -91.60        0.00677       -136.91        
84.8958       0.01702       -121.77       9.821E-1      -92.28        9.815E-1      -92.24        0.00676       -138.11        
85.4957       0.01694       -122.84       9.818E-1      -92.93        9.814E-1      -92.89        0.00675       -139.43        
86.0957       0.017         -123.89       9.818E-1      -93.58        9.814E-1      -93.53        0.00676       -141.42        
86.6957       0.01701       -124.80       9.818E-1      -94.22        9.812E-1      -94.17        0.00671       -142.84        
87.2957       0.01705       -126.09       9.816E-1      -94.87        9.813E-1      -94.82        0.00671       -144.20        
87.8956       0.01709       -127.15       9.816E-1      -95.51        9.812E-1      -95.48        0.00675       -146.21        
88.4956       0.01719       -128.19       9.815E-1      -96.17        9.811E-1      -96.12        0.00667       -147.44        
89.0956       0.0172        -128.95       9.815E-1      -96.82        9.81E-1       -96.77        0.00672       -149.09        
89.6955       0.01719       -130.09       9.813E-1      -97.46        9.809E-1      -97.42        0.00667       -150.57        
90.2955       0.0173        -131.08       9.812E-1      -98.11        9.809E-1      -98.07        0.00668       -151.96        
90.8955       0.01735       -132.56       9.811E-1      -98.76        9.808E-1      -98.72        0.00669       -154.19        
91.4954       0.01735       -133.26       9.811E-1      -99.42        9.807E-1      -99.37        0.00664       -156.21        
92.0954       0.01738       -134.50       9.81E-1       -100.06       9.806E-1      -100.02       0.00664       -157.20        
