!    7/30/2020   14:19:40 
! Ref Plane: 0.000 mm
# MHZ S MA R  50
!
0.3000        0.04899       177.51        9.886E-2      -1.13         9.655E-2      -0.59         0.81661       0.13           
0.9000        0.04828       178.76        9.482E-2      -0.39         9.538E-2      -0.24         0.81129       -0.10          
1.4999        0.0484        178.95        9.501E-2      -0.29         9.526E-2      -0.35         0.81027       -0.27          
2.0999        0.04835       179.21        9.513E-2      -0.44         9.531E-2      -0.46         0.81017       -0.45          
2.6999        0.04847       179.42        9.507E-2      -0.60         9.527E-2      -0.62         0.80993       -0.62          
3.2999        0.04849       179.66        9.51E-2       -0.73         9.529E-2      -0.72         0.80996       -0.80          
3.8998        0.04851       179.84        9.511E-2      -0.86         9.528E-2      -0.90         0.81009       -0.99          
4.4998        0.04849       -179.97       9.51E-2       -1.02         9.528E-2      -0.99         0.81003       -1.16          
5.0998        0.04857       -179.73       9.514E-2      -1.14         9.529E-2      -1.14         0.81013       -1.34          
5.6997        0.04854       -179.46       9.51E-2       -1.27         9.525E-2      -1.28         0.81011       -1.52          
6.2997        0.04861       -179.40       9.512E-2      -1.48         9.53E-2       -1.45         0.81003       -1.71          
6.8997        0.0486        -179.16       9.517E-2      -1.63         9.523E-2      -1.58         0.81008       -1.88          
7.4996        0.04866       -178.89       9.517E-2      -1.72         9.528E-2      -1.69         0.81017       -2.07          
8.0996        0.0487        -178.73       9.513E-2      -1.89         9.527E-2      -1.86         0.81003       -2.26          
8.6996        0.04864       -178.52       9.515E-2      -2.02         9.529E-2      -1.97         0.81019       -2.42          
9.2996        0.0487        -178.30       9.511E-2      -2.15         9.531E-2      -2.13         0.81036       -2.61          
9.8995        0.04873       -178.11       9.511E-2      -2.30         9.525E-2      -2.26         0.81015       -2.78          
10.4995       0.04869       -177.88       9.514E-2      -2.49         9.528E-2      -2.40         0.81036       -2.95          
11.0995       0.04879       -177.68       9.514E-2      -2.59         9.528E-2      -2.56         0.81027       -3.14          
11.6994       0.04882       -177.47       9.509E-2      -2.72         9.529E-2      -2.67         0.81052       -3.31          
12.2994       0.04881       -177.28       9.519E-2      -2.84         9.529E-2      -2.81         0.81049       -3.48          
12.8994       0.04883       -177.06       9.513E-2      -2.97         9.525E-2      -2.98         0.81056       -3.67          
13.4993       0.04892       -176.88       9.517E-2      -3.13         9.528E-2      -3.11         0.8106        -3.86          
14.0993       0.04895       -176.73       9.516E-2      -3.28         9.528E-2      -3.24         0.81064       -4.01          
14.6993       0.04892       -176.45       9.519E-2      -3.43         9.528E-2      -3.38         0.81065       -4.19          
15.2993       0.04892       -176.32       9.519E-2      -3.55         9.527E-2      -3.56         0.8108        -4.37          
15.8992       0.04896       -176.09       9.525E-2      -3.71         9.527E-2      -3.68         0.81085       -4.53          
16.4992       0.04901       -175.95       9.524E-2      -3.85         9.528E-2      -3.83         0.81087       -4.71          
17.0992       0.04907       -175.69       9.521E-2      -3.95         9.529E-2      -3.98         0.81101       -4.89          
17.6991       0.04915       -175.50       9.516E-2      -4.15         9.53E-2       -4.11         0.81097       -5.07          
18.2991       0.04915       -175.38       9.518E-2      -4.28         9.53E-2       -4.23         0.81113       -5.23          
18.8991       0.04915       -175.13       9.519E-2      -4.40         9.536E-2      -4.37         0.81134       -5.39          
19.4990       0.04919       -174.95       9.521E-2      -4.56         9.534E-2      -4.54         0.8112        -5.57          
20.0990       0.04924       -174.75       9.522E-2      -4.67         9.532E-2      -4.68         0.8113        -5.74          
20.6990       0.04925       -174.57       9.524E-2      -4.83         9.535E-2      -4.81         0.8114        -5.92          
21.2990       0.04926       -174.33       9.525E-2      -4.95         9.536E-2      -4.93         0.81145       -6.08          
21.8989       0.04928       -174.21       9.521E-2      -5.11         9.532E-2      -5.09         0.8115        -6.26          
22.4989       0.0493        -173.98       9.522E-2      -5.23         9.534E-2      -5.24         0.81153       -6.42          
23.0989       0.04939       -173.86       9.525E-2      -5.40         9.541E-2      -5.38         0.81177       -6.61          
23.6988       0.0494        -173.64       9.523E-2      -5.53         9.537E-2      -5.52         0.81152       -6.78          
24.2988       0.04939       -173.46       9.524E-2      -5.66         9.54E-2       -5.63         0.81147       -6.93          
24.8988       0.04951       -173.27       9.525E-2      -5.84         9.535E-2      -5.76         0.81147       -7.10          
25.4987       0.04952       -173.10       9.529E-2      -5.96         9.538E-2      -5.91         0.8115        -7.28          
26.0987       0.04957       -172.89       9.521E-2      -6.10         9.542E-2      -6.05         0.81131       -7.44          
26.6987       0.04962       -172.71       9.529E-2      -6.18         9.538E-2      -6.17         0.81129       -7.62          
27.2987       0.04962       -172.51       9.525E-2      -6.31         9.539E-2      -6.33         0.81137       -7.78          
27.8986       0.04965       -172.39       9.529E-2      -6.49         9.538E-2      -6.46         0.81107       -7.95          
28.4986       0.04972       -172.16       9.527E-2      -6.64         9.545E-2      -6.61         0.81103       -8.12          
29.0986       0.04971       -172.10       9.534E-2      -6.78         9.54E-2       -6.74         0.81099       -8.29          
29.6985       0.04981       -171.90       9.53E-2       -6.92         9.542E-2      -6.88         0.81076       -8.45          
30.2985       0.04982       -171.70       9.532E-2      -7.01         9.543E-2      -7.04         0.81068       -8.62          
30.8985       0.04984       -171.48       9.532E-2      -7.19         9.543E-2      -7.17         0.81071       -8.81          
31.4984       0.04991       -171.37       9.528E-2      -7.31         9.545E-2      -7.31         0.81068       -8.98          
32.0984       0.04994       -171.21       9.534E-2      -7.44         9.539E-2      -7.46         0.81062       -9.13          
32.6984       0.04996       -171.02       9.534E-2      -7.58         9.543E-2      -7.57         0.81076       -9.30          
33.2984       0.04999       -170.94       9.533E-2      -7.71         9.544E-2      -7.69         0.8108        -9.45          
33.8983       0.05          -170.71       9.536E-2      -7.87         9.546E-2      -7.85         0.81077       -9.61          
34.4983       0.05008       -170.54       9.543E-2      -7.98         9.548E-2      -7.98         0.81109       -9.77          
35.0983       0.0501        -170.39       9.541E-2      -8.13         9.543E-2      -8.12         0.81115       -9.93          
35.6982       0.05015       -170.19       9.54E-2       -8.24         9.545E-2      -8.26         0.81132       -10.08         
36.2982       0.05024       -170.01       9.544E-2      -8.40         9.549E-2      -8.39         0.81127       -10.27         
36.8982       0.05025       -169.87       9.545E-2      -8.55         9.549E-2      -8.57         0.81137       -10.45         
37.4981       0.05032       -169.80       9.546E-2      -8.66         9.553E-2      -8.72         0.81134       -10.60         
38.0981       0.05031       -169.59       9.551E-2      -8.77         9.548E-2      -8.84         0.81129       -10.79         
38.6981       0.05037       -169.46       9.55E-2       -8.93         9.552E-2      -8.96         0.81137       -10.96         
39.2981       0.0504        -169.32       9.549E-2      -9.07         9.55E-2       -9.12         0.81142       -11.13         
39.8980       0.05042       -169.12       9.553E-2      -9.24         9.555E-2      -9.27         0.81147       -11.31         
40.4980       0.05043       -168.94       9.555E-2      -9.38         9.552E-2      -9.40         0.81144       -11.49         
41.0980       0.0505        -168.82       9.549E-2      -9.51         9.556E-2      -9.56         0.81142       -11.65         
41.6979       0.05053       -168.70       9.552E-2      -9.68         9.559E-2      -9.67         0.81144       -11.84         
42.2979       0.05058       -168.52       9.554E-2      -9.80         9.561E-2      -9.81         0.81158       -12.02         
42.8979       0.05061       -168.40       9.554E-2      -9.96         9.56E-2       -9.95         0.81169       -12.20         
43.4978       0.05062       -168.30       9.554E-2      -10.08        9.557E-2      -10.10        0.81173       -12.40         
44.0978       0.05069       -168.17       9.555E-2      -10.22        9.559E-2      -10.21        0.81187       -12.57         
44.6978       0.05072       -168.08       9.556E-2      -10.36        9.56E-2       -10.40        0.81212       -12.77         
45.2978       0.05076       -167.84       9.556E-2      -10.52        9.564E-2      -10.50        0.81197       -12.93         
45.8977       0.05085       -167.66       9.556E-2      -10.64        9.565E-2      -10.66        0.81204       -13.12         
46.4977       0.05087       -167.60       9.555E-2      -10.82        9.565E-2      -10.81        0.8123        -13.32         
47.0977       0.05091       -167.43       9.554E-2      -10.97        9.566E-2      -10.94        0.81329       -13.48         
47.6976       0.05093       -167.26       9.557E-2      -11.07        9.567E-2      -11.10        0.81337       -13.65         
48.2976       0.05102       -167.14       9.56E-2       -11.24        9.567E-2      -11.20        0.81346       -13.82         
48.8976       0.05103       -166.96       9.56E-2       -11.40        9.565E-2      -11.39        0.81351       -13.99         
49.4975       0.05113       -166.81       9.557E-2      -11.52        9.567E-2      -11.52        0.81364       -14.19         
50.0975       0.0511        -166.73       9.563E-2      -11.66        9.566E-2      -11.67        0.8137        -14.35         
50.6975       0.05122       -166.55       9.56E-2       -11.81        9.572E-2      -11.80        0.81388       -14.52         
51.2975       0.0512        -166.44       9.563E-2      -11.96        9.573E-2      -11.96        0.81394       -14.71         
51.8974       0.05134       -166.33       9.562E-2      -12.06        9.578E-2      -12.13        0.8141        -14.89         
52.4974       0.05206       -166.43       9.559E-2      -12.18        9.619E-2      -12.37        0.81709       -15.15         
53.0974       0.05132       -165.95       9.572E-2      -12.35        9.58E-2       -12.37        0.8145        -15.23         
53.6973       0.05139       -165.82       9.57E-2       -12.49        9.58E-2       -12.52        0.81461       -15.41         
54.2973       0.05144       -165.78       9.57E-2       -12.61        9.579E-2      -12.63        0.81459       -15.58         
54.8973       0.05149       -165.59       9.567E-2      -12.75        9.582E-2      -12.78        0.81464       -15.73         
55.4972       0.05154       -165.50       9.575E-2      -12.90        9.584E-2      -12.93        0.81482       -15.93         
56.0972       0.05159       -165.32       9.572E-2      -13.04        9.585E-2      -13.06        0.81492       -16.09         
56.6972       0.05167       -165.15       9.575E-2      -13.19        9.589E-2      -13.20        0.81477       -16.25         
57.2972       0.05175       -164.99       9.582E-2      -13.31        9.587E-2      -13.30        0.81512       -16.42         
57.8971       0.05178       -164.90       9.582E-2      -13.44        9.591E-2      -13.48        0.81505       -16.60         
58.4971       0.05186       -164.74       9.588E-2      -13.57        9.595E-2      -13.63        0.81514       -16.77         
59.0971       0.05191       -164.62       9.587E-2      -13.73        9.599E-2      -13.75        0.81524       -16.92         
59.6970       0.05199       -164.44       9.591E-2      -13.88        9.603E-2      -13.90        0.81536       -17.09         
60.2970       0.052         -164.32       9.596E-2      -14.01        9.602E-2      -14.05        0.81538       -17.25         
60.8970       0.05206       -164.16       9.598E-2      -14.16        9.604E-2      -14.20        0.81543       -17.42         
61.4969       0.0521        -164.04       9.604E-2      -14.30        9.61E-2       -14.36        0.8154        -17.59         
62.0969       0.05219       -163.92       9.607E-2      -14.42        9.612E-2      -14.51        0.81537       -17.77         
62.6969       0.05224       -163.86       9.606E-2      -14.61        9.613E-2      -14.64        0.81545       -17.94         
63.2969       0.05231       -163.69       9.61E-2       -14.73        9.617E-2      -14.82        0.81543       -18.09         
63.8968       0.05237       -163.60       9.612E-2      -14.87        9.623E-2      -14.95        0.81549       -18.27         
64.4968       0.05243       -163.41       9.615E-2      -15.05        9.623E-2      -15.10        0.81556       -18.43         
65.0968       0.05249       -163.30       9.616E-2      -15.19        9.629E-2      -15.25        0.81551       -18.61         
65.6967       0.05256       -163.16       9.619E-2      -15.35        9.629E-2      -15.40        0.81562       -18.77         
66.2967       0.05258       -163.05       9.626E-2      -15.48        9.634E-2      -15.54        0.81579       -18.93         
66.8967       0.05262       -162.92       9.622E-2      -15.65        9.63E-2       -15.70        0.81568       -19.12         
67.4966       0.05273       -162.76       9.628E-2      -15.81        9.64E-2       -15.84        0.8156        -19.28         
68.0966       0.05274       -162.66       9.633E-2      -15.96        9.639E-2      -15.99        0.81558       -19.47         
68.6966       0.05281       -162.55       9.633E-2      -16.12        9.647E-2      -16.14        0.81569       -19.62         
69.2966       0.05292       -162.39       9.633E-2      -16.29        9.647E-2      -16.28        0.8158        -19.80         
69.8965       0.05302       -162.31       9.64E-2       -16.45        9.649E-2      -16.45        0.81587       -19.96         
70.4965       0.053         -162.23       9.64E-2       -16.58        9.651E-2      -16.59        0.81579       -20.14         
71.0965       0.05306       -162.10       9.638E-2      -16.74        9.652E-2      -16.76        0.8158        -20.30         
71.6964       0.05316       -161.93       9.642E-2      -16.91        9.651E-2      -16.90        0.81592       -20.47         
72.2964       0.0532        -161.89       9.641E-2      -17.07        9.655E-2      -17.07        0.81593       -20.65         
72.8964       0.05331       -161.77       9.649E-2      -17.23        9.655E-2      -17.24        0.81615       -20.82         
73.4963       0.05338       -161.61       9.65E-2       -17.36        9.661E-2      -17.39        0.81615       -21.00         
74.0963       0.05345       -161.54       9.654E-2      -17.52        9.665E-2      -17.56        0.81616       -21.18         
74.6963       0.05352       -161.49       9.656E-2      -17.67        9.665E-2      -17.70        0.81622       -21.33         
75.2963       0.05358       -161.35       9.661E-2      -17.84        9.671E-2      -17.88        0.81619       -21.52         
75.8962       0.05367       -161.18       9.663E-2      -17.97        9.671E-2      -18.01        0.81633       -21.67         
76.4962       0.05373       -161.08       9.663E-2      -18.17        9.675E-2      -18.14        0.81649       -21.84         
77.0962       0.0538        -161.00       9.669E-2      -18.32        9.676E-2      -18.33        0.81646       -22.01         
77.6961       0.05386       -160.92       9.667E-2      -18.47        9.68E-2       -18.46        0.8168        -22.18         
78.2961       0.05396       -160.75       9.675E-2      -18.63        9.683E-2      -18.63        0.81677       -22.34         
78.8961       0.05398       -160.67       9.677E-2      -18.78        9.684E-2      -18.81        0.81712       -22.50         
79.4960       0.05405       -160.57       9.678E-2      -18.95        9.685E-2      -18.92        0.81721       -22.68         
80.0960       0.05412       -160.46       9.679E-2      -19.10        9.691E-2      -19.10        0.81725       -22.85         
80.6960       0.0542        -160.40       9.681E-2      -19.27        9.696E-2      -19.27        0.81749       -23.02         
81.2960       0.05427       -160.29       9.684E-2      -19.44        9.693E-2      -19.42        0.81762       -23.18         
81.8959       0.05434       -160.15       9.688E-2      -19.60        9.698E-2      -19.57        0.81766       -23.35         
82.4959       0.0544        -160.04       9.689E-2      -19.74        9.699E-2      -19.74        0.81787       -23.51         
83.0959       0.05447       -159.92       9.696E-2      -19.91        9.705E-2      -19.92        0.81807       -23.68         
83.6958       0.05456       -159.79       9.696E-2      -20.07        9.706E-2      -20.05        0.81827       -23.85         
84.2958       0.05465       -159.69       9.698E-2      -20.27        9.707E-2      -20.24        0.81846       -24.01         
84.8958       0.05475       -159.57       9.703E-2      -20.42        9.712E-2      -20.41        0.81839       -24.18         
85.4957       0.05478       -159.52       9.707E-2      -20.60        9.71E-2       -20.60        0.81864       -24.35         
86.0957       0.05491       -159.40       9.707E-2      -20.77        9.712E-2      -20.77        0.81862       -24.52         
86.6957       0.05493       -159.28       9.707E-2      -20.91        9.715E-2      -20.93        0.81875       -24.71         
87.2957       0.05503       -159.24       9.709E-2      -21.11        9.716E-2      -21.13        0.81889       -24.87         
87.8956       0.0551        -159.12       9.715E-2      -21.28        9.721E-2      -21.29        0.81891       -25.04         
88.4956       0.05521       -159.01       9.718E-2      -21.42        9.721E-2      -21.46        0.81919       -25.20         
89.0956       0.05526       -158.86       9.72E-2       -21.60        9.721E-2      -21.62        0.81918       -25.36         
89.6955       0.05533       -158.76       9.723E-2      -21.80        9.723E-2      -21.81        0.81948       -25.54         
90.2955       0.0554        -158.67       9.722E-2      -21.99        9.723E-2      -21.98        0.81958       -25.70         
90.8955       0.05552       -158.64       9.725E-2      -22.14        9.728E-2      -22.15        0.81971       -25.86         
91.4954       0.05555       -158.49       9.727E-2      -22.34        9.728E-2      -22.33        0.81976       -26.01         
92.0954       0.05567       -158.42       9.729E-2      -22.53        9.731E-2      -22.52        0.81993       -26.20         
