!    7/27/2020   08:41:50 
! Ref Plane: 0.000 mm
# MHZ S MA R  50
!
3.0000        0.63477       133.43        7.242E-2      -141.36       7.254E-2      -141.31       0.80455       -0.51          
4.4993        0.47731       124.49        8.264E-2      -152.55       8.268E-2      -152.55       0.80752       -1.02          
5.9985        0.37243       120.04        8.717E-2      -159.55       8.73E-2       -159.59       0.8083        -1.53          
7.4978        0.30054       118.08        8.957E-2      -164.29       8.968E-2      -164.30       0.80879       -2.05          
8.9970        0.2485        117.63        9.085E-2      -167.75       9.103E-2      -167.74       0.80909       -2.53          
10.4963       0.20921       118.55        9.161E-2      -170.43       9.17E-2       -170.44       0.80929       -2.99          
11.9955       0.18053       120.23        9.202E-2      -172.54       9.217E-2      -172.56       0.80965       -3.47          
13.4948       0.15726       122.43        9.229E-2      -174.28       9.247E-2      -174.29       0.80973       -3.95          
14.9940       0.1386        125.31        9.253E-2      -175.78       9.26E-2       -175.78       0.80978       -4.40          
16.4933       0.12352       128.80        9.253E-2      -177.12       9.269E-2      -177.12       0.80979       -4.86          
17.9925       0.11136       132.89        9.264E-2      -178.27       9.276E-2      -178.31       0.81007       -5.31          
19.4918       0.10168       137.45        9.258E-2      -179.31       9.279E-2      -179.38       0.81016       -5.77          
20.9910       0.09399       142.31        9.265E-2      179.70        9.275E-2      179.64        0.81026       -6.22          
22.4903       0.08799       147.60        9.264E-2      178.78        9.275E-2      178.74        0.81031       -6.67          
23.9895       0.08348       153.08        9.256E-2      177.95        9.272E-2      177.91        0.81023       -7.12          
25.4888       0.08037       158.64        9.252E-2      177.14        9.264E-2      177.10        0.81006       -7.55          
26.9880       0.07845       164.22        9.246E-2      176.39        9.258E-2      176.38        0.80973       -7.98          
28.4873       0.07754       169.57        9.236E-2      175.69        9.252E-2      175.64        0.80942       -8.42          
29.9865       0.07736       174.60        9.234E-2      175.01        9.242E-2      174.96        0.80882       -8.88          
31.4858       0.07788       179.36        9.226E-2      174.33        9.237E-2      174.31        0.80863       -9.32          
32.9850       0.07904       -176.28       9.222E-2      173.70        9.23E-2       173.65        0.80876       -9.74          
34.4843       0.08065       -172.29       9.213E-2      173.06        9.219E-2      173.03        0.80895       -10.15         
35.9835       0.08265       -168.67       9.207E-2      172.46        9.209E-2      172.43        0.80894       -10.58         
37.4828       0.08482       -165.46       9.20E-2       171.91        9.199E-2      171.84        0.80897       -11.04         
38.9820       0.08718       -162.54       9.195E-2      171.33        9.198E-2      171.23        0.80871       -11.51         
40.4813       0.08967       -159.81       9.189E-2      170.74        9.191E-2      170.67        0.8087        -11.96         
41.9805       0.09234       -157.30       9.179E-2      170.18        9.19E-2       170.10        0.80861       -12.43         
43.4798       0.09525       -154.99       9.175E-2      169.61        9.178E-2      169.56        0.80858       -12.90         
44.9790       0.09841       -152.91       9.167E-2      169.02        9.173E-2      168.98        0.80882       -13.38         
46.4783       0.10176       -151.07       9.154E-2      168.49        9.158E-2      168.44        0.80869       -13.85         
47.9775       0.10513       -149.43       9.145E-2      167.92        9.155E-2      167.87        0.80966       -14.29         
49.4768       0.10869       -148.01       9.137E-2      167.41        9.145E-2      167.35        0.80973       -14.74         
50.9760       0.11217       -146.78       9.124E-2      166.84        9.132E-2      166.82        0.80977       -15.20         
52.4753       0.1156        -145.64       9.116E-2      166.29        9.118E-2      166.29        0.81024       -15.67         
53.9745       0.11902       -144.67       9.103E-2      165.81        9.114E-2      165.78        0.80991       -16.11         
55.4738       0.12227       -143.82       9.09E-2       165.31        9.104E-2      165.26        0.8102        -16.56         
56.9730       0.12542       -143.01       9.081E-2      164.79        9.095E-2      164.79        0.81016       -17.00         
58.4723       0.1281        -142.18       9.078E-2      164.32        9.093E-2      164.29        0.81037       -17.43         
59.9715       0.13082       -141.20       9.078E-2      163.84        9.085E-2      163.77        0.81032       -17.87         
61.4708       0.13378       -140.14       9.078E-2      163.31        9.089E-2      163.26        0.8104        -18.30         
62.9700       0.13714       -139.03       9.076E-2      162.78        9.091E-2      162.71        0.81023       -18.75         
64.4693       0.14085       -137.96       9.074E-2      162.20        9.086E-2      162.14        0.81016       -19.17         
65.9685       0.145         -136.97       9.072E-2      161.63        9.078E-2      161.58        0.81023       -19.61         
67.4678       0.14938       -136.07       9.061E-2      161.04        9.077E-2      160.98        0.81003       -20.08         
68.9670       0.15397       -135.26       9.054E-2      160.44        9.074E-2      160.39        0.8101        -20.53         
70.4663       0.15896       -134.53       9.042E-2      159.84        9.057E-2      159.80        0.80993       -20.96         
71.9655       0.16404       -133.91       9.036E-2      159.20        9.044E-2      159.18        0.80994       -21.42         
73.4648       0.16934       -133.32       9.021E-2      158.58        9.031E-2      158.55        0.80964       -21.86         
74.9640       0.17509       -132.76       9.011E-2      157.91        9.021E-2      157.91        0.80971       -22.31         
76.4633       0.18114       -132.26       8.993E-2      157.25        9.009E-2      157.24        0.80983       -22.76         
77.9625       0.18771       -131.82       8.976E-2      156.56        8.992E-2      156.55        0.81011       -23.20         
79.4618       0.19473       -131.43       8.955E-2      155.86        8.969E-2      155.86        0.81022       -23.66         
80.9610       0.20243       -131.13       8.932E-2      155.11        8.947E-2      155.10        0.81052       -24.09         
82.4603       0.21086       -130.86       8.907E-2      154.33        8.92E-2       154.27        0.81065       -24.53         
83.9595       0.22038       -130.70       8.882E-2      153.47        8.885E-2      153.42        0.81077       -24.98         
85.4588       0.23106       -130.69       8.839E-2      152.54        8.845E-2      152.49        0.81089       -25.43         
86.9580       0.24335       -130.84       8.784E-2      151.49        8.795E-2      151.46        0.81092       -25.87         
88.4573       0.25754       -131.22       8.711E-2      150.38        8.722E-2      150.37        0.81079       -26.32         
89.9565       0.27407       -131.95       8.62E-2       149.18        8.631E-2      149.16        0.81092       -26.76         
91.4558       0.29345       -133.05       8.499E-2      147.82        8.512E-2      147.80        0.81084       -27.19         
92.9550       0.3174        -134.64       8.333E-2      146.23        8.337E-2      146.20        0.81054       -27.64         
94.4543       0.34929       -137.29       8.069E-2      144.22        8.071E-2      144.24        0.81038       -28.11         
95.9535       0.38887       -142.10       7.613E-2      142.23        7.619E-2      142.27        0.80986       -28.56         
97.4528       0.43104       -150.20       6.893E-2      141.37        6.897E-2      141.34        0.80904       -28.99         
98.9520       0.45422       -162.16       6.033E-2      145.06        6.036E-2      145.09        0.80838       -29.39         
100.4513      0.43261       -176.10       5.707E-2      155.26        5.715E-2      155.32        0.80816       -29.74         
101.9505      0.36793       172.54        6.279E-2      163.38        6.282E-2      163.38        0.8087        -30.12         
103.4498      0.29674       166.85        7.047E-2      165.18        7.053E-2      165.15        0.80939       -30.55         
104.9490      0.24082       166.24        7.615E-2      164.23        7.618E-2      164.22        0.80958       -30.98         
106.4483      0.20207       169.23        7.989E-2      162.66        7.994E-2      162.63        0.80979       -31.42         
107.9475      0.17742       174.40        8.232E-2      161.03        8.236E-2      161.01        0.80989       -31.87         
109.4468      0.1627        -179.57       8.394E-2      159.55        8.393E-2      159.52        0.80994       -32.32         
110.9460      0.15523       -173.48       8.503E-2      158.21        8.502E-2      158.19        0.80998       -32.76         
112.4453      0.15274       -167.88       8.575E-2      157.01        8.578E-2      156.96        0.81005       -33.22         
113.9445      0.15362       -163.44       8.621E-2      155.94        8.616E-2      155.92        0.81001       -33.68         
115.4438      0.15479       -159.67       8.656E-2      155.03        8.656E-2      155.00        0.81013       -34.12         
116.9430      0.15764       -156.26       8.687E-2      154.13        8.686E-2      154.08        0.81023       -34.58         
118.4423      0.16189       -153.67       8.698E-2      153.26        8.693E-2      153.22        0.81024       -35.04         
119.9415      0.16579       -151.61       8.71E-2       152.51        8.707E-2      152.49        0.81042       -35.49         
121.4408      0.17011       -149.82       8.713E-2      151.76        8.713E-2      151.71        0.81051       -35.95         
122.9400      0.17497       -148.46       8.708E-2      151.05        8.709E-2      150.99        0.81054       -36.41         
124.4393      0.17934       -147.75       8.696E-2      150.43        8.693E-2      150.41        0.81043       -36.87         
125.9385      0.18202       -147.06       8.697E-2      149.91        8.695E-2      149.90        0.81058       -37.31         
127.4378      0.18454       -146.15       8.707E-2      149.38        8.701E-2      149.34        0.81036       -37.76         
128.9370      0.1873        -145.19       8.711E-2      148.80        8.705E-2      148.79        0.81029       -38.23         
130.4363      0.19082       -144.19       8.714E-2      148.20        8.714E-2      148.12        0.8104        -38.70         
131.9355      0.1946        -143.40       8.718E-2      147.61        8.716E-2      147.51        0.81041       -39.16         
133.4348      0.1985        -142.67       8.714E-2      147.02        8.716E-2      146.94        0.81039       -39.60         
134.9340      0.20276       -142.11       8.707E-2      146.42        8.712E-2      146.32        0.81044       -40.06         
136.4333      0.20706       -141.67       8.693E-2      145.84        8.703E-2      145.77        0.81046       -40.51         
137.9325      0.21136       -141.37       8.682E-2      145.28        8.695E-2      145.19        0.81041       -40.97         
139.4318      0.21542       -141.19       8.662E-2      144.72        8.671E-2      144.64        0.81059       -41.44         
140.9310      0.2192        -141.03       8.652E-2      144.20        8.667E-2      144.15        0.81073       -41.88         
142.4303      0.22284       -140.95       8.633E-2      143.71        8.651E-2      143.66        0.8108        -42.34         
143.9295      0.22618       -140.81       8.626E-2      143.21        8.638E-2      143.14        0.81086       -42.79         
145.4288      0.22988       -140.68       8.609E-2      142.69        8.627E-2      142.66        0.81088       -43.22         
146.9280      0.23364       -140.60       8.596E-2      142.19        8.613E-2      142.20        0.81101       -43.66         
148.4273      0.23713       -140.56       8.579E-2      141.70        8.593E-2      141.70        0.81096       -44.11         
149.9265      0.24066       -140.57       8.568E-2      141.21        8.58E-2       141.20        0.81107       -44.54         
151.4258      0.24417       -140.62       8.55E-2       140.70        8.562E-2      140.74        0.81102       -44.96         
152.9250      0.2476        -140.68       8.53E-2       140.24        8.545E-2      140.27        0.81098       -45.39         
154.4243      0.25083       -140.74       8.511E-2      139.76        8.527E-2      139.76        0.81097       -45.82         
155.9235      0.25422       -140.78       8.499E-2      139.31        8.512E-2      139.29        0.81071       -46.28         
157.4228      0.25766       -140.88       8.483E-2      138.80        8.49E-2       138.83        0.8108        -46.71         
158.9220      0.26115       -141.01       8.459E-2      138.36        8.469E-2      138.34        0.81078       -47.16         
160.4213      0.26448       -141.23       8.434E-2      137.88        8.449E-2      137.86        0.81067       -47.59         
161.9205      0.26751       -141.46       8.413E-2      137.47        8.425E-2      137.42        0.8107        -48.04         
163.4198      0.27036       -141.67       8.391E-2      137.03        8.409E-2      137.01        0.81055       -48.47         
164.9190      0.27308       -141.87       8.371E-2      136.61        8.388E-2      136.58        0.81046       -48.92         
166.4183      0.27557       -142.02       8.359E-2      136.19        8.369E-2      136.16        0.81032       -49.36         
167.9175      0.27822       -142.12       8.342E-2      135.77        8.364E-2      135.75        0.8103        -49.80         
169.4168      0.28121       -142.18       8.33E-2       135.30        8.341E-2      135.26        0.81029       -50.26         
170.9160      0.28428       -142.36       8.307E-2      134.86        8.324E-2      134.83        0.80996       -50.69         
172.4153      0.28741       -142.48       8.296E-2      134.40        8.305E-2      134.38        0.81002       -51.13         
173.9145      0.29054       -142.68       8.268E-2      133.95        8.282E-2      133.93        0.80987       -51.56         
175.4138      0.29362       -142.88       8.246E-2      133.51        8.263E-2      133.47        0.80973       -52.00         
176.9130      0.29669       -143.09       8.225E-2      133.05        8.242E-2      133.03        0.80956       -52.44         
178.4123      0.29977       -143.33       8.206E-2      132.63        8.218E-2      132.60        0.80948       -52.84         
179.9115      0.30273       -143.51       8.185E-2      132.24        8.199E-2      132.19        0.80926       -53.27         
181.4108      0.30571       -143.70       8.162E-2      131.80        8.178E-2      131.75        0.80921       -53.71         
182.9100      0.30922       -143.87       8.136E-2      131.30        8.156E-2      131.29        0.80886       -54.13         
184.4093      0.31279       -144.06       8.114E-2      130.81        8.134E-2      130.83        0.80873       -54.57         
185.9085      0.31672       -144.34       8.084E-2      130.36        8.101E-2      130.35        0.80843       -55.00         
187.4078      0.32066       -144.70       8.05E-2       129.88        8.064E-2      129.90        0.80805       -55.45         
188.9070      0.32441       -145.09       8.014E-2      129.44        8.028E-2      129.44        0.80762       -55.90         
190.4063      0.32834       -145.49       7.975E-2      128.94        7.989E-2      128.99        0.80717       -56.34         
191.9055      0.33253       -145.99       7.932E-2      128.50        7.949E-2      128.54        0.80679       -56.78         
193.4048      0.33635       -146.59       7.882E-2      128.09        7.897E-2      128.11        0.80642       -57.24         
194.9040      0.33979       -147.24       7.832E-2      127.71        7.845E-2      127.73        0.80613       -57.70         
196.4033      0.34292       -147.94       7.78E-2       127.36        7.795E-2      127.40        0.8059        -58.16         
197.9025      0.34551       -148.65       7.732E-2      127.08        7.74E-2       127.08        0.80558       -58.61         
199.4018      0.34767       -149.36       7.687E-2      126.79        7.692E-2      126.79        0.80543       -59.09         
200.9010      0.34979       -150.06       7.635E-2      126.54        7.65E-2       126.53        0.80522       -59.54         
202.4003      0.3512        -150.83       7.59E-2       126.35        7.603E-2      126.30        0.80507       -60.01         
203.8995      0.35288       -151.46       7.551E-2      126.08        7.561E-2      126.05        0.80497       -60.46         
205.3988      0.3538        -152.28       7.502E-2      125.96        7.518E-2      125.89        0.80486       -60.92         
206.8980      0.35374       -153.00       7.468E-2      125.86        7.483E-2      125.81        0.80463       -61.36         
208.3973      0.35339       -153.58       7.443E-2      125.73        7.459E-2      125.69        0.8046        -61.84         
209.8965      0.35311       -154.06       7.423E-2      125.61        7.435E-2      125.54        0.80459       -62.28         
211.3958      0.35328       -154.48       7.403E-2      125.39        7.415E-2      125.34        0.80446       -62.72         
212.8950      0.35357       -154.91       7.378E-2      125.19        7.395E-2      125.14        0.80434       -63.18         
214.3943      0.35359       -155.36       7.358E-2      125.01        7.374E-2      124.95        0.80427       -63.64         
215.8935      0.35366       -155.65       7.349E-2      124.79        7.363E-2      124.75        0.80399       -64.09         
217.3928      0.35456       -155.90       7.331E-2      124.49        7.348E-2      124.47        0.80406       -64.53         
218.8920      0.35646       -156.15       7.309E-2      124.15        7.322E-2      124.13        0.80368       -64.99         
220.3913      0.35952       -156.58       7.269E-2      123.78        7.287E-2      123.73        0.80372       -65.43         
221.8905      0.3623        -157.25       7.218E-2      123.51        7.236E-2      123.48        0.80348       -65.88         
223.3898      0.36427       -158.05       7.17E-2       123.36        7.186E-2      123.34        0.8032        -66.31         
224.8890      0.36535       -158.93       7.118E-2      123.28        7.133E-2      123.25        0.80316       -66.75         
226.3883      0.36561       -159.84       7.076E-2      123.29        7.089E-2      123.23        0.80284       -67.17         
227.8875      0.36536       -160.73       7.037E-2      123.34        7.05E-2       123.26        0.80278       -67.61         
229.3868      0.36435       -161.70       7.00E-2       123.43        7.014E-2      123.37        0.80276       -68.06         
230.8860      0.36182       -162.59       6.976E-2      123.62        6.992E-2      123.58        0.80252       -68.48         
232.3853      0.35927       -163.25       6.97E-2       123.72        6.984E-2      123.67        0.80234       -68.93         
