!    7/30/2020   14:17:44 
! Ref Plane: 0.000 mm
# MHZ S MA R  50
!
0.3000        0.04919       177.49        9.876E-2      -1.08         9.657E-2      -0.69         0.81663       0.11           
0.9000        0.04831       178.67        9.481E-2      -0.35         9.54E-2       -0.27         0.81112       -0.12          
1.4999        0.04843       179.01        9.502E-2      -0.21         9.527E-2      -0.36         0.81024       -0.29          
2.0999        0.04839       179.28        9.513E-2      -0.35         9.531E-2      -0.45         0.81013       -0.48          
2.6999        0.04847       179.51        9.509E-2      -0.46         9.531E-2      -0.57         0.81016       -0.64          
3.2999        0.0485        179.75        9.513E-2      -0.61         9.532E-2      -0.68         0.81002       -0.84          
3.8998        0.04854       179.98        9.512E-2      -0.71         9.527E-2      -0.82         0.81018       -1.03          
4.4998        0.04853       -179.80       9.515E-2      -0.86         9.528E-2      -0.90         0.81006       -1.20          
5.0998        0.0486        -179.56       9.517E-2      -0.95         9.531E-2      -1.01         0.81019       -1.39          
5.6997        0.04858       -179.30       9.515E-2      -1.07         9.529E-2      -1.13         0.81019       -1.58          
6.2997        0.04863       -179.14       9.512E-2      -1.26         9.533E-2      -1.28         0.81008       -1.78          
6.8997        0.04865       -178.89       9.518E-2      -1.38         9.526E-2      -1.39         0.8101        -1.95          
7.4996        0.04867       -178.60       9.514E-2      -1.44         9.529E-2      -1.50         0.8102        -2.15          
8.0996        0.04871       -178.45       9.512E-2      -1.62         9.53E-2       -1.64         0.81002       -2.34          
8.6996        0.04868       -178.20       9.514E-2      -1.74         9.529E-2      -1.71         0.81025       -2.51          
9.2996        0.04873       -177.96       9.51E-2       -1.83         9.533E-2      -1.85         0.81039       -2.71          
9.8995        0.04873       -177.74       9.508E-2      -1.96         9.524E-2      -1.95         0.81017       -2.88          
10.4995       0.04873       -177.49       9.515E-2      -2.12         9.53E-2       -2.09         0.81036       -3.06          
11.0995       0.04879       -177.25       9.515E-2      -2.24         9.525E-2      -2.22         0.81027       -3.25          
11.6994       0.04882       -177.02       9.509E-2      -2.33         9.53E-2       -2.32         0.81053       -3.42          
12.2994       0.04884       -176.83       9.516E-2      -2.42         9.53E-2       -2.45         0.81045       -3.60          
12.8994       0.04886       -176.59       9.512E-2      -2.54         9.523E-2      -2.58         0.81051       -3.79          
13.4993       0.04892       -176.36       9.515E-2      -2.67         9.526E-2      -2.71         0.81057       -3.98          
14.0993       0.04894       -176.18       9.512E-2      -2.80         9.527E-2      -2.79         0.81062       -4.14          
14.6993       0.04893       -175.89       9.514E-2      -2.93         9.528E-2      -2.94         0.8107        -4.33          
15.2993       0.04895       -175.74       9.516E-2      -3.04         9.523E-2      -3.08         0.81078       -4.51          
15.8992       0.04895       -175.49       9.52E-2       -3.16         9.526E-2      -3.20         0.81085       -4.68          
16.4992       0.04902       -175.36       9.52E-2       -3.28         9.523E-2      -3.31         0.81084       -4.87          
17.0992       0.04907       -175.05       9.515E-2      -3.39         9.527E-2      -3.43         0.81096       -5.05          
17.6991       0.04915       -174.82       9.51E-2       -3.56         9.528E-2      -3.55         0.81095       -5.23          
18.2991       0.04915       -174.66       9.516E-2      -3.65         9.528E-2      -3.67         0.81111       -5.39          
18.8991       0.04914       -174.42       9.512E-2      -3.78         9.53E-2       -3.78         0.81131       -5.57          
19.4990       0.0492        -174.19       9.515E-2      -3.89         9.528E-2      -3.90         0.81117       -5.75          
20.0990       0.04923       -173.97       9.513E-2      -3.99         9.526E-2      -4.05         0.81125       -5.92          
20.6990       0.04928       -173.80       9.516E-2      -4.14         9.529E-2      -4.14         0.81137       -6.11          
21.2990       0.04926       -173.52       9.519E-2      -4.25         9.528E-2      -4.25         0.81136       -6.27          
21.8989       0.04925       -173.37       9.513E-2      -4.36         9.525E-2      -4.38         0.81144       -6.45          
22.4989       0.0493        -173.13       9.512E-2      -4.48         9.529E-2      -4.50         0.81147       -6.62          
23.0989       0.04939       -172.96       9.515E-2      -4.62         9.532E-2      -4.63         0.8117        -6.82          
23.6988       0.04939       -172.74       9.513E-2      -4.71         9.529E-2      -4.75         0.81144       -6.99          
24.2988       0.0494        -172.53       9.514E-2      -4.81         9.533E-2      -4.85         0.81138       -7.15          
24.8988       0.04952       -172.31       9.512E-2      -4.97         9.525E-2      -4.97         0.81137       -7.33          
25.4987       0.04951       -172.10       9.518E-2      -5.09         9.526E-2      -5.07         0.81135       -7.51          
26.0987       0.04955       -171.90       9.514E-2      -5.20         9.532E-2      -5.21         0.81121       -7.67          
26.6987       0.04959       -171.68       9.516E-2      -5.26         9.526E-2      -5.29         0.81114       -7.85          
27.2987       0.0496        -171.48       9.514E-2      -5.37         9.526E-2      -5.45         0.81122       -8.02          
27.8986       0.04963       -171.29       9.517E-2      -5.54         9.526E-2      -5.53         0.81093       -8.20          
28.4986       0.04968       -171.01       9.517E-2      -5.64         9.534E-2      -5.67         0.81091       -8.37          
29.0986       0.04974       -170.97       9.516E-2      -5.77         9.526E-2      -5.79         0.81084       -8.54          
29.6985       0.0498        -170.75       9.516E-2      -5.90         9.529E-2      -5.90         0.81057       -8.72          
30.2985       0.04977       -170.51       9.517E-2      -5.97         9.529E-2      -6.03         0.81048       -8.89          
30.8985       0.04984       -170.29       9.518E-2      -6.13         9.529E-2      -6.13         0.81053       -9.08          
31.4984       0.04987       -170.13       9.515E-2      -6.23         9.529E-2      -6.27         0.81049       -9.25          
32.0984       0.04989       -169.96       9.515E-2      -6.32         9.524E-2      -6.39         0.81043       -9.41          
32.6984       0.04993       -169.75       9.516E-2      -6.45         9.527E-2      -6.48         0.81054       -9.58          
33.2984       0.04998       -169.61       9.516E-2      -6.55         9.526E-2      -6.57         0.81061       -9.73          
33.8983       0.05002       -169.39       9.52E-2       -6.69         9.527E-2      -6.70         0.81058       -9.91          
34.4983       0.05004       -169.21       9.524E-2      -6.77         9.528E-2      -6.83         0.81084       -10.06         
35.0983       0.05006       -169.05       9.522E-2      -6.91         9.527E-2      -6.93         0.81093       -10.23         
35.6982       0.05012       -168.86       9.521E-2      -7.00         9.524E-2      -7.04         0.81105       -10.39         
36.2982       0.0502        -168.60       9.522E-2      -7.13         9.528E-2      -7.17         0.81098       -10.58         
36.8982       0.0502        -168.47       9.526E-2      -7.26         9.527E-2      -7.32         0.81108       -10.76         
37.4981       0.05026       -168.34       9.523E-2      -7.37         9.529E-2      -7.45         0.81103       -10.93         
38.0981       0.05028       -168.10       9.529E-2      -7.47         9.529E-2      -7.55         0.811         -11.12         
38.6981       0.05031       -167.96       9.529E-2      -7.58         9.526E-2      -7.67         0.81105       -11.30         
39.2981       0.05035       -167.77       9.524E-2      -7.69         9.527E-2      -7.78         0.81109       -11.47         
39.8980       0.05036       -167.60       9.527E-2      -7.83         9.53E-2       -7.92         0.81114       -11.65         
40.4980       0.0504        -167.38       9.525E-2      -7.97         9.523E-2      -8.01         0.81109       -11.84         
41.0980       0.05043       -167.21       9.522E-2      -8.06         9.528E-2      -8.14         0.81108       -12.01         
41.6979       0.05048       -167.04       9.526E-2      -8.21         9.532E-2      -8.22         0.81108       -12.19         
42.2979       0.05051       -166.92       9.527E-2      -8.32         9.533E-2      -8.37         0.81119       -12.39         
42.8979       0.05057       -166.74       9.526E-2      -8.43         9.53E-2       -8.48         0.8113        -12.56         
43.4978       0.05056       -166.58       9.525E-2      -8.56         9.528E-2      -8.61         0.81134       -12.77         
44.0978       0.05064       -166.42       9.525E-2      -8.66         9.535E-2      -8.68         0.81143       -12.94         
44.6978       0.05067       -166.31       9.526E-2      -8.78         9.53E-2       -8.84         0.81161       -13.15         
45.2978       0.05071       -166.08       9.526E-2      -8.91         9.534E-2      -8.94         0.81146       -13.32         
45.8977       0.05076       -165.89       9.526E-2      -9.00         9.531E-2      -9.08         0.81152       -13.51         
46.4977       0.05081       -165.78       9.522E-2      -9.17         9.531E-2      -9.19         0.81185       -13.71         
47.0977       0.05083       -165.57       9.523E-2      -9.31         9.535E-2      -9.30         0.81277       -13.88         
47.6976       0.05085       -165.38       9.523E-2      -9.40         9.531E-2      -9.42         0.81285       -14.06         
48.2976       0.05094       -165.26       9.525E-2      -9.53         9.535E-2      -9.53         0.81284       -14.23         
48.8976       0.05095       -165.09       9.526E-2      -9.64         9.533E-2      -9.66         0.81292       -14.40         
49.4975       0.05104       -164.87       9.522E-2      -9.76         9.533E-2      -9.79         0.81299       -14.60         
50.0975       0.05103       -164.79       9.523E-2      -9.87         9.53E-2       -9.93         0.81302       -14.77         
50.6975       0.05113       -164.59       9.524E-2      -10.00        9.539E-2      -10.02        0.81321       -14.95         
51.2975       0.05116       -164.43       9.525E-2      -10.12        9.541E-2      -10.16        0.81324       -15.14         
51.8974       0.05126       -164.29       9.523E-2      -10.23        9.54E-2       -10.33        0.81339       -15.31         
52.4974       0.05194       -164.39       9.511E-2      -10.26        9.645E-2      -10.72        0.81635       -15.58         
53.0974       0.05126       -163.82       9.523E-2      -10.38        9.538E-2      -10.51        0.81376       -15.67         
53.6973       0.05127       -163.74       9.528E-2      -10.60        9.54E-2       -10.65        0.81385       -15.85         
54.2973       0.05136       -163.65       9.53E-2       -10.72        9.538E-2      -10.76        0.81388       -16.02         
54.8973       0.05135       -163.46       9.524E-2      -10.81        9.537E-2      -10.88        0.81391       -16.18         
55.4972       0.05142       -163.34       9.529E-2      -10.94        9.539E-2      -10.99        0.81401       -16.38         
56.0972       0.05148       -163.16       9.527E-2      -11.06        9.539E-2      -11.11        0.81412       -16.55         
56.6972       0.05153       -162.98       9.529E-2      -11.19        9.538E-2      -11.23        0.81402       -16.70         
57.2972       0.05159       -162.76       9.529E-2      -11.28        9.539E-2      -11.32        0.81432       -16.88         
57.8971       0.05162       -162.63       9.531E-2      -11.41        9.541E-2      -11.47        0.81425       -17.07         
58.4971       0.05168       -162.48       9.532E-2      -11.50        9.541E-2      -11.60        0.81437       -17.24         
59.0971       0.05175       -162.33       9.532E-2      -11.65        9.545E-2      -11.68        0.81442       -17.39         
59.6970       0.05177       -162.13       9.534E-2      -11.75        9.544E-2      -11.82        0.81454       -17.57         
60.2970       0.05183       -161.94       9.534E-2      -11.84        9.542E-2      -11.93        0.8146        -17.74         
60.8970       0.05185       -161.78       9.531E-2      -11.99        9.542E-2      -12.05        0.81465       -17.91         
61.4969       0.05188       -161.63       9.536E-2      -12.09        9.544E-2      -12.19        0.81461       -18.09         
62.0969       0.05194       -161.46       9.538E-2      -12.22        9.544E-2      -12.33        0.81451       -18.27         
62.6969       0.05192       -161.41       9.535E-2      -12.35        9.544E-2      -12.44        0.81467       -18.45         
63.2969       0.05205       -161.18       9.539E-2      -12.47        9.544E-2      -12.56        0.81461       -18.61         
63.8968       0.05209       -161.06       9.536E-2      -12.58        9.547E-2      -12.69        0.81467       -18.79         
64.4968       0.05215       -160.84       9.537E-2      -12.69        9.545E-2      -12.79        0.81466       -18.95         
65.0968       0.05222       -160.69       9.538E-2      -12.84        9.551E-2      -12.93        0.81459       -19.14         
65.6967       0.05232       -160.54       9.54E-2       -12.96        9.547E-2      -13.04        0.81467       -19.31         
66.2967       0.05233       -160.35       9.543E-2      -13.06        9.551E-2      -13.15        0.81486       -19.47         
66.8967       0.05233       -160.22       9.542E-2      -13.21        9.546E-2      -13.28        0.81477       -19.66         
67.4966       0.05237       -160.03       9.541E-2      -13.32        9.551E-2      -13.37        0.8146        -19.83         
68.0966       0.0524        -159.91       9.542E-2      -13.46        9.55E-2       -13.49        0.81462       -20.03         
68.6966       0.05249       -159.74       9.538E-2      -13.55        9.552E-2      -13.62        0.81463       -20.18         
69.2966       0.05259       -159.58       9.541E-2      -13.68        9.553E-2      -13.73        0.81477       -20.37         
69.8965       0.05268       -159.42       9.543E-2      -13.83        9.555E-2      -13.84        0.81482       -20.53         
70.4965       0.05266       -159.29       9.542E-2      -13.92        9.555E-2      -13.97        0.81472       -20.72         
71.0965       0.05271       -159.14       9.541E-2      -14.05        9.551E-2      -14.12        0.8146        -20.89         
71.6964       0.05277       -158.94       9.541E-2      -14.20        9.558E-2      -14.21        0.81482       -21.06         
72.2964       0.05283       -158.86       9.542E-2      -14.32        9.555E-2      -14.36        0.8147        -21.25         
72.8964       0.05293       -158.76       9.546E-2      -14.45        9.555E-2      -14.49        0.81488       -21.43         
73.4963       0.05301       -158.57       9.548E-2      -14.57        9.554E-2      -14.60        0.8149        -21.61         
74.0963       0.05301       -158.42       9.547E-2      -14.67        9.557E-2      -14.74        0.81486       -21.79         
74.6963       0.05309       -158.32       9.548E-2      -14.82        9.554E-2      -14.83        0.81491       -21.95         
75.2963       0.05315       -158.17       9.548E-2      -14.92        9.557E-2      -15.00        0.81481       -22.15         
75.8962       0.05319       -157.96       9.548E-2      -15.04        9.558E-2      -15.09        0.81496       -22.30         
76.4962       0.05329       -157.80       9.549E-2      -15.18        9.56E-2       -15.20        0.81502       -22.48         
77.0962       0.05334       -157.70       9.55E-2       -15.29        9.561E-2      -15.34        0.81497       -22.66         
77.6961       0.05342       -157.57       9.546E-2      -15.41        9.564E-2      -15.44        0.81528       -22.82         
78.2961       0.0535        -157.39       9.55E-2       -15.53        9.562E-2      -15.57        0.81515       -23.00         
78.8961       0.05348       -157.25       9.552E-2      -15.64        9.558E-2      -15.71        0.81547       -23.16         
79.4960       0.05356       -157.12       9.551E-2      -15.74        9.559E-2      -15.80        0.8155        -23.36         
80.0960       0.05363       -156.97       9.55E-2       -15.91        9.563E-2      -15.92        0.81553       -23.52         
80.6960       0.05367       -156.83       9.55E-2       -16.02        9.562E-2      -16.03        0.81567       -23.70         
81.2960       0.05376       -156.71       9.551E-2      -16.14        9.563E-2      -16.16        0.81578       -23.87         
81.8959       0.05381       -156.57       9.553E-2      -16.26        9.566E-2      -16.27        0.81579       -24.04         
82.4959       0.05386       -156.38       9.554E-2      -16.38        9.562E-2      -16.40        0.81592       -24.21         
83.0959       0.05393       -156.20       9.558E-2      -16.49        9.568E-2      -16.53        0.81606       -24.38         
83.6958       0.05398       -156.07       9.556E-2      -16.60        9.566E-2      -16.63        0.81625       -24.56         
84.2958       0.05406       -155.90       9.558E-2      -16.77        9.565E-2      -16.75        0.81628       -24.73         
84.8958       0.05415       -155.72       9.559E-2      -16.88        9.568E-2      -16.90        0.81618       -24.91         
85.4957       0.0542        -155.63       9.56E-2       -17.02        9.566E-2      -17.02        0.81637       -25.08         
86.0957       0.05428       -155.46       9.56E-2       -17.11        9.565E-2      -17.16        0.81626       -25.26         
86.6957       0.05432       -155.30       9.561E-2      -17.24        9.566E-2      -17.27        0.81635       -25.45         
87.2957       0.0544        -155.19       9.56E-2       -17.36        9.567E-2      -17.43        0.81636       -25.63         
87.8956       0.05445       -155.04       9.561E-2      -17.49        9.571E-2      -17.53        0.81632       -25.80         
88.4956       0.0546        -154.84       9.566E-2      -17.59        9.567E-2      -17.66        0.81649       -25.97         
89.0956       0.0546        -154.66       9.563E-2      -17.72        9.566E-2      -17.77        0.81643       -26.14         
89.6955       0.05467       -154.54       9.566E-2      -17.87        9.568E-2      -17.90        0.81659       -26.32         
90.2955       0.05476       -154.38       9.563E-2      -17.98        9.569E-2      -18.02        0.81659       -26.49         
90.8955       0.05486       -154.29       9.566E-2      -18.11        9.57E-2       -18.14        0.81667       -26.67         
91.4954       0.05489       -154.05       9.569E-2      -18.23        9.568E-2      -18.25        0.81652       -26.82         
92.0954       0.05498       -153.94       9.567E-2      -18.35        9.57E-2       -18.38        0.81657       -27.01         
