!    7/27/2020   08:40:25 
! Ref Plane: 0.000 mm
# MHZ S MA R  50
!
3.0000        0.04839       179.66        9.502E-2      -0.56         9.518E-2      -0.53         0.80843       -0.82          
4.4993        0.04849       -179.78       9.504E-2      -0.90         9.527E-2      -0.80         0.80975       -1.28          
5.9985        0.0485        -179.16       9.51E-2       -1.15         9.528E-2      -1.08         0.80971       -1.74          
7.4978        0.04859       -178.61       9.513E-2      -1.44         9.529E-2      -1.40         0.80978       -2.22          
8.9970        0.04865       -177.98       9.519E-2      -1.72         9.528E-2      -1.68         0.80979       -2.67          
10.4963       0.04871       -177.43       9.511E-2      -2.02         9.528E-2      -1.97         0.80992       -3.11          
11.9955       0.04874       -176.76       9.514E-2      -2.26         9.526E-2      -2.25         0.81009       -3.57          
13.4948       0.04882       -176.17       9.515E-2      -2.55         9.524E-2      -2.54         0.81013       -4.03          
14.9940       0.04892       -175.64       9.515E-2      -2.87         9.526E-2      -2.86         0.81019       -4.48          
16.4933       0.04898       -175.10       9.518E-2      -3.12         9.528E-2      -3.16         0.81018       -4.92          
17.9925       0.04909       -174.53       9.512E-2      -3.44         9.526E-2      -3.44         0.81039       -5.37          
19.4918       0.04912       -173.93       9.518E-2      -3.74         9.525E-2      -3.74         0.81052       -5.81          
20.9910       0.04918       -173.39       9.512E-2      -4.04         9.526E-2      -4.01         0.81059       -6.26          
22.4903       0.0493        -172.79       9.511E-2      -4.29         9.529E-2      -4.27         0.81066       -6.70          
23.9895       0.04935       -172.32       9.515E-2      -4.60         9.527E-2      -4.61         0.81058       -7.14          
25.4888       0.04942       -171.76       9.51E-2       -4.87         9.527E-2      -4.86         0.81039       -7.57          
26.9880       0.04959       -171.18       9.515E-2      -5.15         9.527E-2      -5.14         0.81008       -7.99          
28.4873       0.04967       -170.72       9.514E-2      -5.45         9.524E-2      -5.42         0.80979       -8.44          
29.9865       0.04974       -170.21       9.51E-2       -5.74         9.526E-2      -5.72         0.80919       -8.89          
31.4858       0.0498        -169.70       9.513E-2      -6.02         9.522E-2      -5.99         0.80902       -9.33          
32.9850       0.04993       -169.26       9.512E-2      -6.25         9.522E-2      -6.28         0.80918       -9.74          
34.4843       0.04997       -168.81       9.513E-2      -6.55         9.526E-2      -6.53         0.80937       -10.15         
35.9835       0.05008       -168.23       9.514E-2      -6.78         9.523E-2      -6.84         0.80937       -10.58         
37.4828       0.05018       -167.76       9.516E-2      -7.12         9.526E-2      -7.13         0.80944       -11.03         
38.9820       0.05026       -167.33       9.514E-2      -7.39         9.522E-2      -7.41         0.8092        -11.49         
40.4813       0.05035       -166.85       9.516E-2      -7.67         9.522E-2      -7.71         0.80922       -11.95         
41.9805       0.05039       -166.44       9.515E-2      -7.96         9.519E-2      -7.98         0.80912       -12.41         
43.4798       0.05051       -165.95       9.513E-2      -8.25         9.52E-2       -8.27         0.80914       -12.88         
44.9790       0.05057       -165.56       9.513E-2      -8.51         9.52E-2       -8.52         0.80933       -13.36         
46.4783       0.05071       -165.05       9.513E-2      -8.82         9.522E-2      -8.82         0.80928       -13.82         
47.9775       0.05079       -164.59       9.511E-2      -9.11         9.517E-2      -9.13         0.81032       -14.27         
49.4768       0.05094       -164.22       9.508E-2      -9.42         9.52E-2       -9.42         0.81036       -14.71         
50.9760       0.05105       -163.85       9.513E-2      -9.72         9.525E-2      -9.70         0.81039       -15.18         
52.4753       0.05113       -163.40       9.511E-2      -9.97         9.522E-2      -9.99         0.81094       -15.64         
53.9745       0.05122       -162.95       9.509E-2      -10.27        9.52E-2       -10.27        0.8106        -16.07         
55.4738       0.0513        -162.57       9.51E-2       -10.55        9.52E-2       -10.56        0.81089       -16.53         
56.9730       0.05148       -162.05       9.509E-2      -10.80        9.522E-2      -10.81        0.81088       -16.96         
58.4723       0.05155       -161.73       9.511E-2      -11.10        9.52E-2       -11.13        0.8111        -17.39         
59.9715       0.05167       -161.28       9.51E-2       -11.38        9.525E-2      -11.41        0.81105       -17.83         
61.4708       0.05177       -160.86       9.51E-2       -11.66        9.522E-2      -11.70        0.81116       -18.26         
62.9700       0.05193       -160.47       9.512E-2      -11.95        9.522E-2      -11.98        0.811         -18.71         
64.4693       0.05201       -160.06       9.512E-2      -12.24        9.521E-2      -12.29        0.81095       -19.13         
65.9685       0.05217       -159.64       9.51E-2       -12.52        9.527E-2      -12.55        0.81102       -19.56         
67.4678       0.05227       -159.20       9.511E-2      -12.80        9.524E-2      -12.82        0.81082       -20.03         
68.9670       0.05235       -158.89       9.51E-2       -13.11        9.521E-2      -13.15        0.81092       -20.49         
70.4663       0.05251       -158.42       9.513E-2      -13.40        9.525E-2      -13.41        0.81077       -20.91         
71.9655       0.05266       -158.08       9.505E-2      -13.69        9.522E-2      -13.72        0.81079       -21.37         
73.4648       0.05277       -157.73       9.511E-2      -14.00        9.523E-2      -13.98        0.81054       -21.81         
74.9640       0.05292       -157.32       9.506E-2      -14.29        9.522E-2      -14.30        0.81061       -22.26         
76.4633       0.05304       -156.99       9.508E-2      -14.56        9.522E-2      -14.58        0.81077       -22.70         
77.9625       0.05322       -156.60       9.507E-2      -14.86        9.522E-2      -14.86        0.81108       -23.14         
79.4618       0.05336       -156.26       9.507E-2      -15.15        9.525E-2      -15.14        0.81121       -23.60         
80.9610       0.05348       -155.87       9.509E-2      -15.44        9.522E-2      -15.42        0.81158       -24.03         
82.4603       0.05363       -155.47       9.511E-2      -15.74        9.523E-2      -15.70        0.81175       -24.46         
83.9595       0.05379       -155.08       9.508E-2      -15.99        9.527E-2      -15.97        0.81191       -24.91         
85.4588       0.05397       -154.73       9.508E-2      -16.30        9.525E-2      -16.31        0.81206       -25.35         
86.9580       0.05407       -154.38       9.514E-2      -16.59        9.521E-2      -16.60        0.81215       -25.79         
88.4573       0.05425       -153.96       9.515E-2      -16.85        9.522E-2      -16.87        0.81217       -26.24         
89.9565       0.05443       -153.57       9.517E-2      -17.17        9.522E-2      -17.15        0.81246       -26.67         
91.4558       0.05459       -153.19       9.514E-2      -17.45        9.521E-2      -17.43        0.8125        -27.10         
92.9550       0.05474       -152.83       9.517E-2      -17.75        9.522E-2      -17.73        0.81245       -27.54         
94.4543       0.05495       -152.48       9.518E-2      -18.06        9.522E-2      -18.02        0.81265       -28.00         
95.9535       0.0551        -152.07       9.52E-2       -18.35        9.522E-2      -18.32        0.81261       -28.45         
97.4528       0.05529       -151.69       9.518E-2      -18.64        9.524E-2      -18.60        0.81257       -28.89         
98.9520       0.0555        -151.35       9.523E-2      -18.92        9.528E-2      -18.90        0.81252       -29.34         
100.4513      0.05564       -150.99       9.522E-2      -19.19        9.526E-2      -19.19        0.81238       -29.78         
101.9505      0.05583       -150.61       9.529E-2      -19.51        9.531E-2      -19.48        0.81234       -30.22         
103.4498      0.05606       -150.27       9.529E-2      -19.79        9.532E-2      -19.74        0.81218       -30.66         
104.9490      0.05622       -149.87       9.529E-2      -20.07        9.528E-2      -20.00        0.81183       -31.10         
106.4483      0.05647       -149.53       9.528E-2      -20.36        9.528E-2      -20.30        0.81164       -31.53         
107.9475      0.05668       -149.17       9.531E-2      -20.63        9.529E-2      -20.61        0.81148       -31.97         
109.4468      0.05684       -148.85       9.532E-2      -20.93        9.528E-2      -20.91        0.81134       -32.40         
110.9460      0.05704       -148.47       9.532E-2      -21.19        9.533E-2      -21.20        0.8113        -32.83         
112.4453      0.05728       -148.15       9.531E-2      -21.48        9.526E-2      -21.49        0.81124       -33.27         
113.9445      0.05748       -147.82       9.528E-2      -21.78        9.53E-2       -21.78        0.81122       -33.73         
115.4438      0.05771       -147.44       9.531E-2      -22.05        9.532E-2      -22.06        0.81131       -34.17         
116.9430      0.05792       -147.14       9.53E-2       -22.35        9.527E-2      -22.35        0.81133       -34.62         
118.4423      0.05808       -146.80       9.534E-2      -22.67        9.53E-2       -22.63        0.81138       -35.08         
119.9415      0.05834       -146.43       9.531E-2      -22.95        9.529E-2      -22.94        0.81148       -35.52         
121.4408      0.05856       -146.13       9.534E-2      -23.24        9.529E-2      -23.24        0.81162       -35.97         
122.9400      0.05876       -145.80       9.531E-2      -23.54        9.528E-2      -23.53        0.81163       -36.43         
124.4393      0.05899       -145.48       9.532E-2      -23.82        9.532E-2      -23.83        0.81155       -36.89         
125.9385      0.05928       -145.14       9.533E-2      -24.09        9.531E-2      -24.12        0.81169       -37.33         
127.4378      0.0595        -144.85       9.531E-2      -24.44        9.531E-2      -24.39        0.81147       -37.78         
128.9370      0.05968       -144.56       9.531E-2      -24.69        9.532E-2      -24.69        0.81136       -38.23         
130.4363      0.05999       -144.31       9.533E-2      -25.01        9.533E-2      -25.00        0.81143       -38.70         
131.9355      0.0602        -143.97       9.53E-2       -25.28        9.532E-2      -25.30        0.81148       -39.16         
133.4348      0.06042       -143.67       9.532E-2      -25.59        9.537E-2      -25.60        0.81143       -39.60         
134.9340      0.06068       -143.32       9.532E-2      -25.86        9.536E-2      -25.89        0.81148       -40.06         
136.4333      0.06095       -143.02       9.531E-2      -26.17        9.536E-2      -26.22        0.81148       -40.50         
137.9325      0.06121       -142.71       9.529E-2      -26.45        9.537E-2      -26.51        0.81143       -40.97         
139.4318      0.06144       -142.42       9.531E-2      -26.76        9.542E-2      -26.78        0.81163       -41.43         
140.9310      0.06173       -142.07       9.524E-2      -27.02        9.537E-2      -27.06        0.81175       -41.87         
142.4303      0.06207       -141.77       9.533E-2      -27.35        9.539E-2      -27.37        0.81182       -42.33         
143.9295      0.06228       -141.47       9.53E-2       -27.66        9.541E-2      -27.65        0.81188       -42.78         
145.4288      0.06259       -141.14       9.529E-2      -27.93        9.539E-2      -27.95        0.8119        -43.21         
146.9280      0.06286       -140.79       9.528E-2      -28.22        9.543E-2      -28.25        0.81209       -43.65         
148.4273      0.06311       -140.51       9.524E-2      -28.53        9.544E-2      -28.51        0.81198       -44.10         
149.9265      0.06338       -140.22       9.525E-2      -28.81        9.542E-2      -28.77        0.81208       -44.52         
151.4258      0.06366       -139.93       9.527E-2      -29.09        9.537E-2      -29.05        0.81205       -44.95         
152.9250      0.06393       -139.64       9.526E-2      -29.36        9.537E-2      -29.34        0.81204       -45.38         
154.4243      0.06422       -139.35       9.529E-2      -29.67        9.538E-2      -29.62        0.812         -45.82         
155.9235      0.06448       -139.03       9.527E-2      -29.95        9.538E-2      -29.95        0.81175       -46.27         
157.4228      0.06478       -138.76       9.525E-2      -30.25        9.538E-2      -30.26        0.81183       -46.70         
158.9220      0.06503       -138.45       9.522E-2      -30.54        9.54E-2       -30.57        0.81182       -47.16         
160.4213      0.0653        -138.19       9.528E-2      -30.85        9.537E-2      -30.82        0.81171       -47.59         
161.9205      0.06559       -137.87       9.523E-2      -31.14        9.54E-2       -31.13        0.81168       -48.04         
163.4198      0.0659        -137.63       9.526E-2      -31.43        9.536E-2      -31.41        0.81158       -48.48         
164.9190      0.0662        -137.36       9.523E-2      -31.73        9.538E-2      -31.71        0.8115        -48.92         
166.4183      0.06646       -137.07       9.523E-2      -32.00        9.539E-2      -31.98        0.81133       -49.37         
167.9175      0.06679       -136.81       9.523E-2      -32.33        9.535E-2      -32.31        0.81128       -49.81         
169.4168      0.06702       -136.53       9.523E-2      -32.61        9.539E-2      -32.60        0.81133       -50.27         
170.9160      0.06733       -136.24       9.525E-2      -32.89        9.535E-2      -32.89        0.81105       -50.70         
172.4153      0.06765       -135.98       9.523E-2      -33.17        9.536E-2      -33.18        0.81107       -51.15         
173.9145      0.06789       -135.73       9.525E-2      -33.45        9.536E-2      -33.47        0.81097       -51.57         
175.4138      0.0682        -135.44       9.526E-2      -33.74        9.532E-2      -33.76        0.81084       -52.01         
176.9130      0.06853       -135.21       9.523E-2      -34.01        9.532E-2      -34.03        0.81067       -52.45         
178.4123      0.06878       -134.93       9.523E-2      -34.30        9.533E-2      -34.32        0.81061       -52.87         
179.9115      0.06909       -134.66       9.52E-2       -34.57        9.53E-2       -34.60        0.81043       -53.29         
181.4108      0.06937       -134.42       9.523E-2      -34.86        9.533E-2      -34.90        0.81035       -53.73         
182.9100      0.0697        -134.16       9.522E-2      -35.13        9.536E-2      -35.17        0.81003       -54.15         
184.4093      0.07          -133.90       9.521E-2      -35.39        9.534E-2      -35.44        0.80992       -54.60         
185.9085      0.07024       -133.62       9.522E-2      -35.73        9.535E-2      -35.73        0.80963       -55.03         
187.4078      0.07055       -133.42       9.519E-2      -36.02        9.536E-2      -36.01        0.80924       -55.48         
188.9070      0.07086       -133.18       9.515E-2      -36.30        9.533E-2      -36.30        0.8089        -55.93         
190.4063      0.07115       -132.92       9.511E-2      -36.59        9.528E-2      -36.58        0.80847       -56.38         
191.9055      0.07147       -132.67       9.51E-2       -36.88        9.53E-2       -36.88        0.80813       -56.82         
193.4048      0.07179       -132.43       9.508E-2      -37.17        9.524E-2      -37.15        0.80778       -57.28         
194.9040      0.07203       -132.16       9.505E-2      -37.46        9.524E-2      -37.45        0.80754       -57.73         
196.4033      0.07232       -131.89       9.505E-2      -37.75        9.52E-2       -37.76        0.80733       -58.21         
197.9025      0.07262       -131.64       9.498E-2      -38.02        9.52E-2       -38.04        0.8071        -58.65         
199.4018      0.07292       -131.41       9.497E-2      -38.31        9.515E-2      -38.34        0.80691       -59.14         
200.9010      0.07322       -131.19       9.497E-2      -38.61        9.513E-2      -38.63        0.80678       -59.59         
202.4003      0.07343       -130.90       9.494E-2      -38.92        9.511E-2      -38.93        0.80665       -60.06         
203.8995      0.07369       -130.74       9.493E-2      -39.20        9.509E-2      -39.22        0.80657       -60.51         
205.3988      0.0739        -130.49       9.49E-2       -39.50        9.508E-2      -39.54        0.80646       -60.98         
206.8980      0.07424       -130.27       9.487E-2      -39.80        9.508E-2      -39.83        0.80624       -61.43         
208.3973      0.07454       -130.09       9.486E-2      -40.08        9.505E-2      -40.14        0.80619       -61.90         
209.8965      0.07475       -129.86       9.484E-2      -40.40        9.506E-2      -40.43        0.80619       -62.35         
211.3958      0.07502       -129.67       9.483E-2      -40.66        9.506E-2      -40.72        0.80605       -62.80         
212.8950      0.07525       -129.45       9.479E-2      -40.98        9.499E-2      -41.00        0.80594       -63.26         
214.3943      0.07552       -129.29       9.479E-2      -41.30        9.499E-2      -41.31        0.80583       -63.71         
215.8935      0.0758        -129.09       9.474E-2      -41.60        9.50E-2       -41.63        0.80553       -64.17         
217.3928      0.07606       -128.91       9.474E-2      -41.90        9.497E-2      -41.90        0.80558       -64.61         
218.8920      0.07633       -128.72       9.469E-2      -42.20        9.497E-2      -42.19        0.80522       -65.07         
220.3913      0.07657       -128.52       9.467E-2      -42.49        9.491E-2      -42.47        0.80526       -65.51         
221.8905      0.07691       -128.31       9.467E-2      -42.79        9.491E-2      -42.78        0.805         -65.96         
223.3898      0.0772        -128.10       9.464E-2      -43.07        9.487E-2      -43.06        0.80476       -66.40         
224.8890      0.07746       -127.92       9.461E-2      -43.36        9.486E-2      -43.36        0.80473       -66.84         
226.3883      0.07776       -127.72       9.459E-2      -43.64        9.482E-2      -43.63        0.80446       -67.27         
227.8875      0.07803       -127.51       9.461E-2      -43.94        9.476E-2      -43.91        0.80433       -67.72         
229.3868      0.07834       -127.37       9.461E-2      -44.22        9.48E-2       -44.24        0.80433       -68.18         
230.8860      0.07863       -127.14       9.457E-2      -44.50        9.473E-2      -44.50        0.8041        -68.60         
232.3853      0.0789        -126.96       9.458E-2      -44.78        9.472E-2      -44.78        0.80378       -69.06         
