!    8/6/2020   02:03:47 
! Ref Plane: 0.000 mm
# MHZ S MA R  50
!
0.3000        0.04754       179.23        9.885E-2      -0.93         9.639E-2      -0.90         0.81528       -0.41          
0.9000        0.04762       179.31        9.502E-2      -0.43         9.522E-2      -0.23         0.80907       -0.51          
1.4999        0.04775       179.37        9.518E-2      -0.21         9.533E-2      -0.37         0.80895       -0.67          
2.0999        0.04774       179.53        9.514E-2      -0.36         9.532E-2      -0.44         0.80919       -0.86          
2.6999        0.04776       179.71        9.517E-2      -0.47         9.536E-2      -0.57         0.8092        -1.02          
3.2999        0.04773       -180.00       9.52E-2       -0.55         9.537E-2      -0.69         0.80944       -1.20          
3.8998        0.04786       -179.79       9.517E-2      -0.68         9.537E-2      -0.81         0.80941       -1.38          
4.4998        0.04781       -179.57       9.515E-2      -0.81         9.535E-2      -0.91         0.80946       -1.55          
5.0998        0.0479        -179.30       9.514E-2      -0.90         9.537E-2      -1.02         0.80949       -1.73          
5.6997        0.0479        -179.02       9.513E-2      -1.04         9.54E-2       -1.16         0.80963       -1.91          
6.2997        0.04794       -178.90       9.512E-2      -1.18         9.542E-2      -1.27         0.80946       -2.11          
6.8997        0.04798       -178.65       9.513E-2      -1.33         9.537E-2      -1.37         0.80966       -2.29          
7.4996        0.04801       -178.34       9.511E-2      -1.40         9.538E-2      -1.49         0.80964       -2.49          
8.0996        0.04804       -178.19       9.511E-2      -1.54         9.54E-2       -1.61         0.80939       -2.68          
8.6996        0.04807       -177.93       9.512E-2      -1.63         9.543E-2      -1.70         0.80967       -2.85          
9.2996        0.04809       -177.70       9.517E-2      -1.77         9.543E-2      -1.86         0.80979       -3.03          
9.8995        0.04811       -177.43       9.512E-2      -1.91         9.541E-2      -1.95         0.80946       -3.20          
10.4995       0.04815       -177.23       9.509E-2      -2.03         9.539E-2      -2.08         0.80984       -3.38          
11.0995       0.04821       -177.01       9.511E-2      -2.13         9.542E-2      -2.19         0.80994       -3.57          
11.6994       0.04821       -176.76       9.513E-2      -2.24         9.54E-2       -2.30         0.80998       -3.76          
12.2994       0.04826       -176.49       9.51E-2       -2.38         9.537E-2      -2.41         0.80989       -3.94          
12.8994       0.04827       -176.31       9.513E-2      -2.42         9.539E-2      -2.54         0.80988       -4.11          
13.4993       0.04828       -176.06       9.52E-2       -2.60         9.537E-2      -2.68         0.8101        -4.30          
14.0993       0.04835       -175.89       9.512E-2      -2.69         9.537E-2      -2.81         0.81015       -4.47          
14.6993       0.04835       -175.63       9.507E-2      -2.86         9.539E-2      -2.91         0.80999       -4.65          
15.2993       0.04838       -175.46       9.507E-2      -2.91         9.535E-2      -3.04         0.81017       -4.83          
15.8992       0.04842       -175.22       9.512E-2      -3.03         9.537E-2      -3.18         0.81026       -4.99          
16.4992       0.0485        -175.02       9.51E-2       -3.15         9.539E-2      -3.29         0.81015       -5.19          
17.0992       0.04848       -174.77       9.513E-2      -3.27         9.536E-2      -3.39         0.81034       -5.36          
17.6991       0.04859       -174.51       9.512E-2      -3.39         9.534E-2      -3.54         0.81028       -5.56          
18.2991       0.04859       -174.37       9.509E-2      -3.52         9.537E-2      -3.64         0.81033       -5.71          
18.8991       0.04863       -174.15       9.514E-2      -3.65         9.537E-2      -3.73         0.81063       -5.88          
19.4990       0.04861       -173.91       9.516E-2      -3.77         9.537E-2      -3.87         0.81064       -6.06          
20.0990       0.04866       -173.66       9.511E-2      -3.88         9.536E-2      -4.00         0.81056       -6.25          
20.6990       0.04871       -173.47       9.512E-2      -4.01         9.538E-2      -4.11         0.8106        -6.42          
21.2990       0.0487        -173.20       9.512E-2      -4.14         9.536E-2      -4.21         0.81048       -6.59          
21.8989       0.04877       -173.10       9.515E-2      -4.25         9.536E-2      -4.34         0.81062       -6.78          
22.4989       0.04882       -172.83       9.508E-2      -4.37         9.54E-2       -4.44         0.81068       -6.95          
23.0989       0.04888       -172.66       9.51E-2       -4.47         9.542E-2      -4.58         0.81082       -7.14          
23.6988       0.04886       -172.36       9.514E-2      -4.57         9.536E-2      -4.69         0.81048       -7.31          
24.2988       0.04888       -172.22       9.512E-2      -4.69         9.536E-2      -4.81         0.81054       -7.47          
24.8988       0.04898       -171.99       9.51E-2       -4.81         9.537E-2      -4.95         0.81044       -7.65          
25.4987       0.049         -171.79       9.513E-2      -4.91         9.531E-2      -5.07         0.81048       -7.82          
26.0987       0.04903       -171.55       9.506E-2      -5.04         9.534E-2      -5.16         0.81035       -8.00          
26.6987       0.04909       -171.36       9.506E-2      -5.14         9.532E-2      -5.28         0.8102        -8.17          
27.2987       0.04907       -171.11       9.516E-2      -5.25         9.531E-2      -5.39         0.81003       -8.34          
27.8986       0.04913       -170.97       9.509E-2      -5.41         9.532E-2      -5.49         0.80986       -8.50          
28.4986       0.04916       -170.70       9.51E-2       -5.50         9.533E-2      -5.63         0.80982       -8.70          
29.0986       0.04918       -170.61       9.51E-2       -5.59         9.532E-2      -5.75         0.80963       -8.85          
29.6985       0.04929       -170.40       9.508E-2      -5.72         9.53E-2       -5.84         0.80952       -9.05          
30.2985       0.04926       -170.15       9.507E-2      -5.86         9.529E-2      -5.99         0.80928       -9.22          
30.8985       0.0493        -169.91       9.509E-2      -5.98         9.525E-2      -6.06         0.80927       -9.39          
31.4984       0.04938       -169.74       9.507E-2      -6.05         9.522E-2      -6.19         0.80926       -9.55          
32.0984       0.04938       -169.60       9.507E-2      -6.22         9.529E-2      -6.29         0.80925       -9.73          
32.6984       0.04943       -169.37       9.507E-2      -6.31         9.527E-2      -6.40         0.80915       -9.90          
33.2984       0.04945       -169.20       9.504E-2      -6.40         9.522E-2      -6.53         0.8091        -10.06         
33.8983       0.04948       -169.04       9.51E-2       -6.52         9.523E-2      -6.63         0.80924       -10.21         
34.4983       0.04954       -168.78       9.508E-2      -6.63         9.527E-2      -6.73         0.80938       -10.37         
35.0983       0.04953       -168.63       9.51E-2       -6.75         9.525E-2      -6.88         0.80945       -10.55         
35.6982       0.04957       -168.45       9.511E-2      -6.86         9.526E-2      -6.96         0.8096        -10.72         
36.2982       0.04964       -168.25       9.509E-2      -6.99         9.522E-2      -7.12         0.80959       -10.91         
36.8982       0.04967       -168.05       9.51E-2       -7.10         9.523E-2      -7.22         0.80946       -11.08         
37.4981       0.04971       -167.90       9.509E-2      -7.19         9.523E-2      -7.33         0.80942       -11.25         
38.0981       0.04975       -167.70       9.511E-2      -7.32         9.521E-2      -7.45         0.8095        -11.44         
38.6981       0.04976       -167.50       9.508E-2      -7.39         9.52E-2       -7.57         0.80944       -11.62         
39.2981       0.0498        -167.33       9.508E-2      -7.51         9.518E-2      -7.68         0.80942       -11.79         
39.8980       0.04984       -167.18       9.508E-2      -7.67         9.52E-2       -7.84         0.8093        -11.98         
40.4980       0.04984       -166.94       9.509E-2      -7.80         9.52E-2       -7.90         0.80931       -12.14         
41.0980       0.0499        -166.73       9.512E-2      -7.89         9.519E-2      -8.04         0.8091        -12.33         
41.6979       0.04992       -166.62       9.506E-2      -7.99         9.519E-2      -8.15         0.80933       -12.51         
42.2979       0.04999       -166.45       9.507E-2      -8.11         9.524E-2      -8.25         0.80923       -12.71         
42.8979       0.05          -166.26       9.507E-2      -8.25         9.519E-2      -8.36         0.80932       -12.88         
43.4978       0.05002       -166.10       9.504E-2      -8.35         9.521E-2      -8.49         0.8094        -13.07         
44.0978       0.05008       -165.95       9.506E-2      -8.46         9.519E-2      -8.60         0.80934       -13.27         
44.6978       0.05014       -165.85       9.505E-2      -8.59         9.518E-2      -8.73         0.8095        -13.46         
45.2978       0.05018       -165.64       9.507E-2      -8.68         9.519E-2      -8.81         0.80943       -13.64         
45.8977       0.05025       -165.41       9.505E-2      -8.82         9.518E-2      -8.93         0.80961       -13.82         
46.4977       0.05023       -165.28       9.499E-2      -8.94         9.518E-2      -9.04         0.80957       -14.02         
47.0977       0.05025       -165.09       9.506E-2      -9.07         9.522E-2      -9.17         0.81052       -14.19         
47.6976       0.05031       -164.88       9.501E-2      -9.20         9.513E-2      -9.27         0.81059       -14.37         
48.2976       0.05036       -164.75       9.507E-2      -9.32         9.517E-2      -9.37         0.81062       -14.53         
48.8976       0.0504        -164.59       9.502E-2      -9.43         9.516E-2      -9.49         0.81079       -14.72         
49.4975       0.05046       -164.39       9.497E-2      -9.57         9.519E-2      -9.60         0.81074       -14.89         
50.0975       0.05046       -164.24       9.498E-2      -9.66         9.513E-2      -9.74         0.81078       -15.07         
50.6975       0.0505        -164.04       9.499E-2      -9.78         9.52E-2       -9.84         0.81092       -15.26         
51.2975       0.05056       -163.92       9.492E-2      -9.87         9.525E-2      -10.02        0.81099       -15.45         
51.8974       0.05064       -163.76       9.486E-2      -9.96         9.528E-2      -10.15        0.81091       -15.61         
52.4974       0.05137       -163.84       9.48E-2       -9.98         9.617E-2      -10.60        0.80891       -15.80         
53.0974       0.05075       -163.14       9.407E-2      -9.76         9.517E-2      -10.34        0.80849       -15.89         
53.6973       0.05068       -163.22       9.494E-2      -10.35        9.515E-2      -10.46        0.81149       -16.16         
54.2973       0.05077       -163.08       9.496E-2      -10.43        9.515E-2      -10.59        0.81145       -16.34         
54.8973       0.05077       -162.95       9.497E-2      -10.58        9.513E-2      -10.67        0.81148       -16.50         
55.4972       0.05083       -162.77       9.494E-2      -10.68        9.517E-2      -10.78        0.81158       -16.67         
56.0972       0.05087       -162.61       9.499E-2      -10.78        9.514E-2      -10.90        0.81146       -16.85         
56.6972       0.05092       -162.42       9.496E-2      -10.90        9.512E-2      -10.99        0.8115        -17.00         
57.2972       0.05099       -162.21       9.493E-2      -11.02        9.515E-2      -11.11        0.81152       -17.18         
57.8971       0.051         -162.03       9.493E-2      -11.13        9.513E-2      -11.24        0.8115        -17.35         
58.4971       0.05107       -161.92       9.499E-2      -11.25        9.517E-2      -11.38        0.81173       -17.53         
59.0971       0.05107       -161.72       9.497E-2      -11.35        9.513E-2      -11.46        0.81171       -17.69         
59.6970       0.05112       -161.56       9.496E-2      -11.46        9.516E-2      -11.59        0.81188       -17.88         
60.2970       0.05116       -161.38       9.492E-2      -11.58        9.514E-2      -11.70        0.81195       -18.03         
60.8970       0.05122       -161.20       9.495E-2      -11.70        9.515E-2      -11.84        0.81204       -18.22         
61.4969       0.05124       -161.07       9.496E-2      -11.82        9.513E-2      -11.97        0.81188       -18.39         
62.0969       0.05128       -160.89       9.496E-2      -11.92        9.515E-2      -12.06        0.81181       -18.57         
62.6969       0.05131       -160.81       9.495E-2      -12.03        9.51E-2       -12.21        0.81177       -18.74         
63.2969       0.05138       -160.61       9.497E-2      -12.15        9.514E-2      -12.31        0.81186       -18.92         
63.8968       0.05144       -160.47       9.496E-2      -12.26        9.515E-2      -12.43        0.81182       -19.07         
64.4968       0.0515        -160.28       9.498E-2      -12.38        9.515E-2      -12.55        0.81188       -19.26         
65.0968       0.05152       -160.10       9.493E-2      -12.51        9.516E-2      -12.65        0.81191       -19.42         
65.6967       0.0516        -159.93       9.498E-2      -12.62        9.514E-2      -12.76        0.81196       -19.59         
66.2967       0.0516        -159.79       9.495E-2      -12.71        9.514E-2      -12.88        0.812         -19.77         
66.8967       0.05162       -159.65       9.495E-2      -12.86        9.513E-2      -13.01        0.8118        -19.95         
67.4966       0.05167       -159.46       9.492E-2      -12.95        9.512E-2      -13.12        0.81182       -20.14         
68.0966       0.05171       -159.31       9.492E-2      -13.07        9.515E-2      -13.20        0.81186       -20.31         
68.6966       0.05178       -159.13       9.494E-2      -13.16        9.513E-2      -13.32        0.81191       -20.46         
69.2966       0.05185       -158.97       9.491E-2      -13.31        9.516E-2      -13.44        0.81178       -20.66         
69.8965       0.05193       -158.81       9.491E-2      -13.43        9.514E-2      -13.54        0.81189       -20.84         
70.4965       0.05191       -158.72       9.493E-2      -13.53        9.513E-2      -13.67        0.81202       -21.01         
71.0965       0.05195       -158.53       9.489E-2      -13.67        9.516E-2      -13.78        0.81205       -21.18         
71.6964       0.05208       -158.36       9.491E-2      -13.79        9.515E-2      -13.90        0.812         -21.35         
72.2964       0.05205       -158.27       9.494E-2      -13.89        9.509E-2      -14.02        0.81204       -21.52         
72.8964       0.05218       -158.14       9.497E-2      -14.01        9.511E-2      -14.14        0.81201       -21.71         
73.4963       0.05224       -157.97       9.49E-2       -14.14        9.51E-2       -14.27        0.81206       -21.88         
74.0963       0.05226       -157.84       9.493E-2      -14.26        9.511E-2      -14.38        0.8122        -22.06         
74.6963       0.05228       -157.74       9.491E-2      -14.37        9.509E-2      -14.48        0.81195       -22.22         
75.2963       0.05234       -157.54       9.486E-2      -14.48        9.509E-2      -14.59        0.81208       -22.41         
75.8962       0.05239       -157.41       9.492E-2      -14.61        9.51E-2       -14.74        0.81214       -22.57         
76.4962       0.05246       -157.18       9.491E-2      -14.69        9.511E-2      -14.82        0.81234       -22.75         
77.0962       0.05252       -157.09       9.493E-2      -14.83        9.513E-2      -14.95        0.81236       -22.93         
77.6961       0.05258       -156.95       9.487E-2      -14.95        9.514E-2      -15.08        0.81264       -23.10         
78.2961       0.05265       -156.76       9.49E-2       -15.03        9.511E-2      -15.15        0.8126        -23.28         
78.8961       0.05269       -156.63       9.489E-2      -15.18        9.514E-2      -15.28        0.81275       -23.44         
79.4960       0.05275       -156.47       9.49E-2       -15.29        9.513E-2      -15.40        0.81295       -23.61         
80.0960       0.05277       -156.36       9.487E-2      -15.41        9.513E-2      -15.51        0.81299       -23.79         
80.6960       0.05282       -156.24       9.491E-2      -15.53        9.51E-2       -15.60        0.81305       -23.95         
81.2960       0.05288       -156.09       9.492E-2      -15.64        9.513E-2      -15.73        0.81319       -24.13         
81.8959       0.05297       -155.96       9.49E-2       -15.75        9.514E-2      -15.83        0.81337       -24.29         
82.4959       0.05303       -155.78       9.49E-2       -15.88        9.514E-2      -15.95        0.81354       -24.48         
83.0959       0.05307       -155.60       9.492E-2      -15.98        9.513E-2      -16.06        0.81364       -24.63         
83.6958       0.05313       -155.47       9.491E-2      -16.09        9.513E-2      -16.20        0.81382       -24.82         
84.2958       0.0532        -155.30       9.493E-2      -16.22        9.51E-2       -16.29        0.81386       -24.98         
84.8958       0.05325       -155.18       9.493E-2      -16.32        9.509E-2      -16.44        0.81388       -25.15         
85.4957       0.05333       -155.04       9.496E-2      -16.44        9.512E-2      -16.57        0.81409       -25.33         
86.0957       0.05337       -154.89       9.494E-2      -16.55        9.51E-2       -16.67        0.81396       -25.52         
86.6957       0.05341       -154.66       9.493E-2      -16.69        9.511E-2      -16.80        0.81412       -25.69         
87.2957       0.0535        -154.59       9.494E-2      -16.80        9.51E-2       -16.93        0.81431       -25.87         
87.8956       0.05352       -154.43       9.494E-2      -16.91        9.508E-2      -17.01        0.81428       -26.03         
88.4956       0.05364       -154.24       9.493E-2      -17.01        9.507E-2      -17.14        0.81433       -26.20         
89.0956       0.05368       -154.08       9.493E-2      -17.13        9.508E-2      -17.27        0.81442       -26.37         
89.6955       0.05373       -153.93       9.50E-2       -17.24        9.507E-2      -17.37        0.81459       -26.54         
90.2955       0.05381       -153.80       9.495E-2      -17.37        9.508E-2      -17.48        0.81476       -26.72         
90.8955       0.05387       -153.69       9.50E-2       -17.47        9.506E-2      -17.58        0.81478       -26.88         
91.4954       0.05391       -153.50       9.50E-2       -17.58        9.504E-2      -17.71        0.81486       -27.07         
92.0954       0.054         -153.33       9.496E-2      -17.72        9.505E-2      -17.82        0.81477       -27.22         
