!    7/30/2020   14:12:23 
! Ref Plane: 0.000 mm
# MHZ S MA R  50
!
0.3000        0.04889       177.75        9.876E-2      -1.08         9.654E-2      -0.58         0.81651       0.08           
0.9000        0.04833       178.77        9.485E-2      -0.38         9.532E-2      -0.18         0.81073       -0.14          
1.4999        0.04844       179.06        9.502E-2      -0.27         9.522E-2      -0.27         0.80997       -0.30          
2.0999        0.04843       179.32        9.513E-2      -0.38         9.528E-2      -0.36         0.81          -0.48          
2.6999        0.04851       179.56        9.507E-2      -0.51         9.526E-2      -0.50         0.80974       -0.64          
3.2999        0.04852       179.82        9.513E-2      -0.62         9.53E-2       -0.58         0.80988       -0.83          
3.8998        0.04856       180.00        9.509E-2      -0.72         9.527E-2      -0.74         0.81001       -1.02          
4.4998        0.04855       -179.80       9.51E-2       -0.88         9.526E-2      -0.81         0.80996       -1.20          
5.0998        0.04863       -179.56       9.514E-2      -0.96         9.529E-2      -0.92         0.81007       -1.38          
5.6997        0.0486        -179.26       9.513E-2      -1.07         9.527E-2      -1.07         0.81007       -1.57          
6.2997        0.04864       -179.13       9.512E-2      -1.24         9.53E-2       -1.21         0.80992       -1.76          
6.8997        0.04868       -178.85       9.519E-2      -1.37         9.524E-2      -1.28         0.80999       -1.94          
7.4996        0.0487        -178.59       9.512E-2      -1.46         9.526E-2      -1.39         0.8101        -2.13          
8.0996        0.04874       -178.45       9.511E-2      -1.60         9.527E-2      -1.53         0.80995       -2.33          
8.6996        0.04871       -178.18       9.514E-2      -1.72         9.527E-2      -1.65         0.81016       -2.49          
9.2996        0.04874       -177.93       9.511E-2      -1.81         9.532E-2      -1.77         0.81025       -2.69          
9.8995        0.04878       -177.72       9.505E-2      -1.95         9.524E-2      -1.87         0.81001       -2.86          
10.4995       0.04876       -177.47       9.513E-2      -2.09         9.527E-2      -2.01         0.81024       -3.04          
11.0995       0.04883       -177.25       9.513E-2      -2.19         9.523E-2      -2.14         0.81012       -3.23          
11.6994       0.04885       -176.99       9.505E-2      -2.30         9.527E-2      -2.23         0.8104        -3.41          
12.2994       0.0489        -176.84       9.516E-2      -2.40         9.527E-2      -2.36         0.81034       -3.59          
12.8994       0.04888       -176.56       9.508E-2      -2.51         9.521E-2      -2.47         0.81043       -3.78          
13.4993       0.04896       -176.37       9.511E-2      -2.63         9.523E-2      -2.60         0.81045       -3.97          
14.0993       0.04897       -176.18       9.509E-2      -2.76         9.525E-2      -2.71         0.81051       -4.13          
14.6993       0.04897       -175.87       9.513E-2      -2.89         9.524E-2      -2.84         0.81049       -4.31          
15.2993       0.04899       -175.73       9.513E-2      -2.99         9.52E-2       -2.98         0.81065       -4.49          
15.8992       0.04902       -175.47       9.516E-2      -3.14         9.522E-2      -3.10         0.81065       -4.66          
16.4992       0.04908       -175.36       9.518E-2      -3.24         9.524E-2      -3.21         0.81072       -4.85          
17.0992       0.04911       -175.04       9.512E-2      -3.34         9.526E-2      -3.32         0.8108        -5.03          
17.6991       0.0492        -174.83       9.506E-2      -3.49         9.526E-2      -3.47         0.81073       -5.22          
18.2991       0.04918       -174.64       9.51E-2       -3.61         9.524E-2      -3.56         0.81092       -5.37          
18.8991       0.04921       -174.43       9.508E-2      -3.73         9.528E-2      -3.67         0.81116       -5.55          
19.4990       0.04924       -174.21       9.511E-2      -3.84         9.525E-2      -3.80         0.811         -5.73          
20.0990       0.04925       -173.98       9.512E-2      -3.95         9.523E-2      -3.94         0.81112       -5.91          
20.6990       0.04927       -173.81       9.512E-2      -4.07         9.526E-2      -4.03         0.81116       -6.10          
21.2990       0.0493        -173.53       9.512E-2      -4.19         9.525E-2      -4.13         0.81118       -6.26          
21.8989       0.04931       -173.35       9.509E-2      -4.29         9.525E-2      -4.27         0.81126       -6.44          
22.4989       0.04933       -173.15       9.51E-2       -4.42         9.522E-2      -4.39         0.81129       -6.61          
23.0989       0.04942       -172.96       9.513E-2      -4.55         9.526E-2      -4.50         0.81146       -6.80          
23.6988       0.04941       -172.72       9.51E-2       -4.65         9.525E-2      -4.62         0.81123       -6.97          
24.2988       0.04942       -172.55       9.509E-2      -4.76         9.53E-2       -4.72         0.81119       -7.14          
24.8988       0.04953       -172.34       9.508E-2      -4.90         9.523E-2      -4.85         0.81115       -7.31          
25.4987       0.04953       -172.11       9.514E-2      -5.01         9.521E-2      -4.94         0.8111        -7.49          
26.0987       0.04959       -171.91       9.506E-2      -5.13         9.524E-2      -5.08         0.81094       -7.66          
26.6987       0.04963       -171.69       9.509E-2      -5.20         9.522E-2      -5.16         0.81092       -7.84          
27.2987       0.04962       -171.49       9.508E-2      -5.30         9.524E-2      -5.32         0.81099       -8.01          
27.8986       0.04967       -171.33       9.511E-2      -5.46         9.52E-2       -5.41         0.81069       -8.19          
28.4986       0.04971       -171.03       9.509E-2      -5.57         9.527E-2      -5.54         0.81063       -8.36          
29.0986       0.04976       -171.01       9.509E-2      -5.69         9.521E-2      -5.66         0.81055       -8.53          
29.6985       0.04983       -170.76       9.511E-2      -5.80         9.526E-2      -5.76         0.81032       -8.70          
30.2985       0.04982       -170.57       9.51E-2       -5.90         9.524E-2      -5.90         0.81023       -8.88          
30.8985       0.04986       -170.30       9.51E-2       -6.04         9.522E-2      -5.99         0.81025       -9.06          
31.4984       0.0499        -170.18       9.506E-2      -6.14         9.522E-2      -6.13         0.81017       -9.24          
32.0984       0.0499        -170.00       9.507E-2      -6.24         9.516E-2      -6.24         0.8101        -9.40          
32.6984       0.04995       -169.75       9.51E-2       -6.37         9.521E-2      -6.34         0.81021       -9.57          
33.2984       0.04998       -169.66       9.51E-2       -6.47         9.52E-2       -6.43         0.81028       -9.72          
33.8983       0.05004       -169.41       9.512E-2      -6.60         9.52E-2       -6.56         0.81021       -9.90          
34.4983       0.05007       -169.21       9.513E-2      -6.67         9.523E-2      -6.68         0.8105        -10.05         
35.0983       0.05006       -169.08       9.513E-2      -6.81         9.52E-2       -6.78         0.81053       -10.22         
35.6982       0.05013       -168.88       9.509E-2      -6.90         9.515E-2      -6.87         0.81068       -10.37         
36.2982       0.05022       -168.64       9.515E-2      -7.03         9.523E-2      -7.02         0.81058       -10.57         
36.8982       0.0502        -168.48       9.515E-2      -7.15         9.518E-2      -7.17         0.8107        -10.75         
37.4981       0.05028       -168.40       9.518E-2      -7.26         9.522E-2      -7.29         0.81063       -10.92         
38.0981       0.05028       -168.16       9.521E-2      -7.37         9.518E-2      -7.38         0.81054       -11.10         
38.6981       0.05031       -167.97       9.518E-2      -7.47         9.517E-2      -7.51         0.81061       -11.29         
39.2981       0.05036       -167.82       9.515E-2      -7.59         9.518E-2      -7.62         0.81061       -11.46         
39.8980       0.0504        -167.62       9.52E-2       -7.75         9.519E-2      -7.77         0.81066       -11.64         
40.4980       0.05039       -167.40       9.517E-2      -7.87         9.517E-2      -7.85         0.81061       -11.83         
41.0980       0.05044       -167.26       9.516E-2      -7.95         9.517E-2      -7.97         0.81057       -11.99         
41.6979       0.05047       -167.09       9.514E-2      -8.09         9.52E-2       -8.06         0.81056       -12.18         
42.2979       0.05051       -166.93       9.516E-2      -8.21         9.524E-2      -8.18         0.81066       -12.38         
42.8979       0.05055       -166.76       9.516E-2      -8.31         9.522E-2      -8.30         0.81069       -12.55         
43.4978       0.05055       -166.62       9.513E-2      -8.43         9.52E-2       -8.44         0.81079       -12.75         
44.0978       0.05064       -166.46       9.515E-2      -8.53         9.524E-2      -8.51         0.81087       -12.94         
44.6978       0.05068       -166.34       9.515E-2      -8.66         9.519E-2      -8.67         0.81103       -13.14         
45.2978       0.05072       -166.12       9.514E-2      -8.78         9.524E-2      -8.75         0.81088       -13.31         
45.8977       0.05076       -165.93       9.513E-2      -8.89         9.522E-2      -8.89         0.81089       -13.50         
46.4977       0.05077       -165.79       9.51E-2       -9.04         9.523E-2      -9.01         0.81123       -13.70         
47.0977       0.05079       -165.60       9.511E-2      -9.18         9.523E-2      -9.11         0.81209       -13.87         
47.6976       0.05085       -165.40       9.508E-2      -9.27         9.521E-2      -9.22         0.81213       -14.05         
48.2976       0.05093       -165.32       9.513E-2      -9.39         9.523E-2      -9.33         0.81218       -14.21         
48.8976       0.05094       -165.11       9.513E-2      -9.51         9.519E-2      -9.46         0.81217       -14.39         
49.4975       0.05102       -164.90       9.509E-2      -9.64         9.523E-2      -9.59         0.8123        -14.59         
50.0975       0.051         -164.83       9.511E-2      -9.74         9.519E-2      -9.71         0.81228       -14.76         
50.6975       0.05109       -164.64       9.511E-2      -9.84         9.522E-2      -9.85         0.81248       -14.94         
51.2975       0.05113       -164.46       9.511E-2      -9.97         9.525E-2      -9.97         0.81247       -15.13         
51.8974       0.05122       -164.35       9.512E-2      -10.10        9.524E-2      -10.12        0.81256       -15.31         
52.4974       0.05192       -164.42       9.503E-2      -10.15        9.568E-2      -10.36        0.8155        -15.58         
53.0974       0.05121       -163.90       9.514E-2      -10.30        9.525E-2      -10.31        0.81297       -15.66         
53.6973       0.05125       -163.84       9.512E-2      -10.43        9.525E-2      -10.45        0.81297       -15.85         
54.2973       0.0513        -163.70       9.512E-2      -10.55        9.523E-2      -10.55        0.81304       -16.02         
54.8973       0.05131       -163.52       9.508E-2      -10.67        9.522E-2      -10.67        0.81302       -16.17         
55.4972       0.0514        -163.37       9.512E-2      -10.79        9.523E-2      -10.79        0.81318       -16.38         
56.0972       0.05144       -163.20       9.511E-2      -10.91        9.525E-2      -10.91        0.81322       -16.54         
56.6972       0.05148       -163.02       9.512E-2      -11.02        9.525E-2      -11.01        0.81306       -16.71         
57.2972       0.05156       -162.81       9.513E-2      -11.12        9.52E-2       -11.11        0.81335       -16.88         
57.8971       0.05156       -162.70       9.514E-2      -11.24        9.524E-2      -11.25        0.81326       -17.06         
58.4971       0.05163       -162.52       9.518E-2      -11.35        9.526E-2      -11.38        0.81335       -17.25         
59.0971       0.05167       -162.38       9.515E-2      -11.48        9.527E-2      -11.46        0.8134        -17.39         
59.6970       0.05171       -162.19       9.515E-2      -11.59        9.53E-2       -11.61        0.81348       -17.57         
60.2970       0.05177       -161.98       9.516E-2      -11.70        9.525E-2      -11.72        0.81347       -17.74         
60.8970       0.05179       -161.82       9.515E-2      -11.83        9.526E-2      -11.85        0.81354       -17.92         
61.4969       0.05182       -161.65       9.518E-2      -11.93        9.528E-2      -11.97        0.81348       -18.09         
62.0969       0.05186       -161.54       9.518E-2      -12.05        9.528E-2      -12.09        0.81332       -18.27         
62.6969       0.05188       -161.42       9.519E-2      -12.18        9.527E-2      -12.21        0.8135        -18.45         
63.2969       0.05199       -161.25       9.518E-2      -12.28        9.527E-2      -12.35        0.81343       -18.62         
63.8968       0.05203       -161.12       9.519E-2      -12.40        9.529E-2      -12.45        0.81347       -18.80         
64.4968       0.05208       -160.89       9.517E-2      -12.52        9.527E-2      -12.56        0.81348       -18.96         
65.0968       0.05213       -160.74       9.516E-2      -12.66        9.529E-2      -12.71        0.81336       -19.15         
65.6967       0.0522        -160.61       9.518E-2      -12.77        9.529E-2      -12.80        0.81345       -19.32         
66.2967       0.05221       -160.40       9.521E-2      -12.88        9.532E-2      -12.91        0.81356       -19.49         
66.8967       0.05221       -160.29       9.518E-2      -13.02        9.525E-2      -13.03        0.81349       -19.68         
67.4966       0.05228       -160.09       9.52E-2       -13.14        9.532E-2      -13.14        0.81327       -19.85         
68.0966       0.05229       -159.97       9.518E-2      -13.25        9.529E-2      -13.28        0.81326       -20.04         
68.6966       0.05237       -159.82       9.518E-2      -13.36        9.53E-2       -13.38        0.81327       -20.20         
69.2966       0.05248       -159.62       9.518E-2      -13.50        9.533E-2      -13.48        0.81337       -20.39         
69.8965       0.05253       -159.49       9.521E-2      -13.64        9.535E-2      -13.59        0.8134        -20.55         
70.4965       0.05253       -159.38       9.519E-2      -13.72        9.531E-2      -13.73        0.81327       -20.74         
71.0965       0.05257       -159.21       9.516E-2      -13.85        9.532E-2      -13.87        0.81319       -20.91         
71.6964       0.05267       -159.02       9.519E-2      -14.01        9.533E-2      -13.96        0.81331       -21.08         
72.2964       0.05269       -158.95       9.516E-2      -14.11        9.529E-2      -14.10        0.8132        -21.28         
72.8964       0.05281       -158.83       9.521E-2      -14.24        9.532E-2      -14.23        0.81337       -21.46         
73.4963       0.05286       -158.64       9.524E-2      -14.34        9.533E-2      -14.34        0.8133        -21.64         
74.0963       0.0529        -158.48       9.519E-2      -14.47        9.533E-2      -14.48        0.81326       -21.82         
74.6963       0.05291       -158.39       9.521E-2      -14.60        9.531E-2      -14.56        0.81326       -21.98         
75.2963       0.05299       -158.25       9.521E-2      -14.71        9.532E-2      -14.74        0.81316       -22.18         
75.8962       0.05305       -158.07       9.519E-2      -14.83        9.532E-2      -14.83        0.81328       -22.33         
76.4962       0.05314       -157.90       9.52E-2       -14.95        9.533E-2      -14.94        0.81336       -22.51         
77.0962       0.05319       -157.79       9.522E-2      -15.08        9.532E-2      -15.06        0.81328       -22.69         
77.6961       0.05324       -157.63       9.518E-2      -15.21        9.535E-2      -15.17        0.81354       -22.86         
78.2961       0.05333       -157.48       9.521E-2      -15.31        9.533E-2      -15.28        0.81342       -23.03         
78.8961       0.05333       -157.34       9.523E-2      -15.42        9.532E-2      -15.43        0.81374       -23.20         
79.4960       0.05339       -157.19       9.523E-2      -15.52        9.532E-2      -15.51        0.8137        -23.40         
80.0960       0.05344       -157.04       9.518E-2      -15.66        9.535E-2      -15.63        0.8137        -23.57         
80.6960       0.0535        -156.92       9.519E-2      -15.78        9.536E-2      -15.76        0.81386       -23.74         
81.2960       0.05359       -156.79       9.519E-2      -15.89        9.534E-2      -15.88        0.81395       -23.91         
81.8959       0.05364       -156.61       9.523E-2      -16.01        9.536E-2      -15.98        0.81389       -24.09         
82.4959       0.05366       -156.46       9.524E-2      -16.14        9.534E-2      -16.11        0.81399       -24.26         
83.0959       0.05373       -156.28       9.526E-2      -16.26        9.538E-2      -16.23        0.81415       -24.44         
83.6958       0.05381       -156.14       9.525E-2      -16.36        9.538E-2      -16.33        0.81423       -24.62         
84.2958       0.05388       -155.98       9.525E-2      -16.52        9.534E-2      -16.45        0.81434       -24.78         
84.8958       0.05396       -155.81       9.525E-2      -16.61        9.537E-2      -16.59        0.81422       -24.97         
85.4957       0.05402       -155.72       9.525E-2      -16.76        9.533E-2      -16.72        0.8144        -25.14         
86.0957       0.05407       -155.54       9.527E-2      -16.87        9.533E-2      -16.85        0.81423       -25.32         
86.6957       0.05411       -155.37       9.524E-2      -16.97        9.533E-2      -16.96        0.81432       -25.52         
87.2957       0.05419       -155.27       9.525E-2      -17.10        9.533E-2      -17.13        0.81429       -25.69         
87.8956       0.05423       -155.15       9.528E-2      -17.24        9.538E-2      -17.22        0.81426       -25.87         
88.4956       0.05437       -154.93       9.528E-2      -17.32        9.536E-2      -17.35        0.8144        -26.04         
89.0956       0.05439       -154.77       9.526E-2      -17.45        9.532E-2      -17.45        0.81429       -26.21         
89.6955       0.05446       -154.62       9.528E-2      -17.59        9.531E-2      -17.59        0.81451       -26.39         
90.2955       0.05454       -154.44       9.526E-2      -17.71        9.53E-2       -17.69        0.8145        -26.56         
90.8955       0.05462       -154.37       9.528E-2      -17.84        9.534E-2      -17.81        0.81447       -26.74         
91.4954       0.05466       -154.14       9.533E-2      -17.95        9.531E-2      -17.94        0.81436       -26.90         
92.0954       0.05474       -154.04       9.529E-2      -18.07        9.533E-2      -18.07        0.81441       -27.09         
