!    7/30/2020   14:15:12 
! Ref Plane: 0.000 mm
# MHZ S MA R  50
!
0.3000        0.04899       177.64        9.883E-2      -1.13         9.65E-2       -0.62         0.81642       0.07           
0.9000        0.04832       178.73        9.485E-2      -0.41         9.531E-2      -0.25         0.81097       -0.17          
1.4999        0.0484        179.05        9.501E-2      -0.30         9.523E-2      -0.31         0.81012       -0.33          
2.0999        0.0484        179.30        9.512E-2      -0.42         9.529E-2      -0.41         0.8101        -0.51          
2.6999        0.04848       179.53        9.504E-2      -0.55         9.524E-2      -0.54         0.8099        -0.66          
3.2999        0.0485        179.79        9.51E-2       -0.69         9.524E-2      -0.65         0.80992       -0.85          
3.8998        0.04854       179.98        9.508E-2      -0.78         9.525E-2      -0.80         0.81012       -1.03          
4.4998        0.04851       -179.82       9.51E-2       -0.94         9.525E-2      -0.88         0.81003       -1.20          
5.0998        0.04861       -179.59       9.511E-2      -1.02         9.526E-2      -1.01         0.81016       -1.39          
5.6997        0.04858       -179.28       9.508E-2      -1.15         9.523E-2      -1.14         0.81016       -1.57          
6.2997        0.0486        -179.18       9.51E-2       -1.32         9.528E-2      -1.29         0.81004       -1.77          
6.8997        0.04863       -178.93       9.514E-2      -1.47         9.523E-2      -1.39         0.81009       -1.94          
7.4996        0.04867       -178.67       9.511E-2      -1.54         9.521E-2      -1.50         0.81018       -2.13          
8.0996        0.0487        -178.50       9.509E-2      -1.71         9.524E-2      -1.66         0.81003       -2.33          
8.6996        0.04868       -178.21       9.508E-2      -1.82         9.524E-2      -1.75         0.81028       -2.49          
9.2996        0.04871       -178.01       9.507E-2      -1.92         9.529E-2      -1.90         0.81037       -2.69          
9.8995        0.04874       -177.79       9.504E-2      -2.07         9.518E-2      -1.99         0.81014       -2.86          
10.4995       0.04871       -177.55       9.509E-2      -2.23         9.524E-2      -2.15         0.81035       -3.03          
11.0995       0.04879       -177.34       9.509E-2      -2.32         9.525E-2      -2.28         0.81028       -3.22          
11.6994       0.04884       -177.11       9.502E-2      -2.44         9.526E-2      -2.38         0.81053       -3.39          
12.2994       0.04885       -176.89       9.512E-2      -2.52         9.524E-2      -2.49         0.81042       -3.57          
12.8994       0.04887       -176.68       9.51E-2       -2.65         9.522E-2      -2.65         0.81053       -3.76          
13.4993       0.04892       -176.48       9.512E-2      -2.80         9.523E-2      -2.77         0.81053       -3.95          
14.0993       0.04897       -176.28       9.51E-2       -2.93         9.524E-2      -2.87         0.81061       -4.10          
14.6993       0.04894       -175.99       9.512E-2      -3.05         9.524E-2      -3.01         0.81062       -4.28          
15.2993       0.04897       -175.85       9.511E-2      -3.17         9.521E-2      -3.16         0.8108        -4.47          
15.8992       0.049         -175.59       9.516E-2      -3.32         9.524E-2      -3.29         0.81077       -4.64          
16.4992       0.04905       -175.45       9.516E-2      -3.43         9.521E-2      -3.41         0.8108        -4.82          
17.0992       0.04909       -175.17       9.514E-2      -3.53         9.524E-2      -3.53         0.81088       -5.00          
17.6991       0.04917       -174.95       9.507E-2      -3.71         9.525E-2      -3.66         0.81087       -5.18          
18.2991       0.04917       -174.81       9.511E-2      -3.82         9.524E-2      -3.77         0.81106       -5.34          
18.8991       0.04915       -174.55       9.511E-2      -3.94         9.527E-2      -3.89         0.81123       -5.51          
19.4990       0.0492        -174.35       9.512E-2      -4.05         9.521E-2      -4.03         0.81108       -5.69          
20.0990       0.0492        -174.15       9.512E-2      -4.16         9.523E-2      -4.17         0.81115       -5.86          
20.6990       0.04926       -173.91       9.513E-2      -4.30         9.527E-2      -4.27         0.81126       -6.05          
21.2990       0.04928       -173.67       9.515E-2      -4.43         9.525E-2      -4.38         0.81126       -6.21          
21.8989       0.04927       -173.52       9.512E-2      -4.54         9.523E-2      -4.52         0.81135       -6.39          
22.4989       0.04933       -173.29       9.513E-2      -4.67         9.524E-2      -4.65         0.81133       -6.56          
23.0989       0.0494        -173.14       9.513E-2      -4.83         9.529E-2      -4.78         0.81153       -6.75          
23.6988       0.04939       -172.89       9.512E-2      -4.92         9.526E-2      -4.90         0.81132       -6.92          
24.2988       0.04942       -172.69       9.511E-2      -5.03         9.531E-2      -5.01         0.81126       -7.08          
24.8988       0.04951       -172.51       9.51E-2       -5.19         9.524E-2      -5.12         0.8112        -7.25          
25.4987       0.0495        -172.31       9.517E-2      -5.31         9.525E-2      -5.24         0.81117       -7.43          
26.0987       0.04958       -172.10       9.51E-2       -5.41         9.53E-2       -5.38         0.81101       -7.60          
26.6987       0.04959       -171.88       9.517E-2      -5.49         9.527E-2      -5.47         0.81095       -7.78          
27.2987       0.04962       -171.69       9.512E-2      -5.61         9.529E-2      -5.63         0.81105       -7.95          
27.8986       0.04964       -171.52       9.518E-2      -5.78         9.525E-2      -5.73         0.81071       -8.12          
28.4986       0.04968       -171.23       9.514E-2      -5.88         9.531E-2      -5.87         0.81067       -8.29          
29.0986       0.04974       -171.18       9.517E-2      -6.01         9.523E-2      -5.99         0.81059       -8.46          
29.6985       0.04981       -170.94       9.515E-2      -6.13         9.528E-2      -6.09         0.81034       -8.63          
30.2985       0.04981       -170.77       9.515E-2      -6.23         9.528E-2      -6.26         0.81025       -8.80          
30.8985       0.04984       -170.51       9.515E-2      -6.38         9.527E-2      -6.35         0.81028       -8.99          
31.4984       0.04989       -170.36       9.512E-2      -6.51         9.529E-2      -6.49         0.8102        -9.16          
32.0984       0.04991       -170.22       9.514E-2      -6.60         9.523E-2      -6.60         0.81011       -9.32          
32.6984       0.04995       -170.00       9.515E-2      -6.73         9.526E-2      -6.71         0.81023       -9.49          
33.2984       0.04999       -169.86       9.516E-2      -6.83         9.527E-2      -6.81         0.81028       -9.64          
33.8983       0.05001       -169.67       9.518E-2      -6.98         9.527E-2      -6.96         0.81022       -9.81          
34.4983       0.05008       -169.42       9.522E-2      -7.06         9.529E-2      -7.08         0.81049       -9.97          
35.0983       0.05007       -169.29       9.52E-2       -7.21         9.525E-2      -7.20         0.81054       -10.14         
35.6982       0.05012       -169.12       9.517E-2      -7.30         9.523E-2      -7.30         0.81066       -10.29         
36.2982       0.05019       -168.88       9.522E-2      -7.42         9.528E-2      -7.44         0.81059       -10.48         
36.8982       0.05023       -168.71       9.524E-2      -7.56         9.527E-2      -7.58         0.81067       -10.67         
37.4981       0.05027       -168.63       9.522E-2      -7.67         9.532E-2      -7.73         0.8106        -10.83         
38.0981       0.05028       -168.37       9.531E-2      -7.78         9.527E-2      -7.81         0.8105        -11.01         
38.6981       0.05033       -168.22       9.528E-2      -7.89         9.528E-2      -7.94         0.81055       -11.19         
39.2981       0.05037       -168.08       9.528E-2      -8.01         9.529E-2      -8.07         0.81055       -11.36         
39.8980       0.05039       -167.87       9.531E-2      -8.20         9.531E-2      -8.20         0.8106        -11.55         
40.4980       0.0504        -167.64       9.529E-2      -8.31         9.526E-2      -8.32         0.81053       -11.73         
41.0980       0.05046       -167.50       9.523E-2      -8.40         9.532E-2      -8.45         0.81049       -11.90         
41.6979       0.05048       -167.37       9.526E-2      -8.56         9.534E-2      -8.54         0.81048       -12.09         
42.2979       0.05054       -167.20       9.526E-2      -8.69         9.536E-2      -8.67         0.81058       -12.28         
42.8979       0.05061       -167.05       9.528E-2      -8.79         9.536E-2      -8.81         0.81064       -12.46         
43.4978       0.05058       -166.90       9.528E-2      -8.90         9.531E-2      -8.93         0.8107        -12.66         
44.0978       0.05065       -166.75       9.529E-2      -9.02         9.537E-2      -9.03         0.81077       -12.84         
44.6978       0.05069       -166.67       9.529E-2      -9.16         9.532E-2      -9.17         0.81097       -13.04         
45.2978       0.05074       -166.43       9.529E-2      -9.28         9.537E-2      -9.28         0.81078       -13.20         
45.8977       0.05082       -166.23       9.528E-2      -9.39         9.538E-2      -9.41         0.81084       -13.40         
46.4977       0.05083       -166.12       9.524E-2      -9.55         9.538E-2      -9.54         0.81108       -13.60         
47.0977       0.05086       -165.93       9.523E-2      -9.71         9.541E-2      -9.64         0.81203       -13.77         
47.6976       0.05088       -165.73       9.527E-2      -9.81         9.536E-2      -9.79         0.81207       -13.94         
48.2976       0.05099       -165.63       9.529E-2      -9.93         9.54E-2       -9.87         0.81207       -14.11         
48.8976       0.05099       -165.39       9.532E-2      -10.07        9.538E-2      -10.03        0.8121        -14.29         
49.4975       0.05107       -165.27       9.527E-2      -10.19        9.54E-2       -10.16        0.8122        -14.48         
50.0975       0.05105       -165.16       9.531E-2      -10.30        9.533E-2      -10.31        0.81221       -14.65         
50.6975       0.05115       -164.95       9.529E-2      -10.44        9.543E-2      -10.42        0.81234       -14.83         
51.2975       0.05118       -164.82       9.532E-2      -10.56        9.544E-2      -10.54        0.81242       -15.02         
51.8974       0.05128       -164.69       9.53E-2       -10.67        9.545E-2      -10.72        0.81247       -15.20         
52.4974       0.05197       -164.78       9.523E-2      -10.75        9.591E-2      -10.96        0.81544       -15.46         
53.0974       0.05127       -164.27       9.534E-2      -10.90        9.544E-2      -10.93        0.81286       -15.55         
53.6973       0.05133       -164.15       9.532E-2      -11.03        9.545E-2      -11.05        0.81291       -15.73         
54.2973       0.05139       -164.06       9.535E-2      -11.16        9.543E-2      -11.18        0.81294       -15.91         
54.8973       0.05141       -163.88       9.531E-2      -11.29        9.545E-2      -11.29        0.81295       -16.06         
55.4972       0.05148       -163.77       9.534E-2      -11.41        9.548E-2      -11.43        0.81305       -16.26         
56.0972       0.05151       -163.56       9.531E-2      -11.53        9.546E-2      -11.56        0.8131        -16.43         
56.6972       0.05157       -163.37       9.536E-2      -11.67        9.547E-2      -11.66        0.81302       -16.59         
57.2972       0.05162       -163.16       9.538E-2      -11.78        9.545E-2      -11.76        0.8133        -16.76         
57.8971       0.05165       -163.07       9.538E-2      -11.91        9.55E-2       -11.93        0.81321       -16.94         
58.4971       0.05174       -162.91       9.543E-2      -12.01        9.55E-2       -12.07        0.81333       -17.12         
59.0971       0.05176       -162.77       9.543E-2      -12.14        9.554E-2      -12.16        0.81336       -17.27         
59.6970       0.05186       -162.58       9.539E-2      -12.27        9.553E-2      -12.28        0.81342       -17.45         
60.2970       0.05188       -162.40       9.544E-2      -12.38        9.55E-2       -12.40        0.81345       -17.61         
60.8970       0.05191       -162.20       9.542E-2      -12.52        9.552E-2      -12.55        0.81346       -17.80         
61.4969       0.05193       -162.09       9.548E-2      -12.63        9.556E-2      -12.69        0.81346       -17.97         
62.0969       0.05201       -161.94       9.546E-2      -12.76        9.553E-2      -12.83        0.8133        -18.14         
62.6969       0.05199       -161.85       9.547E-2      -12.88        9.555E-2      -12.92        0.81344       -18.32         
63.2969       0.0521        -161.66       9.549E-2      -13.01        9.556E-2      -13.06        0.8134        -18.49         
63.8968       0.05217       -161.53       9.549E-2      -13.11        9.557E-2      -13.21        0.81344       -18.67         
64.4968       0.05221       -161.30       9.546E-2      -13.26        9.558E-2      -13.30        0.81347       -18.82         
65.0968       0.05229       -161.18       9.549E-2      -13.40        9.561E-2      -13.46        0.81334       -19.02         
65.6967       0.05234       -161.02       9.551E-2      -13.51        9.56E-2       -13.57        0.81345       -19.18         
66.2967       0.05236       -160.84       9.552E-2      -13.63        9.567E-2      -13.67        0.81356       -19.35         
66.8967       0.05238       -160.74       9.552E-2      -13.77        9.558E-2      -13.80        0.81344       -19.54         
67.4966       0.05243       -160.55       9.553E-2      -13.90        9.568E-2      -13.92        0.81324       -19.71         
68.0966       0.05248       -160.40       9.553E-2      -14.03        9.563E-2      -14.04        0.81322       -19.91         
68.6966       0.05255       -160.28       9.554E-2      -14.14        9.567E-2      -14.19        0.81328       -20.06         
69.2966       0.05266       -160.10       9.557E-2      -14.28        9.567E-2      -14.31        0.81335       -20.25         
69.8965       0.05272       -159.93       9.555E-2      -14.43        9.569E-2      -14.41        0.81339       -20.41         
70.4965       0.05273       -159.84       9.555E-2      -14.54        9.57E-2       -14.55        0.81328       -20.59         
71.0965       0.05276       -159.70       9.555E-2      -14.68        9.57E-2       -14.70        0.81319       -20.76         
71.6964       0.05287       -159.51       9.556E-2      -14.81        9.569E-2      -14.79        0.81333       -20.94         
72.2964       0.05286       -159.45       9.554E-2      -14.94        9.568E-2      -14.94        0.81322       -21.13         
72.8964       0.053         -159.33       9.56E-2       -15.09        9.571E-2      -15.08        0.81342       -21.31         
73.4963       0.05306       -159.15       9.562E-2      -15.18        9.571E-2      -15.19        0.81336       -21.48         
74.0963       0.0531        -159.01       9.564E-2      -15.33        9.574E-2      -15.33        0.8133        -21.66         
74.6963       0.05315       -158.91       9.566E-2      -15.45        9.57E-2       -15.45        0.81335       -21.83         
75.2963       0.0532        -158.76       9.563E-2      -15.57        9.577E-2      -15.61        0.81321       -22.02         
75.8962       0.05332       -158.56       9.565E-2      -15.70        9.573E-2      -15.72        0.81332       -22.17         
76.4962       0.05337       -158.42       9.567E-2      -15.84        9.577E-2      -15.83        0.81339       -22.36         
77.0962       0.05342       -158.30       9.565E-2      -15.97        9.578E-2      -15.96        0.81338       -22.53         
77.6961       0.05351       -158.20       9.565E-2      -16.09        9.58E-2       -16.09        0.81364       -22.70         
78.2961       0.05358       -157.99       9.57E-2       -16.22        9.581E-2      -16.21        0.81353       -22.87         
78.8961       0.05358       -157.89       9.571E-2      -16.34        9.579E-2      -16.35        0.81383       -23.04         
79.4960       0.05366       -157.75       9.571E-2      -16.46        9.581E-2      -16.46        0.81383       -23.23         
80.0960       0.05372       -157.59       9.568E-2      -16.61        9.583E-2      -16.57        0.8138        -23.40         
80.6960       0.05376       -157.48       9.571E-2      -16.75        9.585E-2      -16.72        0.814         -23.58         
81.2960       0.05383       -157.38       9.572E-2      -16.86        9.583E-2      -16.84        0.8141        -23.74         
81.8959       0.05388       -157.21       9.573E-2      -16.99        9.587E-2      -16.95        0.81403       -23.92         
82.4959       0.05394       -157.05       9.574E-2      -17.11        9.585E-2      -17.09        0.81414       -24.09         
83.0959       0.05404       -156.88       9.578E-2      -17.23        9.592E-2      -17.23        0.81428       -24.26         
83.6958       0.05411       -156.73       9.576E-2      -17.37        9.59E-2       -17.35        0.81444       -24.44         
84.2958       0.05419       -156.60       9.578E-2      -17.51        9.59E-2       -17.47        0.81452       -24.60         
84.8958       0.05427       -156.44       9.58E-2       -17.62        9.591E-2      -17.61        0.81436       -24.79         
85.4957       0.05433       -156.32       9.583E-2      -17.79        9.588E-2      -17.76        0.81454       -24.96         
86.0957       0.0544        -156.19       9.581E-2      -17.90        9.588E-2      -17.87        0.81446       -25.14         
86.6957       0.05444       -156.03       9.582E-2      -18.01        9.592E-2      -18.00        0.81451       -25.33         
87.2957       0.05452       -155.90       9.585E-2      -18.15        9.591E-2      -18.16        0.81453       -25.51         
87.8956       0.05459       -155.78       9.588E-2      -18.27        9.593E-2      -18.27        0.81449       -25.68         
88.4956       0.05471       -155.61       9.588E-2      -18.38        9.596E-2      -18.42        0.81467       -25.85         
89.0956       0.05476       -155.43       9.589E-2      -18.53        9.592E-2      -18.53        0.81453       -26.01         
89.6955       0.05481       -155.31       9.591E-2      -18.66        9.596E-2      -18.67        0.81472       -26.20         
90.2955       0.05489       -155.15       9.59E-2       -18.80        9.593E-2      -18.79        0.8147        -26.37         
90.8955       0.05499       -155.05       9.593E-2      -18.94        9.595E-2      -18.92        0.81477       -26.54         
91.4954       0.05502       -154.82       9.597E-2      -19.07        9.597E-2      -19.06        0.81463       -26.70         
92.0954       0.05511       -154.73       9.596E-2      -19.19        9.598E-2      -19.19        0.81468       -26.89         
