!    7/27/2020   08:43:22 
! Ref Plane: 0.000 mm
# MHZ S MA R  50
!
3.0000        0.04841       179.56        9.497E-2      -0.68         9.515E-2      -0.62         0.80859       -0.85          
4.4993        0.04847       -179.95       9.501E-2      -1.05         9.524E-2      -0.95         0.80992       -1.31          
5.9985        0.0485        -179.33       9.509E-2      -1.33         9.522E-2      -1.24         0.80988       -1.77          
7.4978        0.04857       -178.80       9.51E-2       -1.64         9.524E-2      -1.58         0.80992       -2.25          
8.9970        0.04861       -178.20       9.516E-2      -1.95         9.522E-2      -1.90         0.80996       -2.69          
10.4963       0.04867       -177.66       9.507E-2      -2.27         9.522E-2      -2.20         0.81001       -3.13          
11.9955       0.0487        -177.04       9.51E-2       -2.55         9.519E-2      -2.49         0.81023       -3.58          
13.4948       0.04879       -176.44       9.512E-2      -2.85         9.518E-2      -2.82         0.81022       -4.04          
14.9940       0.04888       -175.97       9.514E-2      -3.19         9.522E-2      -3.16         0.81031       -4.48          
16.4933       0.04893       -175.43       9.517E-2      -3.47         9.522E-2      -3.48         0.81027       -4.92          
17.9925       0.04904       -174.91       9.51E-2       -3.81         9.526E-2      -3.81         0.81048       -5.36          
19.4918       0.04902       -174.30       9.515E-2      -4.15         9.52E-2       -4.12         0.81047       -5.81          
20.9910       0.04913       -173.76       9.512E-2      -4.46         9.524E-2      -4.41         0.81057       -6.25          
22.4903       0.04926       -173.18       9.514E-2      -4.73         9.526E-2      -4.69         0.81059       -6.69          
23.9895       0.04929       -172.72       9.514E-2      -5.06         9.526E-2      -5.03         0.8105        -7.13          
25.4888       0.04939       -172.22       9.512E-2      -5.37         9.526E-2      -5.32         0.81029       -7.56          
26.9880       0.04952       -171.67       9.517E-2      -5.67         9.525E-2      -5.64         0.81          -7.97          
28.4873       0.04961       -171.22       9.516E-2      -6.01         9.522E-2      -5.93         0.80964       -8.42          
29.9865       0.04971       -170.73       9.512E-2      -6.31         9.527E-2      -6.27         0.80905       -8.87          
31.4858       0.04976       -170.28       9.515E-2      -6.61         9.524E-2      -6.55         0.80885       -9.30          
32.9850       0.04987       -169.82       9.514E-2      -6.87         9.522E-2      -6.87         0.80889       -9.71          
34.4843       0.04993       -169.38       9.521E-2      -7.19         9.527E-2      -7.15         0.8091        -10.12         
35.9835       0.05003       -168.84       9.521E-2      -7.45         9.526E-2      -7.49         0.80903       -10.55         
37.4828       0.05013       -168.39       9.525E-2      -7.82         9.532E-2      -7.79         0.80903       -11.00         
38.9820       0.05021       -168.00       9.521E-2      -8.11         9.527E-2      -8.10         0.80877       -11.46         
40.4813       0.05031       -167.56       9.524E-2      -8.40         9.527E-2      -8.42         0.80873       -11.91         
41.9805       0.05039       -167.16       9.525E-2      -8.75         9.527E-2      -8.72         0.80862       -12.38         
43.4798       0.0505        -166.67       9.522E-2      -9.04         9.528E-2      -9.04         0.80855       -12.84         
44.9790       0.05059       -166.31       9.523E-2      -9.35         9.53E-2       -9.32         0.80876       -13.33         
46.4783       0.05072       -165.85       9.523E-2      -9.66         9.532E-2      -9.64         0.8086        -13.78         
47.9775       0.0508        -165.46       9.524E-2      -10.00        9.527E-2      -9.97         0.80957       -14.23         
49.4768       0.05095       -165.06       9.523E-2      -10.32        9.528E-2      -10.29        0.80963       -14.67         
50.9760       0.05107       -164.72       9.524E-2      -10.64        9.534E-2      -10.61        0.80961       -15.13         
52.4753       0.05116       -164.29       9.53E-2       -10.95        9.527E-2      -10.90        0.81005       -15.60         
53.9745       0.05128       -163.87       9.522E-2      -11.24        9.531E-2      -11.21        0.80971       -16.03         
55.4738       0.05135       -163.50       9.525E-2      -11.55        9.533E-2      -11.52        0.80996       -16.48         
56.9730       0.05155       -163.05       9.527E-2      -11.83        9.539E-2      -11.82        0.80989       -16.92         
58.4723       0.05162       -162.73       9.528E-2      -12.15        9.534E-2      -12.14        0.8101        -17.34         
59.9715       0.05174       -162.32       9.527E-2      -12.47        9.54E-2       -12.45        0.81          -17.79         
61.4708       0.05187       -161.94       9.531E-2      -12.77        9.541E-2      -12.78        0.81001       -18.21         
62.9700       0.05205       -161.54       9.536E-2      -13.10        9.543E-2      -13.08        0.80984       -18.65         
64.4693       0.0521        -161.18       9.532E-2      -13.40        9.544E-2      -13.41        0.8098        -19.08         
65.9685       0.0523        -160.75       9.53E-2       -13.71        9.549E-2      -13.70        0.80986       -19.51         
67.4678       0.0524        -160.42       9.535E-2      -14.02        9.547E-2      -14.00        0.80965       -19.97         
68.9670       0.05251       -160.09       9.537E-2      -14.35        9.546E-2      -14.35        0.80969       -20.42         
70.4663       0.05268       -159.65       9.539E-2      -14.66        9.549E-2      -14.65        0.80953       -20.85         
71.9655       0.05286       -159.34       9.536E-2      -14.98        9.549E-2      -14.99        0.8095        -21.30         
73.4648       0.05297       -159.01       9.538E-2      -15.31        9.551E-2      -15.25        0.80923       -21.74         
74.9640       0.05311       -158.62       9.539E-2      -15.63        9.554E-2      -15.60        0.80933       -22.18         
76.4633       0.0533        -158.32       9.54E-2       -15.95        9.551E-2      -15.93        0.80946       -22.62         
77.9625       0.05345       -157.99       9.542E-2      -16.26        9.555E-2      -16.21        0.80974       -23.06         
79.4618       0.0536        -157.67       9.546E-2      -16.58        9.558E-2      -16.55        0.80991       -23.51         
80.9610       0.05374       -157.31       9.546E-2      -16.88        9.557E-2      -16.84        0.81022       -23.93         
82.4603       0.05389       -156.94       9.551E-2      -17.23        9.561E-2      -17.14        0.81037       -24.36         
83.9595       0.05408       -156.56       9.551E-2      -17.52        9.563E-2      -17.45        0.81058       -24.81         
85.4588       0.05426       -156.27       9.553E-2      -17.84        9.565E-2      -17.82        0.81078       -25.24         
86.9580       0.05441       -155.95       9.557E-2      -18.17        9.566E-2      -18.13        0.81089       -25.67         
88.4573       0.05462       -155.55       9.56E-2       -18.47        9.565E-2      -18.46        0.81091       -26.12         
89.9565       0.05476       -155.18       9.562E-2      -18.79        9.564E-2      -18.76        0.81115       -26.54         
91.4558       0.05494       -154.85       9.565E-2      -19.13        9.569E-2      -19.09        0.8113        -26.97         
92.9550       0.05511       -154.51       9.569E-2      -19.47        9.57E-2       -19.40        0.81126       -27.40         
94.4543       0.05535       -154.20       9.571E-2      -19.83        9.574E-2      -19.76        0.81154       -27.86         
95.9535       0.05549       -153.85       9.575E-2      -20.15        9.573E-2      -20.11        0.81163       -28.30         
97.4528       0.05566       -153.55       9.569E-2      -20.52        9.571E-2      -20.45        0.81171       -28.74         
98.9520       0.05583       -153.30       9.564E-2      -20.89        9.568E-2      -20.83        0.81188       -29.19         
100.4513      0.05586       -152.92       9.544E-2      -21.21        9.545E-2      -21.15        0.81213       -29.63         
101.9505      0.05588       -152.45       9.524E-2      -21.37        9.525E-2      -21.31        0.81213       -30.12         
103.4498      0.05623       -151.91       9.537E-2      -21.47        9.539E-2      -21.39        0.8115        -30.58         
104.9490      0.05653       -151.50       9.563E-2      -21.72        9.561E-2      -21.63        0.81081       -31.00         
106.4483      0.05687       -151.20       9.58E-2       -22.06        9.578E-2      -21.98        0.81051       -31.42         
107.9475      0.05715       -150.89       9.59E-2       -22.39        9.586E-2      -22.34        0.81035       -31.84         
109.4468      0.05731       -150.60       9.602E-2      -22.72        9.593E-2      -22.67        0.81023       -32.27         
110.9460      0.05762       -150.32       9.604E-2      -23.05        9.604E-2      -23.02        0.81019       -32.70         
112.4453      0.05784       -149.99       9.609E-2      -23.36        9.602E-2      -23.36        0.81025       -33.13         
113.9445      0.05807       -149.70       9.61E-2       -23.70        9.607E-2      -23.68        0.81021       -33.58         
115.4438      0.05831       -149.33       9.615E-2      -24.00        9.612E-2      -24.00        0.81037       -34.01         
116.9430      0.05855       -149.07       9.618E-2      -24.35        9.612E-2      -24.32        0.81045       -34.46         
118.4423      0.05872       -148.79       9.621E-2      -24.69        9.618E-2      -24.66        0.81055       -34.91         
119.9415      0.05902       -148.44       9.624E-2      -25.03        9.62E-2       -25.00        0.81077       -35.35         
121.4408      0.05924       -148.19       9.633E-2      -25.34        9.624E-2      -25.32        0.81092       -35.80         
122.9400      0.05947       -147.89       9.631E-2      -25.67        9.627E-2      -25.64        0.81105       -36.26         
124.4393      0.05968       -147.61       9.634E-2      -26.00        9.632E-2      -25.98        0.81104       -36.71         
125.9385      0.05998       -147.30       9.637E-2      -26.32        9.632E-2      -26.30        0.81128       -37.15         
127.4378      0.06023       -147.03       9.639E-2      -26.67        9.637E-2      -26.61        0.81109       -37.59         
128.9370      0.06047       -146.80       9.644E-2      -26.98        9.64E-2       -26.95        0.81106       -38.05         
130.4363      0.06074       -146.55       9.647E-2      -27.33        9.643E-2      -27.29        0.81125       -38.51         
131.9355      0.06101       -146.26       9.649E-2      -27.64        9.651E-2      -27.63        0.81131       -38.97         
133.4348      0.06125       -146.01       9.651E-2      -27.98        9.654E-2      -27.99        0.81139       -39.40         
134.9340      0.06154       -145.66       9.656E-2      -28.29        9.659E-2      -28.32        0.81154       -39.86         
136.4333      0.0618        -145.42       9.658E-2      -28.64        9.659E-2      -28.66        0.81164       -40.30         
137.9325      0.06206       -145.14       9.655E-2      -28.96        9.664E-2      -28.98        0.81168       -40.76         
139.4318      0.06234       -144.88       9.663E-2      -29.30        9.674E-2      -29.31        0.812         -41.22         
140.9310      0.06262       -144.57       9.663E-2      -29.61        9.671E-2      -29.63        0.81225       -41.66         
142.4303      0.06296       -144.34       9.666E-2      -29.98        9.674E-2      -29.95        0.81234       -42.11         
143.9295      0.06322       -144.04       9.67E-2       -30.33        9.677E-2      -30.29        0.81252       -42.56         
145.4288      0.06351       -143.78       9.67E-2       -30.64        9.679E-2      -30.62        0.81268       -42.98         
146.9280      0.0638        -143.46       9.671E-2      -30.96        9.685E-2      -30.94        0.81295       -43.42         
148.4273      0.06408       -143.19       9.672E-2      -31.30        9.686E-2      -31.24        0.81291       -43.86         
149.9265      0.06434       -142.95       9.673E-2      -31.62        9.686E-2      -31.56        0.81317       -44.29         
151.4258      0.06465       -142.68       9.677E-2      -31.94        9.686E-2      -31.87        0.81322       -44.71         
152.9250      0.06495       -142.46       9.683E-2      -32.27        9.687E-2      -32.20        0.81328       -45.13         
154.4243      0.06521       -142.16       9.682E-2      -32.58        9.691E-2      -32.53        0.81338       -45.57         
155.9235      0.06551       -141.92       9.683E-2      -32.94        9.693E-2      -32.90        0.81328       -46.02         
157.4228      0.06581       -141.70       9.68E-2       -33.26        9.695E-2      -33.25        0.81341       -46.44         
158.9220      0.06607       -141.39       9.685E-2      -33.59        9.697E-2      -33.58        0.8135        -46.89         
160.4213      0.06637       -141.19       9.69E-2       -33.93        9.695E-2      -33.89        0.81349       -47.32         
161.9205      0.06665       -140.90       9.687E-2      -34.26        9.701E-2      -34.23        0.81361       -47.77         
163.4198      0.06699       -140.70       9.691E-2      -34.59        9.703E-2      -34.56        0.81362       -48.20         
164.9190      0.06728       -140.48       9.692E-2      -34.95        9.703E-2      -34.88        0.81357       -48.64         
166.4183      0.06756       -140.25       9.696E-2      -35.25        9.708E-2      -35.20        0.81351       -49.08         
167.9175      0.0679        -139.99       9.696E-2      -35.60        9.702E-2      -35.58        0.81359       -49.52         
169.4168      0.06814       -139.75       9.695E-2      -35.94        9.709E-2      -35.91        0.81372       -49.98         
170.9160      0.06847       -139.50       9.702E-2      -36.26        9.706E-2      -36.24        0.81346       -50.41         
172.4153      0.06878       -139.31       9.696E-2      -36.60        9.711E-2      -36.58        0.81364       -50.85         
173.9145      0.06905       -139.10       9.702E-2      -36.92        9.712E-2      -36.88        0.81358       -51.27         
175.4138      0.06934       -138.86       9.702E-2      -37.26        9.71E-2       -37.23        0.81355       -51.71         
176.9130      0.06968       -138.64       9.701E-2      -37.58        9.71E-2       -37.55        0.81344       -52.15         
178.4123      0.06994       -138.44       9.702E-2      -37.89        9.713E-2      -37.87        0.81345       -52.56         
179.9115      0.07026       -138.20       9.703E-2      -38.20        9.711E-2      -38.19        0.81333       -52.98         
181.4108      0.07053       -137.99       9.705E-2      -38.53        9.712E-2      -38.52        0.81338       -53.42         
182.9100      0.07086       -137.78       9.703E-2      -38.85        9.718E-2      -38.84        0.81309       -53.84         
184.4093      0.07117       -137.53       9.702E-2      -39.15        9.715E-2      -39.16        0.81306       -54.29         
185.9085      0.0714        -137.33       9.701E-2      -39.51        9.718E-2      -39.48        0.81291       -54.72         
187.4078      0.0717        -137.16       9.701E-2      -39.84        9.716E-2      -39.79        0.81257       -55.17         
188.9070      0.07202       -136.93       9.695E-2      -40.17        9.709E-2      -40.13        0.81228       -55.62         
190.4063      0.07229       -136.71       9.694E-2      -40.48        9.705E-2      -40.46        0.81189       -56.07         
191.9055      0.0726        -136.48       9.688E-2      -40.81        9.701E-2      -40.77        0.81157       -56.52         
193.4048      0.07287       -136.27       9.684E-2      -41.12        9.698E-2      -41.09        0.8113        -56.98         
194.9040      0.07312       -136.04       9.683E-2      -41.44        9.697E-2      -41.41        0.81107       -57.44         
196.4033      0.07344       -135.78       9.678E-2      -41.76        9.69E-2       -41.71        0.81083       -57.92         
197.9025      0.07374       -135.57       9.672E-2      -42.05        9.688E-2      -42.01        0.8106        -58.37         
199.4018      0.07401       -135.33       9.673E-2      -42.37        9.685E-2      -42.35        0.81047       -58.85         
200.9010      0.07431       -135.11       9.672E-2      -42.68        9.686E-2      -42.65        0.81036       -59.31         
202.4003      0.07457       -134.89       9.667E-2      -42.98        9.681E-2      -42.99        0.81023       -59.79         
203.8995      0.07485       -134.72       9.668E-2      -43.30        9.684E-2      -43.30        0.81007       -60.25         
205.3988      0.07508       -134.50       9.666E-2      -43.62        9.68E-2       -43.62        0.81003       -60.72         
206.8980      0.07543       -134.29       9.667E-2      -43.92        9.683E-2      -43.93        0.80976       -61.17         
208.3973      0.07575       -134.10       9.668E-2      -44.22        9.683E-2      -44.25        0.80973       -61.65         
209.8965      0.076         -133.92       9.666E-2      -44.57        9.688E-2      -44.56        0.8097        -62.09         
211.3958      0.07627       -133.75       9.667E-2      -44.86        9.686E-2      -44.86        0.80955       -62.55         
212.8950      0.07652       -133.56       9.669E-2      -45.20        9.687E-2      -45.16        0.80943       -63.02         
214.3943      0.07685       -133.41       9.667E-2      -45.50        9.689E-2      -45.50        0.80931       -63.48         
215.8935      0.07715       -133.22       9.668E-2      -45.84        9.691E-2      -45.84        0.809         -63.93         
217.3928      0.07744       -133.08       9.667E-2      -46.15        9.69E-2       -46.13        0.80912       -64.38         
218.8920      0.07772       -132.92       9.665E-2      -46.50        9.686E-2      -46.47        0.80873       -64.84         
220.3913      0.07802       -132.75       9.665E-2      -46.79        9.684E-2      -46.76        0.80878       -65.29         
221.8905      0.07834       -132.55       9.663E-2      -47.11        9.683E-2      -47.06        0.80854       -65.75         
223.3898      0.07866       -132.35       9.666E-2      -47.39        9.679E-2      -47.36        0.80827       -66.19         
224.8890      0.07899       -132.16       9.665E-2      -47.69        9.687E-2      -47.65        0.80818       -66.63         
226.3883      0.0793        -131.99       9.666E-2      -47.98        9.686E-2      -47.94        0.80789       -67.06         
227.8875      0.07961       -131.78       9.671E-2      -48.28        9.685E-2      -48.24        0.80777       -67.52         
229.3868      0.07995       -131.63       9.674E-2      -48.58        9.688E-2      -48.54        0.80766       -67.98         
230.8860      0.08031       -131.42       9.68E-2       -48.85        9.691E-2      -48.83        0.80741       -68.40         
232.3853      0.08065       -131.24       9.681E-2      -49.15        9.695E-2      -49.13        0.80717       -68.85         
