!    7/30/2020   14:21:34 
! Ref Plane: 0.000 mm
# MHZ S MA R  50
!
0.3000        0.81959       0.23          1.877E-1      -1.05         1.846E-1      -0.62         0.82533       0.14           
0.9000        0.81708       0.18          1.811E-1      -0.41         1.822E-1      -0.15         0.82001       -0.09          
1.4999        0.81793       0.12          1.816E-1      -0.34         1.82E-1       -0.26         0.81906       -0.26          
2.0999        0.81818       0.11          1.817E-1      -0.46         1.821E-1      -0.38         0.81892       -0.46          
2.6999        0.81836       0.07          1.817E-1      -0.58         1.82E-1       -0.51         0.81883       -0.63          
3.2999        0.81831       0.03          1.817E-1      -0.74         1.82E-1       -0.65         0.81871       -0.82          
3.8998        0.81826       -0.02         1.817E-1      -0.88         1.819E-1      -0.81         0.81881       -1.01          
4.4998        0.81831       -0.05         1.818E-1      -1.02         1.82E-1       -0.90         0.81878       -1.19          
5.0998        0.81819       -0.08         1.818E-1      -1.15         1.819E-1      -1.05         0.81887       -1.38          
5.6997        0.81839       -0.14         1.818E-1      -1.28         1.819E-1      -1.19         0.81883       -1.56          
6.2997        0.81832       -0.18         1.817E-1      -1.43         1.819E-1      -1.35         0.81876       -1.76          
6.8997        0.81823       -0.22         1.818E-1      -1.59         1.819E-1      -1.48         0.81877       -1.94          
7.4996        0.81817       -0.26         1.818E-1      -1.70         1.819E-1      -1.62         0.81888       -2.13          
8.0996        0.81836       -0.31         1.817E-1      -1.85         1.819E-1      -1.76         0.8187        -2.33          
8.6996        0.81821       -0.34         1.817E-1      -1.98         1.819E-1      -1.89         0.81891       -2.50          
9.2996        0.81819       -0.39         1.817E-1      -2.12         1.819E-1      -2.05         0.819         -2.69          
9.8995        0.81812       -0.43         1.817E-1      -2.26         1.818E-1      -2.18         0.81876       -2.87          
10.4995       0.8181        -0.49         1.818E-1      -2.42         1.819E-1      -2.33         0.81899       -3.04          
11.0995       0.81814       -0.52         1.818E-1      -2.55         1.819E-1      -2.46         0.8189        -3.24          
11.6994       0.81805       -0.55         1.817E-1      -2.67         1.819E-1      -2.59         0.81912       -3.41          
12.2994       0.818         -0.60         1.818E-1      -2.81         1.819E-1      -2.73         0.81906       -3.59          
12.8994       0.81795       -0.63         1.817E-1      -2.94         1.818E-1      -2.88         0.81915       -3.79          
13.4993       0.81806       -0.67         1.817E-1      -3.09         1.819E-1      -3.02         0.81914       -3.98          
14.0993       0.81798       -0.72         1.818E-1      -3.23         1.819E-1      -3.15         0.81924       -4.14          
14.6993       0.81797       -0.76         1.817E-1      -3.36         1.819E-1      -3.28         0.81925       -4.32          
15.2993       0.81792       -0.79         1.818E-1      -3.50         1.818E-1      -3.43         0.81941       -4.50          
15.8992       0.8178        -0.84         1.818E-1      -3.63         1.819E-1      -3.58         0.8194        -4.67          
16.4992       0.81789       -0.88         1.818E-1      -3.78         1.818E-1      -3.71         0.81941       -4.86          
17.0992       0.81783       -0.91         1.817E-1      -3.91         1.818E-1      -3.82         0.81952       -5.05          
17.6991       0.81771       -0.96         1.817E-1      -4.06         1.818E-1      -3.98         0.81952       -5.23          
18.2991       0.81778       -1.01         1.818E-1      -4.20         1.818E-1      -4.11         0.81963       -5.39          
18.8991       0.81762       -1.04         1.817E-1      -4.33         1.818E-1      -4.23         0.81987       -5.56          
19.4990       0.81777       -1.09         1.817E-1      -4.46         1.818E-1      -4.39         0.81972       -5.75          
20.0990       0.81772       -1.13         1.817E-1      -4.59         1.818E-1      -4.53         0.81979       -5.92          
20.6990       0.81773       -1.17         1.818E-1      -4.74         1.819E-1      -4.67         0.81986       -6.11          
21.2990       0.81776       -1.20         1.818E-1      -4.88         1.819E-1      -4.78         0.81988       -6.27          
21.8989       0.81766       -1.25         1.818E-1      -5.03         1.818E-1      -4.94         0.81993       -6.46          
22.4989       0.81764       -1.30         1.817E-1      -5.16         1.818E-1      -5.08         0.81992       -6.63          
23.0989       0.81761       -1.33         1.818E-1      -5.31         1.819E-1      -5.21         0.82015       -6.82          
23.6988       0.81759       -1.37         1.817E-1      -5.45         1.819E-1      -5.36         0.81991       -7.00          
24.2988       0.81764       -1.42         1.817E-1      -5.57         1.819E-1      -5.47         0.81978       -7.16          
24.8988       0.81763       -1.45         1.817E-1      -5.73         1.819E-1      -5.63         0.81982       -7.33          
25.4987       0.81751       -1.49         1.818E-1      -5.86         1.818E-1      -5.75         0.8198        -7.52          
26.0987       0.81756       -1.53         1.817E-1      -5.99         1.819E-1      -5.88         0.81959       -7.68          
26.6987       0.81761       -1.57         1.818E-1      -6.11         1.818E-1      -6.01         0.81957       -7.86          
27.2987       0.8176        -1.61         1.818E-1      -6.23         1.819E-1      -6.15         0.8196        -8.03          
27.8986       0.81752       -1.66         1.818E-1      -6.39         1.818E-1      -6.28         0.81926       -8.21          
28.4986       0.81756       -1.68         1.818E-1      -6.52         1.818E-1      -6.40         0.81922       -8.39          
29.0986       0.81759       -1.74         1.818E-1      -6.66         1.818E-1      -6.55         0.81914       -8.56          
29.6985       0.81752       -1.77         1.818E-1      -6.79         1.818E-1      -6.68         0.81888       -8.73          
30.2985       0.81743       -1.81         1.818E-1      -6.91         1.818E-1      -6.84         0.81882       -8.91          
30.8985       0.81748       -1.85         1.818E-1      -7.05         1.818E-1      -6.95         0.81876       -9.09          
31.4984       0.81748       -1.88         1.817E-1      -7.20         1.818E-1      -7.10         0.81872       -9.27          
32.0984       0.81755       -1.93         1.818E-1      -7.33         1.817E-1      -7.23         0.81865       -9.43          
32.6984       0.81756       -1.96         1.819E-1      -7.46         1.818E-1      -7.36         0.81872       -9.60          
33.2984       0.81754       -2.01         1.818E-1      -7.59         1.818E-1      -7.49         0.81877       -9.76          
33.8983       0.81749       -2.04         1.818E-1      -7.72         1.818E-1      -7.64         0.81871       -9.93          
34.4983       0.81762       -2.07         1.819E-1      -7.83         1.818E-1      -7.77         0.819         -10.09         
35.0983       0.81769       -2.11         1.819E-1      -7.98         1.818E-1      -7.91         0.81901       -10.26         
35.6982       0.81754       -2.14         1.819E-1      -8.10         1.818E-1      -8.04         0.81913       -10.41         
36.2982       0.8175        -2.18         1.819E-1      -8.25         1.818E-1      -8.18         0.81906       -10.60         
36.8982       0.81744       -2.22         1.819E-1      -8.36         1.818E-1      -8.34         0.81913       -10.79         
37.4981       0.81752       -2.25         1.819E-1      -8.49         1.818E-1      -8.45         0.81905       -10.96         
38.0981       0.81762       -2.29         1.82E-1       -8.64         1.817E-1      -8.59         0.81895       -11.15         
38.6981       0.81751       -2.33         1.819E-1      -8.77         1.818E-1      -8.71         0.819         -11.33         
39.2981       0.81751       -2.37         1.819E-1      -8.89         1.818E-1      -8.85         0.819         -11.50         
39.8980       0.81762       -2.40         1.82E-1       -9.04         1.818E-1      -8.99         0.81902       -11.69         
40.4980       0.81745       -2.45         1.819E-1      -9.19         1.818E-1      -9.11         0.81896       -11.87         
41.0980       0.81746       -2.48         1.819E-1      -9.29         1.818E-1      -9.26         0.8189        -12.04         
41.6979       0.8174        -2.51         1.819E-1      -9.45         1.818E-1      -9.37         0.81889       -12.23         
42.2979       0.81738       -2.55         1.819E-1      -9.57         1.818E-1      -9.52         0.81898       -12.42         
42.8979       0.8174        -2.58         1.819E-1      -9.70         1.818E-1      -9.65         0.81905       -12.60         
43.4978       0.81749       -2.62         1.819E-1      -9.84         1.818E-1      -9.80         0.81903       -12.81         
44.0978       0.81748       -2.65         1.819E-1      -9.98         1.818E-1      -9.92         0.81914       -12.99         
44.6978       0.81725       -2.70         1.819E-1      -10.11        1.818E-1      -10.09        0.81928       -13.20         
45.2978       0.81741       -2.72         1.818E-1      -10.25        1.818E-1      -10.19        0.81909       -13.36         
45.8977       0.81753       -2.76         1.818E-1      -10.37        1.818E-1      -10.35        0.81908       -13.56         
46.4977       0.81741       -2.81         1.818E-1      -10.54        1.818E-1      -10.49        0.81936       -13.76         
47.0977       0.81755       -2.83         1.818E-1      -10.70        1.818E-1      -10.63        0.82027       -13.93         
47.6976       0.81743       -2.86         1.818E-1      -10.83        1.818E-1      -10.77        0.8203        -14.11         
48.2976       0.81758       -2.91         1.819E-1      -10.96        1.818E-1      -10.89        0.82034       -14.28         
48.8976       0.81755       -2.94         1.819E-1      -11.09        1.818E-1      -11.04        0.82032       -14.46         
49.4975       0.8175        -2.96         1.819E-1      -11.22        1.818E-1      -11.17        0.82041       -14.65         
50.0975       0.81749       -3.01         1.819E-1      -11.37        1.818E-1      -11.32        0.82038       -14.83         
50.6975       0.81762       -3.05         1.819E-1      -11.49        1.818E-1      -11.45        0.82053       -15.01         
51.2975       0.81753       -3.10         1.819E-1      -11.65        1.818E-1      -11.60        0.82056       -15.20         
51.8974       0.8177        -3.16         1.818E-1      -11.77        1.818E-1      -11.74        0.8206        -15.38         
52.4974       0.82506       -3.34         1.818E-1      -11.88        1.823E-1      -11.89        0.82361       -15.65         
53.0974       0.81694       -3.22         1.827E-1      -12.20        1.818E-1      -12.00        0.82093       -15.74         
53.6973       0.81752       -3.24         1.819E-1      -12.14        1.818E-1      -12.15        0.82097       -15.92         
54.2973       0.81746       -3.26         1.818E-1      -12.27        1.818E-1      -12.28        0.821         -16.10         
54.8973       0.81738       -3.31         1.818E-1      -12.41        1.818E-1      -12.41        0.82097       -16.25         
55.4972       0.81745       -3.34         1.818E-1      -12.54        1.818E-1      -12.55        0.821         -16.46         
56.0972       0.81748       -3.39         1.818E-1      -12.70        1.818E-1      -12.70        0.82112       -16.63         
56.6972       0.81742       -3.41         1.819E-1      -12.81        1.819E-1      -12.81        0.82093       -16.79         
57.2972       0.81743       -3.45         1.819E-1      -12.95        1.818E-1      -12.94        0.82121       -16.97         
57.8971       0.81735       -3.48         1.819E-1      -13.09        1.819E-1      -13.09        0.82109       -17.16         
58.4971       0.81748       -3.52         1.819E-1      -13.21        1.819E-1      -13.25        0.82119       -17.34         
59.0971       0.81741       -3.55         1.819E-1      -13.35        1.819E-1      -13.37        0.8212        -17.49         
59.6970       0.81749       -3.59         1.819E-1      -13.50        1.819E-1      -13.49        0.82122       -17.67         
60.2970       0.81726       -3.63         1.819E-1      -13.62        1.819E-1      -13.63        0.82125       -17.84         
60.8970       0.81736       -3.68         1.819E-1      -13.76        1.819E-1      -13.78        0.82128       -18.02         
61.4969       0.81721       -3.70         1.819E-1      -13.88        1.819E-1      -13.91        0.82116       -18.20         
62.0969       0.81729       -3.74         1.819E-1      -14.03        1.819E-1      -14.06        0.82107       -18.38         
62.6969       0.81725       -3.78         1.819E-1      -14.18        1.819E-1      -14.18        0.82119       -18.56         
63.2969       0.81729       -3.81         1.819E-1      -14.31        1.819E-1      -14.32        0.8211        -18.73         
63.8968       0.81719       -3.85         1.82E-1       -14.45        1.82E-1       -14.46        0.82108       -18.91         
64.4968       0.81722       -3.88         1.819E-1      -14.58        1.819E-1      -14.59        0.82108       -19.07         
65.0968       0.81712       -3.92         1.819E-1      -14.72        1.819E-1      -14.75        0.82096       -19.27         
65.6967       0.81721       -3.96         1.82E-1       -14.87        1.819E-1      -14.87        0.82102       -19.44         
66.2967       0.81715       -3.99         1.82E-1       -15.01        1.819E-1      -15.01        0.8211        -19.61         
66.8967       0.8172        -4.03         1.82E-1       -15.15        1.819E-1      -15.15        0.82099       -19.80         
67.4966       0.81724       -4.06         1.82E-1       -15.30        1.82E-1       -15.29        0.82077       -19.98         
68.0966       0.8172        -4.10         1.82E-1       -15.44        1.819E-1      -15.43        0.82076       -20.18         
68.6966       0.81728       -4.14         1.82E-1       -15.58        1.82E-1       -15.56        0.82073       -20.33         
69.2966       0.8172        -4.17         1.819E-1      -15.73        1.82E-1       -15.69        0.82084       -20.52         
69.8965       0.81725       -4.21         1.82E-1       -15.89        1.82E-1       -15.82        0.8208        -20.69         
70.4965       0.81712       -4.24         1.819E-1      -16.03        1.82E-1       -15.97        0.82066       -20.88         
71.0965       0.81712       -4.29         1.819E-1      -16.15        1.82E-1       -16.11        0.82058       -21.05         
71.6964       0.8171        -4.32         1.819E-1      -16.31        1.82E-1       -16.24        0.82065       -21.23         
72.2964       0.81703       -4.37         1.819E-1      -16.46        1.82E-1       -16.38        0.82055       -21.43         
72.8964       0.81713       -4.40         1.819E-1      -16.60        1.819E-1      -16.53        0.82071       -21.60         
73.4963       0.81706       -4.44         1.819E-1      -16.74        1.82E-1       -16.68        0.82066       -21.79         
74.0963       0.81708       -4.48         1.819E-1      -16.88        1.82E-1       -16.82        0.82056       -21.97         
74.6963       0.81699       -4.51         1.819E-1      -17.02        1.819E-1      -16.94        0.82057       -22.14         
75.2963       0.81697       -4.55         1.819E-1      -17.18        1.82E-1       -17.10        0.82047       -22.34         
75.8962       0.81687       -4.60         1.819E-1      -17.29        1.819E-1      -17.24        0.82054       -22.49         
76.4962       0.81693       -4.62         1.818E-1      -17.43        1.819E-1      -17.35        0.8206        -22.68         
77.0962       0.81683       -4.66         1.818E-1      -17.57        1.819E-1      -17.50        0.82054       -22.86         
77.6961       0.81687       -4.70         1.819E-1      -17.71        1.82E-1       -17.65        0.82074       -23.03         
78.2961       0.81677       -4.73         1.818E-1      -17.84        1.819E-1      -17.78        0.82062       -23.21         
78.8961       0.81675       -4.77         1.818E-1      -17.98        1.819E-1      -17.92        0.82093       -23.38         
79.4960       0.81668       -4.80         1.818E-1      -18.12        1.819E-1      -18.06        0.82091       -23.57         
80.0960       0.81674       -4.83         1.818E-1      -18.27        1.819E-1      -18.18        0.82093       -23.75         
80.6960       0.81672       -4.87         1.818E-1      -18.42        1.82E-1       -18.32        0.82101       -23.92         
81.2960       0.81666       -4.92         1.818E-1      -18.54        1.819E-1      -18.47        0.82112       -24.09         
81.8959       0.81662       -4.94         1.818E-1      -18.68        1.819E-1      -18.61        0.82105       -24.28         
82.4959       0.81657       -4.99         1.818E-1      -18.82        1.819E-1      -18.75        0.82117       -24.45         
83.0959       0.81659       -5.03         1.818E-1      -18.95        1.82E-1       -18.90        0.82127       -24.62         
83.6958       0.81651       -5.05         1.818E-1      -19.10        1.819E-1      -19.03        0.82138       -24.81         
84.2958       0.81646       -5.09         1.818E-1      -19.24        1.82E-1       -19.16        0.82146       -24.97         
84.8958       0.81647       -5.13         1.818E-1      -19.37        1.819E-1      -19.29        0.82132       -25.16         
85.4957       0.81655       -5.17         1.819E-1      -19.52        1.819E-1      -19.44        0.82148       -25.34         
86.0957       0.81652       -5.21         1.819E-1      -19.66        1.819E-1      -19.58        0.82135       -25.52         
86.6957       0.81648       -5.25         1.818E-1      -19.81        1.819E-1      -19.73        0.82148       -25.71         
87.2957       0.81636       -5.29         1.819E-1      -19.95        1.819E-1      -19.87        0.82143       -25.89         
87.8956       0.81645       -5.33         1.819E-1      -20.09        1.819E-1      -19.99        0.82133       -26.07         
88.4956       0.8163        -5.36         1.819E-1      -20.21        1.819E-1      -20.15        0.82154       -26.24         
89.0956       0.81634       -5.40         1.819E-1      -20.33        1.819E-1      -20.28        0.8214        -26.41         
89.6955       0.81635       -5.44         1.819E-1      -20.49        1.819E-1      -20.42        0.8216        -26.59         
90.2955       0.81631       -5.47         1.82E-1       -20.63        1.819E-1      -20.55        0.82158       -26.77         
90.8955       0.8162        -5.51         1.819E-1      -20.78        1.819E-1      -20.70        0.8216        -26.95         
91.4954       0.8162        -5.55         1.82E-1       -20.91        1.818E-1      -20.83        0.82143       -27.10         
92.0954       0.81617       -5.59         1.82E-1       -21.06        1.819E-1      -20.98        0.82152       -27.29         
