!    7/28/2020   08:52:56 
! Ref Plane: 0.000 mm
# MHZ S MA R  50
!
3.0000        0.81927       0.07          1.818E-1      -3.99         1.818E-1      -3.79         0.81814       -7.34          
4.4993        0.81909       -0.09         1.817E-1      -6.01         1.819E-1      -5.80         0.81808       -11.04         
5.9985        0.81899       -0.23         1.817E-1      -8.01         1.818E-1      -7.82         0.81785       -14.75         
7.4978        0.81898       -0.38         1.817E-1      -10.01        1.818E-1      -9.85         0.81762       -18.46         
8.9970        0.81892       -0.53         1.816E-1      -12.05        1.818E-1      -11.89        0.81742       -22.19         
10.4963       0.81887       -0.68         1.816E-1      -14.08        1.818E-1      -13.92        0.81725       -25.91         
11.9955       0.81886       -0.83         1.816E-1      -16.09        1.817E-1      -15.95        0.81695       -29.63         
13.4948       0.81883       -0.98         1.816E-1      -18.12        1.817E-1      -17.99        0.81671       -33.37         
14.9940       0.81881       -1.12         1.816E-1      -20.16        1.817E-1      -20.06        0.81646       -37.09         
16.4933       0.81878       -1.27         1.816E-1      -22.18        1.817E-1      -22.07        0.8163        -40.83         
17.9925       0.8187        -1.43         1.816E-1      -24.24        1.817E-1      -24.11        0.81608       -44.56         
19.4918       0.81866       -1.58         1.816E-1      -26.29        1.817E-1      -26.16        0.81587       -48.30         
20.9910       0.81863       -1.73         1.816E-1      -28.34        1.816E-1      -28.20        0.81558       -52.02         
22.4903       0.81861       -1.88         1.815E-1      -30.36        1.816E-1      -30.24        0.81528       -55.75         
23.9895       0.8186        -2.04         1.816E-1      -32.42        1.816E-1      -32.27        0.81488       -59.47         
25.4888       0.81854       -2.19         1.815E-1      -34.44        1.816E-1      -34.30        0.81456       -63.18         
26.9880       0.8185        -2.34         1.815E-1      -36.47        1.815E-1      -36.34        0.8139        -66.89         
28.4873       0.81849       -2.49         1.815E-1      -38.50        1.814E-1      -38.35        0.81309       -70.60         
29.9865       0.81846       -2.64         1.814E-1      -40.53        1.813E-1      -40.39        0.81209       -74.32         
31.4858       0.81843       -2.79         1.813E-1      -42.56        1.812E-1      -42.43        0.81113       -78.04         
32.9850       0.8184        -2.94         1.813E-1      -44.60        1.811E-1      -44.45        0.81047       -81.75         
34.4843       0.8183        -3.09         1.813E-1      -46.62        1.811E-1      -46.48        0.81003       -85.46         
35.9835       0.8183        -3.24         1.811E-1      -48.64        1.81E-1       -48.54        0.80909       -89.18         
37.4828       0.81831       -3.39         1.81E-1       -50.66        1.808E-1      -50.56        0.80797       -92.88         
38.9820       0.81821       -3.54         1.809E-1      -52.67        1.807E-1      -52.57        0.8068        -96.58         
40.4813       0.81815       -3.69         1.808E-1      -54.67        1.806E-1      -54.57        0.80559       -100.29        
41.9805       0.81808       -3.84         1.806E-1      -56.69        1.804E-1      -56.60        0.80446       -104.00        
43.4798       0.81803       -3.99         1.804E-1      -58.70        1.803E-1      -58.59        0.80321       -107.72        
44.9790       0.818         -4.15         1.803E-1      -60.71        1.801E-1      -60.60        0.80192       -111.44        
46.4783       0.81791       -4.29         1.801E-1      -62.72        1.801E-1      -62.62        0.80073       -115.16        
47.9775       0.81783       -4.45         1.799E-1      -64.83        1.798E-1      -64.67        0.80006       -118.95        
49.4768       0.81779       -4.59         1.798E-1      -66.86        1.797E-1      -66.68        0.79897       -122.67        
50.9760       0.81768       -4.74         1.796E-1      -68.86        1.796E-1      -68.69        0.79792       -126.39        
52.4753       0.81765       -4.89         1.794E-1      -70.81        1.795E-1      -70.76        0.79691       -130.10        
53.9745       0.81753       -5.04         1.793E-1      -72.83        1.792E-1      -72.73        0.7958        -133.82        
55.4738       0.81747       -5.19         1.791E-1      -74.84        1.791E-1      -74.75        0.79471       -137.52        
56.9730       0.81744       -5.35         1.789E-1      -76.83        1.789E-1      -76.76        0.79349       -141.22        
58.4723       0.81739       -5.50         1.787E-1      -78.85        1.787E-1      -78.78        0.79233       -144.93        
59.9715       0.81731       -5.64         1.786E-1      -80.86        1.786E-1      -80.79        0.79113       -148.63        
61.4708       0.81718       -5.79         1.784E-1      -82.84        1.784E-1      -82.79        0.78988       -152.32        
62.9700       0.81708       -5.94         1.782E-1      -84.84        1.782E-1      -84.77        0.78858       -156.02        
64.4693       0.81698       -6.08         1.781E-1      -86.83        1.78E-1       -86.76        0.78736       -159.72        
65.9685       0.8169        -6.23         1.779E-1      -88.82        1.779E-1      -88.74        0.78619       -163.41        
67.4678       0.81686       -6.38         1.777E-1      -90.81        1.778E-1      -90.70        0.78502       -167.10        
68.9670       0.81674       -6.52         1.776E-1      -92.80        1.776E-1      -92.71        0.78387       -170.81        
70.4663       0.81671       -6.67         1.774E-1      -94.80        1.774E-1      -94.68        0.78272       -174.50        
71.9655       0.81663       -6.82         1.772E-1      -96.79        1.773E-1      -96.67        0.78162       -178.20        
73.4648       0.81662       -6.97         1.771E-1      -98.77        1.771E-1      -98.63        0.78054       178.10         
74.9640       0.81654       -7.11         1.768E-1      -100.76       1.77E-1       -100.59       0.77947       174.41         
76.4633       0.81644       -7.26         1.767E-1      -102.72       1.768E-1      -102.58       0.77845       170.72         
77.9625       0.81629       -7.41         1.765E-1      -104.69       1.766E-1      -104.55       0.77749       167.04         
79.4618       0.81626       -7.55         1.763E-1      -106.67       1.765E-1      -106.51       0.77657       163.36         
80.9610       0.81612       -7.70         1.762E-1      -108.62       1.763E-1      -108.47       0.77568       159.69         
82.4603       0.81607       -7.84         1.761E-1      -110.59       1.762E-1      -110.44       0.77481       156.01         
83.9595       0.81598       -7.99         1.759E-1      -112.57       1.76E-1       -112.41       0.77397       152.34         
85.4588       0.81587       -8.13         1.758E-1      -114.53       1.759E-1      -114.38       0.77304       148.66         
86.9580       0.8158        -8.28         1.756E-1      -116.47       1.757E-1      -116.34       0.77226       144.99         
88.4573       0.8157        -8.42         1.755E-1      -118.45       1.756E-1      -118.30       0.77152       141.32         
89.9565       0.81568       -8.57         1.754E-1      -120.41       1.754E-1      -120.26       0.77073       137.65         
91.4558       0.81557       -8.72         1.753E-1      -122.36       1.753E-1      -122.21       0.77007       133.98         
92.9550       0.81543       -8.87         1.752E-1      -124.32       1.752E-1      -124.17       0.76927       130.32         
94.4543       0.81535       -9.01         1.751E-1      -126.31       1.751E-1      -126.13       0.76874       126.64         
95.9535       0.81529       -9.16         1.751E-1      -128.27       1.749E-1      -128.08       0.76807       122.98         
97.4528       0.81506       -9.31         1.75E-1       -130.22       1.748E-1      -130.02       0.76756       119.32         
98.9520       0.81498       -9.45         1.749E-1      -132.17       1.748E-1      -131.96       0.76706       115.66         
100.4513      0.81485       -9.59         1.749E-1      -134.11       1.747E-1      -133.92       0.7666        112.01         
101.9505      0.81484       -9.73         1.749E-1      -136.07       1.747E-1      -135.88       0.7663        108.36         
103.4498      0.81477       -9.88         1.749E-1      -138.03       1.746E-1      -137.82       0.76587       104.71         
104.9490      0.81466       -10.03        1.748E-1      -139.97       1.746E-1      -139.75       0.76552       101.06         
106.4483      0.8146        -10.17        1.748E-1      -141.91       1.745E-1      -141.71       0.76523       97.42          
107.9475      0.81453       -10.32        1.748E-1      -143.86       1.745E-1      -143.67       0.76494       93.78          
109.4468      0.81443       -10.46        1.748E-1      -145.81       1.745E-1      -145.61       0.76474       90.13          
110.9460      0.81437       -10.61        1.748E-1      -147.75       1.746E-1      -147.56       0.76451       86.49          
112.4453      0.81428       -10.76        1.748E-1      -149.69       1.744E-1      -149.51       0.76438       82.84          
113.9445      0.81413       -10.90        1.748E-1      -151.64       1.745E-1      -151.46       0.76422       79.19          
115.4438      0.81403       -11.05        1.748E-1      -153.60       1.744E-1      -153.43       0.76409       75.54          
116.9430      0.81381       -11.19        1.748E-1      -155.55       1.743E-1      -155.37       0.76393       71.88          
118.4423      0.8137        -11.33        1.747E-1      -157.51       1.743E-1      -157.32       0.76373       68.24          
119.9415      0.81377       -11.46        1.747E-1      -159.45       1.743E-1      -159.26       0.76358       64.59          
121.4408      0.81386       -11.61        1.748E-1      -161.38       1.744E-1      -161.17       0.76347       60.94          
122.9400      0.81382       -11.77        1.748E-1      -163.32       1.744E-1      -163.11       0.76326       57.30          
124.4393      0.81377       -11.92        1.749E-1      -165.27       1.745E-1      -165.08       0.76313       53.65          
125.9385      0.81365       -12.07        1.749E-1      -167.22       1.745E-1      -167.04       0.76306       49.99          
127.4378      0.8136        -12.22        1.749E-1      -169.20       1.746E-1      -169.00       0.7628        46.33          
128.9370      0.8135        -12.37        1.75E-1       -171.15       1.746E-1      -170.99       0.76282       42.67          
130.4363      0.81344       -12.52        1.751E-1      -173.13       1.747E-1      -172.94       0.76278       39.00          
131.9355      0.81334       -12.67        1.751E-1      -175.08       1.747E-1      -174.92       0.76273       35.34          
133.4348      0.81319       -12.82        1.752E-1      -177.05       1.748E-1      -176.90       0.7627        31.66          
134.9340      0.8131        -12.97        1.752E-1      -179.02       1.749E-1      -178.86       0.76267       27.99          
136.4333      0.81298       -13.12        1.753E-1      179.01        1.749E-1      179.12        0.76263       24.31          
137.9325      0.81292       -13.27        1.753E-1      177.04        1.75E-1       177.13        0.7627        20.62          
139.4318      0.81282       -13.43        1.754E-1      175.05        1.752E-1      175.17        0.76263       16.94          
140.9310      0.81279       -13.57        1.754E-1      173.08        1.752E-1      173.18        0.76261       13.25          
142.4303      0.81265       -13.73        1.755E-1      171.07        1.753E-1      171.18        0.7627        9.56           
143.9295      0.81258       -13.87        1.756E-1      169.04        1.754E-1      169.20        0.76279       5.85           
145.4288      0.81249       -14.03        1.757E-1      167.06        1.755E-1      167.21        0.76282       2.15           
146.9280      0.81239       -14.18        1.757E-1      165.07        1.756E-1      165.23        0.76288       -1.56          
148.4273      0.81228       -14.32        1.758E-1      163.07        1.757E-1      163.25        0.76295       -5.27          
149.9265      0.81214       -14.48        1.758E-1      161.06        1.757E-1      161.25        0.76309       -8.99          
151.4258      0.81203       -14.62        1.759E-1      159.08        1.757E-1      159.25        0.76311       -12.70         
152.9250      0.81195       -14.78        1.76E-1       157.06        1.758E-1      157.25        0.76321       -16.41         
154.4243      0.81184       -14.93        1.761E-1      155.05        1.759E-1      155.25        0.76325       -20.14         
155.9235      0.81173       -15.09        1.761E-1      153.04        1.759E-1      153.22        0.7633        -23.86         
157.4228      0.81165       -15.24        1.761E-1      151.03        1.76E-1       151.20        0.76332       -27.58         
158.9220      0.81147       -15.39        1.762E-1      149.03        1.76E-1       149.21        0.76339       -31.30         
160.4213      0.81136       -15.55        1.762E-1      147.01        1.76E-1       147.21        0.76341       -35.04         
161.9205      0.81127       -15.70        1.762E-1      144.99        1.761E-1      145.18        0.76349       -38.77         
163.4198      0.81112       -15.85        1.763E-1      142.96        1.761E-1      143.16        0.76351       -42.51         
164.9190      0.81099       -16.01        1.763E-1      140.95        1.761E-1      141.13        0.76354       -46.24         
166.4183      0.81086       -16.16        1.763E-1      138.93        1.761E-1      139.12        0.76353       -49.98         
167.9175      0.81078       -16.32        1.763E-1      136.89        1.761E-1      137.08        0.76354       -53.72         
169.4168      0.81063       -16.47        1.763E-1      134.88        1.762E-1      135.08        0.76358       -57.46         
170.9160      0.81052       -16.62        1.763E-1      132.86        1.761E-1      133.05        0.76357       -61.19         
172.4153      0.81036       -16.78        1.763E-1      130.86        1.761E-1      131.02        0.76347       -64.93         
173.9145      0.81023       -16.93        1.763E-1      128.85        1.761E-1      128.99        0.76346       -68.66         
175.4138      0.81001       -17.09        1.762E-1      126.81        1.76E-1       126.96        0.76342       -72.39         
176.9130      0.80993       -17.25        1.762E-1      124.83        1.759E-1      124.95        0.76338       -76.12         
178.4123      0.80978       -17.40        1.761E-1      122.80        1.759E-1      122.93        0.76331       -79.83         
179.9115      0.80969       -17.56        1.76E-1       120.79        1.758E-1      120.92        0.7632        -83.54         
181.4108      0.8095        -17.71        1.76E-1       118.79        1.758E-1      118.92        0.76308       -87.25         
182.9100      0.8094        -17.86        1.759E-1      116.78        1.757E-1      116.90        0.76296       -90.96         
184.4093      0.80924       -18.01        1.758E-1      114.79        1.757E-1      114.89        0.76275       -94.67         
185.9085      0.80904       -18.17        1.757E-1      112.77        1.756E-1      112.89        0.7626        -98.37         
187.4078      0.80891       -18.31        1.756E-1      110.78        1.755E-1      110.88        0.7623        -102.07        
188.9070      0.80874       -18.46        1.755E-1      108.78        1.754E-1      108.89        0.76207       -105.77        
190.4063      0.80853       -18.62        1.753E-1      106.78        1.753E-1      106.88        0.76172       -109.47        
191.9055      0.80837       -18.77        1.752E-1      104.78        1.752E-1      104.89        0.76138       -113.16        
193.4048      0.80819       -18.92        1.75E-1       102.78        1.751E-1      102.90        0.76098       -116.86        
194.9040      0.80798       -19.07        1.749E-1      100.79        1.75E-1       100.90        0.76059       -120.55        
196.4033      0.80785       -19.22        1.747E-1      98.80         1.749E-1      98.90         0.7602        -124.24        
197.9025      0.80765       -19.36        1.745E-1      96.79         1.747E-1      96.91         0.75974       -127.93        
199.4018      0.80749       -19.51        1.743E-1      94.81         1.745E-1      94.92         0.75931       -131.60        
200.9010      0.80731       -19.67        1.742E-1      92.81         1.743E-1      92.92         0.75877       -135.28        
202.4003      0.80714       -19.81        1.739E-1      90.80         1.741E-1      90.93         0.7583        -138.95        
203.8995      0.80695       -19.95        1.737E-1      88.81         1.74E-1       88.93         0.75782       -142.61        
205.3988      0.8067        -20.09        1.735E-1      86.81         1.737E-1      86.95         0.75733       -146.28        
206.8980      0.80658       -20.23        1.732E-1      84.83         1.734E-1      84.95         0.75691       -149.94        
208.3973      0.80645       -20.38        1.729E-1      82.86         1.732E-1      82.97         0.75645       -153.60        
209.8965      0.80651       -20.53        1.727E-1      80.90         1.73E-1       81.03         0.75601       -157.26        
211.3958      0.80646       -20.68        1.725E-1      78.95         1.728E-1      79.08         0.75552       -160.91        
212.8950      0.80637       -20.84        1.723E-1      77.00         1.726E-1      77.15         0.7551        -164.55        
214.3943      0.80621       -21.00        1.722E-1      75.03         1.725E-1      75.19         0.7546        -168.19        
215.8935      0.80608       -21.16        1.721E-1      73.05         1.725E-1      73.23         0.75415       -171.83        
217.3928      0.80586       -21.31        1.72E-1       71.07         1.723E-1      71.27         0.75375       -175.46        
218.8920      0.80568       -21.46        1.719E-1      69.10         1.722E-1      69.29         0.75331       -179.10        
220.3913      0.80545       -21.62        1.717E-1      67.12         1.721E-1      67.33         0.75285       177.29         
221.8905      0.80534       -21.76        1.717E-1      65.15         1.72E-1       65.36         0.75242       173.66         
223.3898      0.80514       -21.91        1.716E-1      63.20         1.719E-1      63.40         0.75197       170.04         
224.8890      0.80488       -22.06        1.715E-1      61.24         1.718E-1      61.43         0.75156       166.42         
226.3883      0.80471       -22.22        1.714E-1      59.27         1.717E-1      59.47         0.75112       162.81         
227.8875      0.80455       -22.37        1.714E-1      57.31         1.716E-1      57.52         0.75074       159.20         
229.3868      0.80436       -22.52        1.714E-1      55.35         1.715E-1      55.57         0.75033       155.59         
230.8860      0.80419       -22.66        1.713E-1      53.40         1.714E-1      53.63         0.7499        151.98         
232.3853      0.80406       -22.81        1.713E-1      51.46         1.714E-1      51.67         0.74948       148.37         
