!    8/10/2020   01:58:47 
! Ref Plane: 0.000 mm
# MHZ S MA R  50
!
0.3000        0.82161       0.20          6.08E-5       -125.78       4.106E-5      25.10         0.99589       -0.38          
0.9000        0.81928       0.28          8.161E-5      -122.05       8.914E-5      -100.38       0.99697       -0.32          
1.4999        0.82035       0.25          6.297E-5      158.19        5.67E-5       40.04         0.99818       -0.29          
2.0999        0.82014       0.22          5.554E-5      -111.23       2.404E-5      97.84         0.99867       -0.22          
2.6999        0.81995       0.17          7.955E-5      -88.85        2.06E-5       -156.10       0.9989        -0.18          
3.2999        0.81989       0.13          2.504E-5      61.63         2.127E-5      -115.80       0.99881       -0.15          
3.8998        0.81979       0.09          3.042E-5      -29.46        3.731E-5      -85.04        0.99903       -0.13          
4.4998        0.81967       0.04          1.985E-5      -54.24        1.161E-5      53.19         0.99902       -0.11          
5.0998        0.81958       -0.01         2.601E-5      -133.17       1.023E-5      85.02         0.99893       -0.10          
5.6997        0.81946       -0.05         2.759E-5      116.86        5.327E-6      -35.63        0.99906       -0.09          
6.2997        0.81946       -0.09         3.907E-5      89.10         1.142E-5      90.13         0.99904       -0.08          
6.8997        0.8194        -0.13         6.709E-5      -86.41        2.503E-5      -34.17        0.99903       -0.08          
7.4996        0.81944       -0.17         3.731E-5      90.09         3.179E-5      126.44        0.99909       -0.08          
8.0996        0.81947       -0.21         6.125E-5      -125.44       6.447E-6      -106.04       0.99906       -0.07          
8.6996        0.81935       -0.26         3.869E-5      90.35         1.88E-5       108.96        0.99908       -0.07          
9.2996        0.81932       -0.30         7.777E-5      -32.70        3.679E-5      31.66         0.99912       -0.07          
9.8995        0.8194        -0.34         6.079E-5      -58.04        2.492E-5      68.78         0.99912       -0.06          
10.4995       0.81924       -0.38         1.457E-5      151.05        1.342E-5      111.03        0.99919       -0.06          
11.0995       0.81919       -0.42         4.015E-5      -49.53        3.221E-5      34.51         0.99916       -0.06          
11.6994       0.81908       -0.46         1.51E-5       155.15        3.394E-5      9.28          0.99915       -0.06          
12.2994       0.81914       -0.50         9.293E-5      -145.36       4.536E-5      93.41         0.99916       -0.05          
12.8994       0.81917       -0.54         3.404E-5      88.83         3.852E-5      59.60         0.99911       -0.05          
13.4993       0.81911       -0.58         5.809E-5      -45.95        1.18E-5       64.13         0.99925       -0.06          
14.0993       0.81911       -0.62         9.988E-6      93.83         3.993E-5      -91.24        0.99923       -0.06          
14.6993       0.81909       -0.67         1.006E-4      -126.48       1.134E-5      48.71         0.99921       -0.06          
15.2993       0.81893       -0.70         8.119E-5      132.07        4.14E-5       80.54         0.99925       -0.05          
15.8992       0.81896       -0.75         4.581E-5      62.03         1.725E-5      143.09        0.9993        -0.05          
16.4992       0.81905       -0.78         3.333E-5      146.79        3.629E-5      -27.35        0.99927       -0.06          
17.0992       0.8189        -0.82         4.975E-5      43.87         1.418E-7      36.15         0.99931       -0.06          
17.6991       0.81894       -0.85         2.566E-5      131.59        1.664E-5      -160.22       0.99926       -0.06          
18.2991       0.81889       -0.90         4.12E-5       151.68        8.043E-6      -153.97       0.99927       -0.05          
18.8991       0.81873       -0.95         2.463E-5      -99.87        1.379E-5      140.99        0.9993        -0.06          
19.4990       0.81885       -0.98         4.383E-5      -26.47        3.272E-5      -8.99         0.99934       -0.06          
20.0990       0.81882       -1.03         1.236E-5      20.17         1.148E-5      -131.38       0.99934       -0.05          
20.6990       0.81883       -1.07         5.554E-5      -39.75        4.187E-5      102.38        0.99932       -0.06          
21.2990       0.81881       -1.11         4.964E-5      -148.45       2.776E-5      19.51         0.99938       -0.06          
21.8989       0.81872       -1.14         8.022E-5      -55.18        2.615E-5      72.02         0.99937       -0.06          
22.4989       0.81873       -1.19         7.174E-5      -120.34       2.616E-5      92.57         0.99938       -0.06          
23.0989       0.81866       -1.22         5.511E-5      138.64        3.565E-5      -5.54         0.99937       -0.07          
23.6988       0.81871       -1.27         1.169E-5      25.28         6.255E-5      0.28          0.9994        -0.06          
24.2988       0.81868       -1.31         2.997E-5      73.82         4.094E-6      -91.13        0.99933       -0.07          
24.8988       0.81867       -1.34         5.443E-6      139.95        1.227E-5      69.37         0.99943       -0.06          
25.4987       0.81875       -1.38         6.818E-5      6.80          3.723E-5      14.26         0.99941       -0.07          
26.0987       0.81873       -1.42         6.002E-5      154.39        3.39E-5       75.05         0.99939       -0.06          
26.6987       0.81871       -1.46         4.444E-5      177.41        1.896E-5      63.64         0.9994        -0.07          
27.2987       0.8186        -1.50         6.798E-5      27.01         4.489E-5      58.19         0.99943       -0.07          
27.8986       0.81866       -1.54         7.86E-6       -90.39        1.642E-5      87.61         0.99933       -0.07          
28.4986       0.81861       -1.58         1.639E-5      3.60          1.155E-5      -60.20        0.99942       -0.08          
29.0986       0.81862       -1.62         1.838E-5      70.27         3.201E-5      -16.68        0.99955       -0.08          
29.6985       0.81845       -1.65         4.325E-5      79.99         8.95E-6       95.48         0.9994        -0.08          
30.2985       0.81853       -1.69         1.833E-5      168.64        2.231E-5      -99.14        0.99947       -0.08          
30.8985       0.81856       -1.73         3.808E-5      -58.71        3.78E-5       168.69        0.99944       -0.08          
31.4984       0.81852       -1.76         5.586E-5      83.59         5.651E-5      -166.39       0.99942       -0.08          
32.0984       0.81851       -1.81         2.776E-5      -109.57       2.616E-5      99.71         0.99946       -0.08          
32.6984       0.81849       -1.84         1.383E-5      -160.17       3.114E-5      63.25         0.9994        -0.09          
33.2984       0.81864       -1.88         1.225E-5      -142.52       3.246E-5      119.10        0.9994        -0.09          
33.8983       0.81855       -1.92         4.939E-5      -15.99        2.515E-5      -24.29        0.99944       -0.09          
34.4983       0.81832       -1.95         2.935E-5      -46.60        1.673E-5      92.83         0.99944       -0.08          
35.0983       0.8185        -1.99         3.20E-5       -76.26        3.583E-5      -32.45        0.99948       -0.09          
35.6982       0.81838       -2.02         3.355E-5      -104.53       3.161E-5      95.82         0.99945       -0.09          
36.2982       0.81843       -2.04         5.886E-5      -124.82       9.438E-6      -102.75       0.99946       -0.09          
36.8982       0.81847       -2.09         6.016E-5      -137.56       2.187E-5      24.59         0.9994        -0.09          
37.4981       0.81844       -2.13         4.186E-5      164.17        2.229E-5      65.68         0.99944       -0.09          
38.0981       0.81841       -2.16         6.559E-6      -15.66        1.201E-5      -170.53       0.99946       -0.10          
38.6981       0.81841       -2.19         4.243E-5      31.64         2.753E-5      111.35        0.99944       -0.10          
39.2981       0.81841       -2.24         3.951E-5      132.54        4.696E-5      -178.63       0.99942       -0.10          
39.8980       0.81844       -2.26         4.108E-5      -85.69        3.73E-5       -52.41        0.99945       -0.10          
40.4980       0.81841       -2.31         2.114E-5      -76.02        4.606E-5      67.80         0.99952       -0.10          
41.0980       0.81846       -2.36         5.885E-5      -62.55        1.214E-6      173.79        0.99944       -0.11          
41.6979       0.81837       -2.38         4.361E-5      44.70         2.059E-5      6.72          0.99957       -0.11          
42.2979       0.81842       -2.42         3.19E-5       85.50         6.387E-6      37.13         0.99951       -0.11          
42.8979       0.81837       -2.46         2.224E-5      157.91        2.696E-5      159.46        0.99951       -0.11          
43.4978       0.81835       -2.49         6.263E-5      122.32        9.706E-6      128.96        0.99956       -0.11          
44.0978       0.81835       -2.53         2.292E-5      -133.31       1.562E-5      -46.34        0.99955       -0.11          
44.6978       0.81823       -2.55         2.938E-5      155.36        2.033E-5      82.33         0.99948       -0.12          
45.2978       0.81839       -2.60         5.246E-5      -0.39         2.895E-5      130.47        0.99955       -0.12          
45.8977       0.81838       -2.63         1.634E-5      166.39        3.243E-5      -79.58        0.99952       -0.12          
46.4977       0.81826       -2.67         5.505E-5      154.72        1.95E-5       141.81        0.99948       -0.12          
47.0977       0.81829       -2.69         6.424E-5      67.80         4.159E-5      32.76         0.99961       -0.13          
47.6976       0.81816       -2.73         3.386E-5      68.25         5.598E-5      167.56        0.99964       -0.12          
48.2976       0.81821       -2.77         3.853E-5      13.34         3.839E-5      162.58        0.99964       -0.13          
48.8976       0.81813       -2.80         4.187E-5      72.85         2.915E-5      -168.99       0.99959       -0.13          
49.4975       0.81814       -2.83         1.025E-5      -64.67        5.116E-5      78.55         0.99958       -0.13          
50.0975       0.81818       -2.88         3.141E-5      41.17         3.794E-5      -143.42       0.99961       -0.13          
50.6975       0.81816       -2.90         1.48E-5       -160.88       2.32E-5       -151.83       0.99955       -0.13          
51.2975       0.81819       -2.93         4.01E-5       27.94         1.82E-5       10.02         0.99959       -0.14          
51.8974       0.81827       -2.98         4.299E-5      60.25         1.764E-5      110.99        0.99959       -0.13          
52.4974       0.82052       -3.00         2.435E-5      31.08         5.57E-5       43.82         0.99959       -0.14          
53.0974       0.8181        -3.04         2.204E-5      161.64        2.501E-5      174.41        0.99965       -0.14          
53.6973       0.81814       -3.07         4.893E-5      77.71         7.031E-6      35.07         0.99964       -0.14          
54.2973       0.81814       -3.10         2.071E-5      152.13        2.981E-5      -120.22       0.9996        -0.15          
54.8973       0.8181        -3.15         4.207E-5      -176.38       1.285E-5      25.19         0.99963       -0.14          
55.4972       0.81811       -3.17         3.071E-5      84.96         1.58E-5       -155.58       0.99961       -0.15          
56.0972       0.81822       -3.21         7.605E-5      37.48         1.30E-5       118.59        0.99962       -0.15          
56.6972       0.8182        -3.26         6.506E-5      -27.63        2.223E-5      130.95        0.99961       -0.15          
57.2972       0.81814       -3.29         1.984E-5      -63.90        1.621E-5      -146.55       0.99969       -0.15          
57.8971       0.81817       -3.32         3.499E-5      46.68         1.609E-5      -50.90        0.99964       -0.15          
58.4971       0.81807       -3.35         2.807E-5      -92.82        2.864E-5      64.21         0.99964       -0.15          
59.0971       0.8181        -3.41         3.887E-5      -30.17        1.588E-5      60.32         0.99962       -0.15          
59.6970       0.81809       -3.43         2.00E-5       157.11        4.838E-5      15.21         0.99965       -0.16          
60.2970       0.81801       -3.47         2.67E-5       145.99        2.532E-5      -103.68       0.99965       -0.16          
60.8970       0.81793       -3.50         5.494E-5      -121.74       2.091E-5      35.52         0.99964       -0.16          
61.4969       0.81791       -3.53         1.206E-5      -155.16       2.586E-5      23.54         0.99964       -0.16          
62.0969       0.81798       -3.56         3.549E-6      -89.44        2.272E-5      142.69        0.99968       -0.17          
62.6969       0.81799       -3.61         3.715E-5      -73.05        3.925E-5      -22.36        0.99965       -0.17          
63.2969       0.81793       -3.64         2.514E-5      135.42        8.291E-6      -14.73        0.99963       -0.17          
63.8968       0.81773       -3.67         6.886E-5      139.36        1.49E-5       -1.85         0.99962       -0.17          
64.4968       0.81777       -3.71         2.928E-5      -2.23         1.095E-5      154.91        0.99964       -0.17          
65.0968       0.8177        -3.74         3.886E-5      -173.88       2.623E-5      88.58         0.99969       -0.17          
65.6967       0.81768       -3.77         4.748E-5      -82.54        3.044E-5      -12.15        0.99968       -0.17          
66.2967       0.81765       -3.81         6.184E-5      -78.70        9.414E-6      -138.96       0.9997        -0.18          
66.8967       0.81773       -3.84         4.422E-5      152.74        3.874E-5      -40.59        0.99968       -0.18          
67.4966       0.81788       -3.87         2.469E-5      80.22         1.692E-5      -165.25       0.99963       -0.18          
68.0966       0.81787       -3.90         4.079E-6      -132.96       2.576E-5      59.80         0.99965       -0.18          
68.6966       0.81778       -3.96         2.997E-5      4.74          1.367E-5      -179.45       0.99966       -0.18          
69.2966       0.81774       -3.98         2.186E-5      12.52         3.112E-5      159.48        0.99969       -0.18          
69.8965       0.81771       -4.02         4.379E-5      -84.19        1.244E-5      34.39         0.99968       -0.19          
70.4965       0.8177        -4.06         4.389E-5      3.28          1.07E-5       -156.43       0.99966       -0.19          
71.0965       0.81763       -4.10         2.162E-5      125.84        3.663E-5      121.77        0.99969       -0.19          
71.6964       0.81767       -4.13         1.851E-5      83.72         1.669E-5      -136.54       0.99971       -0.19          
72.2964       0.81756       -4.17         4.662E-5      102.99        9.881E-6      155.24        0.9997        -0.19          
72.8964       0.81754       -4.20         3.737E-5      -168.07       2.992E-5      91.77         0.99974       -0.19          
73.4963       0.81758       -4.24         2.051E-5      -131.50       1.732E-5      -36.89        0.99967       -0.19          
74.0963       0.81757       -4.28         5.879E-5      -129.94       4.306E-5      65.78         0.9997        -0.19          
74.6963       0.81758       -4.32         1.784E-5      -166.00       1.948E-5      -93.75        0.99971       -0.19          
75.2963       0.81755       -4.36         3.01E-5       134.36        1.425E-5      -116.46       0.99968       -0.19          
75.8962       0.81745       -4.40         4.594E-5      -127.72       2.983E-5      144.72        0.99971       -0.19          
76.4962       0.81737       -4.43         1.617E-5      -29.98        2.507E-5      91.06         0.99971       -0.19          
77.0962       0.81745       -4.46         1.916E-5      132.31        1.459E-5      172.29        0.99973       -0.19          
77.6961       0.81733       -4.50         3.30E-5       139.53        2.005E-5      134.57        0.99968       -0.19          
78.2961       0.8174        -4.53         3.454E-5      -36.73        2.253E-5      171.59        0.99974       -0.19          
78.8961       0.81724       -4.57         5.962E-5      46.36         3.789E-5      -167.99       0.99965       -0.19          
79.4960       0.8172        -4.60         7.129E-5      -146.66       1.624E-5      144.22        0.99971       -0.20          
80.0960       0.81725       -4.64         8.009E-6      91.68         1.567E-5      -9.58         0.99969       -0.19          
80.6960       0.81728       -4.67         3.783E-5      -173.77       3.176E-5      -61.88        0.99967       -0.19          
81.2960       0.81714       -4.72         1.551E-5      -128.27       2.977E-5      102.47        0.99972       -0.19          
81.8959       0.81711       -4.75         1.303E-5      37.67         1.696E-5      133.73        0.99974       -0.20          
82.4959       0.81717       -4.78         2.359E-5      5.69          4.854E-5      111.12        0.9997        -0.20          
83.0959       0.81713       -4.83         1.436E-5      41.58         3.262E-5      176.05        0.99968       -0.20          
83.6958       0.81699       -4.85         2.50E-5       100.16        8.423E-6      17.45         0.99966       -0.20          
84.2958       0.81704       -4.90         3.295E-5      -176.53       2.581E-5      134.05        0.99969       -0.20          
84.8958       0.81705       -4.93         1.311E-5      -68.04        1.131E-5      121.54        0.99972       -0.20          
85.4957       0.8169        -4.97         3.839E-5      -175.23       2.789E-5      93.85         0.9997        -0.20          
86.0957       0.81707       -5.00         2.63E-5       -105.56       2.233E-5      -159.79       0.99964       -0.21          
86.6957       0.81693       -5.04         2.688E-5      -23.79        2.537E-5      -102.31       0.99965       -0.21          
87.2957       0.81692       -5.07         4.831E-5      96.60         5.446E-6      -141.19       0.99973       -0.21          
87.8956       0.81697       -5.12         2.047E-5      4.15          1.814E-5      -64.58        0.9997        -0.21          
88.4956       0.81694       -5.15         4.847E-5      67.49         1.985E-5      176.44        0.99973       -0.21          
89.0956       0.81685       -5.18         6.11E-5       125.39        3.451E-5      -72.66        0.99968       -0.21          
89.6955       0.81681       -5.23         2.739E-5      111.44        3.589E-5      57.89         0.99967       -0.21          
90.2955       0.81682       -5.26         3.887E-5      -79.85        3.223E-5      134.45        0.99971       -0.21          
90.8955       0.81674       -5.30         5.302E-5      -127.08       1.76E-5       -155.64       0.99969       -0.22          
91.4954       0.81667       -5.34         5.514E-5      -106.30       2.582E-5      -98.82        0.99973       -0.22          
92.0954       0.8167        -5.38         2.719E-5      -163.12       1.783E-5      121.00        0.99965       -0.22          
