!    8/6/2020   03:22:35 
! Ref Plane: 0.000 mm
# MHZ S MA R  50
!
0.3000        0.04763       179.24        9.893E-2      -1.01         9.637E-2      -1.00         0.81496       -0.48          
0.9000        0.04774       179.34        9.505E-2      -0.48         9.514E-2      -0.35         0.80862       -0.54          
1.4999        0.04781       179.30        9.518E-2      -0.32         9.534E-2      -0.46         0.80879       -0.69          
2.0999        0.04777       179.45        9.518E-2      -0.48         9.534E-2      -0.57         0.8091        -0.88          
2.6999        0.04778       179.62        9.521E-2      -0.61         9.536E-2      -0.73         0.80908       -1.03          
3.2999        0.04777       179.88        9.523E-2      -0.72         9.539E-2      -0.90         0.80933       -1.21          
3.8998        0.04787       -179.97       9.515E-2      -0.88         9.539E-2      -1.03         0.80928       -1.38          
4.4998        0.04783       -179.75       9.52E-2       -1.02         9.54E-2       -1.16         0.80938       -1.54          
5.0998        0.04793       -179.49       9.514E-2      -1.15         9.537E-2      -1.27         0.80941       -1.71          
5.6997        0.04789       -179.25       9.517E-2      -1.27         9.544E-2      -1.45         0.80951       -1.89          
6.2997        0.04794       -179.14       9.514E-2      -1.45         9.543E-2      -1.58         0.80932       -2.08          
6.8997        0.04802       -178.92       9.521E-2      -1.62         9.54E-2       -1.70         0.80946       -2.25          
7.4996        0.04803       -178.64       9.515E-2      -1.70         9.542E-2      -1.84         0.80947       -2.44          
8.0996        0.04808       -178.46       9.516E-2      -1.89         9.543E-2      -2.00         0.80927       -2.62          
8.6996        0.04807       -178.24       9.516E-2      -2.01         9.545E-2      -2.11         0.80948       -2.79          
9.2996        0.04809       -178.02       9.524E-2      -2.16         9.545E-2      -2.28         0.80964       -2.97          
9.8995        0.04812       -177.78       9.518E-2      -2.34         9.546E-2      -2.40         0.80926       -3.13          
10.4995       0.04819       -177.61       9.516E-2      -2.48         9.544E-2      -2.57         0.80968       -3.31          
11.0995       0.04822       -177.40       9.517E-2      -2.60         9.549E-2      -2.69         0.80977       -3.49          
11.6994       0.04822       -177.16       9.52E-2       -2.72         9.546E-2      -2.83         0.80984       -3.67          
12.2994       0.04828       -176.95       9.516E-2      -2.88         9.545E-2      -2.96         0.80971       -3.84          
12.8994       0.04828       -176.75       9.518E-2      -2.95         9.548E-2      -3.12         0.8097        -4.01          
13.4993       0.0483        -176.51       9.528E-2      -3.18         9.544E-2      -3.28         0.80983       -4.20          
14.0993       0.04837       -176.36       9.522E-2      -3.28         9.547E-2      -3.43         0.80984       -4.36          
14.6993       0.04838       -176.10       9.52E-2       -3.45         9.55E-2       -3.55         0.80978       -4.53          
15.2993       0.04842       -175.97       9.518E-2      -3.55         9.548E-2      -3.71         0.80995       -4.71          
15.8992       0.04843       -175.76       9.522E-2      -3.67         9.546E-2      -3.86         0.80998       -4.87          
16.4992       0.04847       -175.59       9.522E-2      -3.87         9.548E-2      -4.01         0.80984       -5.06          
17.0992       0.04849       -175.35       9.526E-2      -3.97         9.547E-2      -4.16         0.81002       -5.23          
17.6991       0.04862       -175.14       9.522E-2      -4.13         9.549E-2      -4.29         0.81          -5.42          
18.2991       0.04862       -174.97       9.524E-2      -4.28         9.551E-2      -4.44         0.80995       -5.57          
18.8991       0.04863       -174.80       9.527E-2      -4.41         9.554E-2      -4.56         0.81027       -5.73          
19.4990       0.04866       -174.56       9.534E-2      -4.57         9.553E-2      -4.72         0.81031       -5.91          
20.0990       0.04868       -174.34       9.527E-2      -4.69         9.554E-2      -4.85         0.81013       -6.10          
20.6990       0.04874       -174.15       9.531E-2      -4.88         9.556E-2      -4.99         0.81021       -6.26          
21.2990       0.04874       -173.92       9.527E-2      -5.01         9.556E-2      -5.13         0.81012       -6.42          
21.8989       0.04879       -173.77       9.533E-2      -5.16         9.557E-2      -5.28         0.8102        -6.61          
22.4989       0.04882       -173.57       9.528E-2      -5.31         9.561E-2      -5.41         0.81024       -6.78          
23.0989       0.04891       -173.42       9.53E-2       -5.42         9.563E-2      -5.56         0.81038       -6.96          
23.6988       0.04889       -173.15       9.535E-2      -5.57         9.561E-2      -5.72         0.81003       -7.13          
24.2988       0.04892       -172.99       9.534E-2      -5.71         9.56E-2       -5.86         0.81007       -7.29          
24.8988       0.049         -172.79       9.535E-2      -5.87         9.558E-2      -6.02         0.80987       -7.47          
25.4987       0.04903       -172.63       9.538E-2      -5.98         9.56E-2       -6.15         0.80994       -7.64          
26.0987       0.04908       -172.39       9.532E-2      -6.15         9.563E-2      -6.28         0.80981       -7.81          
26.6987       0.04912       -172.24       9.534E-2      -6.26         9.56E-2       -6.42         0.80964       -7.97          
27.2987       0.04914       -171.99       9.542E-2      -6.42         9.563E-2      -6.56         0.80941       -8.15          
27.8986       0.04919       -171.84       9.541E-2      -6.58         9.563E-2      -6.70         0.80923       -8.30          
28.4986       0.04925       -171.60       9.545E-2      -6.73         9.562E-2      -6.86         0.80919       -8.50          
29.0986       0.04928       -171.59       9.542E-2      -6.84         9.563E-2      -7.01         0.80894       -8.65          
29.6985       0.04933       -171.34       9.542E-2      -6.99         9.561E-2      -7.12         0.8088        -8.83          
30.2985       0.04932       -171.16       9.541E-2      -7.14         9.566E-2      -7.29         0.80855       -9.00          
30.8985       0.04939       -170.92       9.544E-2      -7.28         9.56E-2       -7.42         0.80855       -9.18          
31.4984       0.04945       -170.76       9.541E-2      -7.39         9.56E-2       -7.57         0.80848       -9.34          
32.0984       0.04949       -170.69       9.547E-2      -7.57         9.568E-2      -7.70         0.80849       -9.52          
32.6984       0.04949       -170.45       9.545E-2      -7.70         9.565E-2      -7.84         0.80833       -9.68          
33.2984       0.04955       -170.31       9.548E-2      -7.84         9.566E-2      -7.98         0.80825       -9.84          
33.8983       0.04957       -170.11       9.553E-2      -7.98         9.567E-2      -8.10         0.80841       -9.99          
34.4983       0.04965       -169.94       9.553E-2      -8.11         9.568E-2      -8.25         0.80849       -10.15         
35.0983       0.04963       -169.82       9.553E-2      -8.25         9.573E-2      -8.43         0.80857       -10.33         
35.6982       0.04969       -169.64       9.557E-2      -8.42         9.571E-2      -8.56         0.80868       -10.49         
36.2982       0.04974       -169.43       9.56E-2       -8.56         9.57E-2       -8.73         0.8086        -10.69         
36.8982       0.04976       -169.26       9.555E-2      -8.71         9.574E-2      -8.87         0.80854       -10.85         
37.4981       0.04984       -169.15       9.56E-2       -8.82         9.576E-2      -8.99         0.80843       -11.03         
38.0981       0.04989       -168.96       9.563E-2      -8.95         9.575E-2      -9.15         0.80846       -11.22         
38.6981       0.0499        -168.78       9.564E-2      -9.10         9.574E-2      -9.29         0.80841       -11.40         
39.2981       0.04998       -168.65       9.563E-2      -9.25         9.574E-2      -9.44         0.8084        -11.57         
39.8980       0.04997       -168.49       9.561E-2      -9.42         9.575E-2      -9.59         0.80821       -11.75         
40.4980       0.05          -168.29       9.567E-2      -9.57         9.578E-2      -9.71         0.80821       -11.91         
41.0980       0.05006       -168.12       9.567E-2      -9.71         9.581E-2      -9.89         0.80796       -12.10         
41.6979       0.0501        -168.01       9.569E-2      -9.85         9.581E-2      -10.01        0.80814       -12.29         
42.2979       0.05018       -167.88       9.567E-2      -9.98         9.584E-2      -10.16        0.80804       -12.48         
42.8979       0.05019       -167.71       9.567E-2      -10.15        9.582E-2      -10.30        0.8081        -12.66         
43.4978       0.05022       -167.55       9.568E-2      -10.27        9.587E-2      -10.44        0.80816       -12.85         
44.0978       0.05028       -167.39       9.569E-2      -10.43        9.585E-2      -10.60        0.80806       -13.05         
44.6978       0.05033       -167.34       9.571E-2      -10.59        9.588E-2      -10.75        0.80822       -13.24         
45.2978       0.05041       -167.12       9.573E-2      -10.73        9.586E-2      -10.85        0.80808       -13.43         
45.8977       0.05046       -166.94       9.574E-2      -10.89        9.588E-2      -11.03        0.80828       -13.60         
46.4977       0.05047       -166.87       9.571E-2      -11.03        9.587E-2      -11.17        0.80823       -13.80         
47.0977       0.05048       -166.66       9.579E-2      -11.19        9.592E-2      -11.32        0.80914       -13.97         
47.6976       0.05055       -166.48       9.575E-2      -11.37        9.588E-2      -11.46        0.80922       -14.15         
48.2976       0.05062       -166.44       9.581E-2      -11.52        9.591E-2      -11.59        0.8092        -14.32         
48.8976       0.05067       -166.27       9.575E-2      -11.67        9.592E-2      -11.75        0.80936       -14.51         
49.4975       0.05074       -166.07       9.578E-2      -11.81        9.597E-2      -11.88        0.80925       -14.68         
50.0975       0.05071       -165.93       9.577E-2      -11.95        9.593E-2      -12.05        0.80935       -14.86         
50.6975       0.05078       -165.77       9.577E-2      -12.11        9.599E-2      -12.19        0.80943       -15.05         
51.2975       0.05082       -165.66       9.572E-2      -12.25        9.605E-2      -12.40        0.80946       -15.24         
51.8974       0.05093       -165.57       9.568E-2      -12.35        9.612E-2      -12.57        0.80942       -15.41         
52.4974       0.05167       -165.66       9.565E-2      -12.39        9.705E-2      -13.07        0.80736       -15.60         
53.0974       0.05107       -164.92       9.483E-2      -12.17        9.602E-2      -12.83        0.80695       -15.70         
53.6973       0.05102       -165.09       9.582E-2      -12.82        9.603E-2      -12.97        0.80996       -15.96         
54.2973       0.05107       -164.98       9.581E-2      -12.97        9.603E-2      -13.13        0.80987       -16.14         
54.8973       0.05112       -164.82       9.582E-2      -13.12        9.603E-2      -13.27        0.80994       -16.30         
55.4972       0.05116       -164.72       9.584E-2      -13.26        9.609E-2      -13.39        0.81006       -16.48         
56.0972       0.05121       -164.53       9.586E-2      -13.40        9.604E-2      -13.54        0.80982       -16.66         
56.6972       0.05127       -164.38       9.586E-2      -13.55        9.604E-2      -13.67        0.80987       -16.82         
57.2972       0.05135       -164.21       9.586E-2      -13.70        9.606E-2      -13.80        0.80987       -17.00         
57.8971       0.05135       -164.06       9.586E-2      -13.84        9.607E-2      -13.97        0.80985       -17.17         
58.4971       0.05141       -163.97       9.592E-2      -13.97        9.612E-2      -14.14        0.81011       -17.36         
59.0971       0.05147       -163.82       9.591E-2      -14.11        9.609E-2      -14.28        0.81005       -17.52         
59.6970       0.05152       -163.65       9.594E-2      -14.25        9.617E-2      -14.41        0.81027       -17.70         
60.2970       0.05153       -163.48       9.592E-2      -14.41        9.611E-2      -14.57        0.81024       -17.87         
60.8970       0.05164       -163.31       9.594E-2      -14.56        9.618E-2      -14.73        0.81038       -18.05         
61.4969       0.05166       -163.23       9.596E-2      -14.70        9.614E-2      -14.88        0.8102        -18.23         
62.0969       0.05172       -163.09       9.597E-2      -14.84        9.615E-2      -15.01        0.81009       -18.41         
62.6969       0.05175       -162.98       9.601E-2      -14.97        9.615E-2      -15.18        0.81004       -18.59         
63.2969       0.05183       -162.80       9.599E-2      -15.12        9.621E-2      -15.30        0.81012       -18.77         
63.8968       0.0519        -162.67       9.603E-2      -15.25        9.616E-2      -15.44        0.81005       -18.93         
64.4968       0.05198       -162.53       9.605E-2      -15.41        9.622E-2      -15.60        0.81009       -19.11         
65.0968       0.05203       -162.37       9.602E-2      -15.53        9.629E-2      -15.73        0.81007       -19.29         
65.6967       0.05213       -162.22       9.606E-2      -15.68        9.628E-2      -15.84        0.8101        -19.46         
66.2967       0.05213       -162.10       9.611E-2      -15.82        9.631E-2      -16.02        0.81004       -19.64         
66.8967       0.05217       -162.00       9.612E-2      -15.99        9.634E-2      -16.14        0.80989       -19.82         
67.4966       0.05226       -161.81       9.614E-2      -16.11        9.637E-2      -16.29        0.8098        -20.01         
68.0966       0.05229       -161.68       9.617E-2      -16.27        9.641E-2      -16.42        0.80981       -20.18         
68.6966       0.05241       -161.53       9.623E-2      -16.41        9.644E-2      -16.56        0.80982       -20.34         
69.2966       0.05254       -161.39       9.626E-2      -16.58        9.649E-2      -16.73        0.80968       -20.54         
69.8965       0.05259       -161.26       9.632E-2      -16.74        9.654E-2      -16.85        0.80971       -20.71         
70.4965       0.05263       -161.21       9.634E-2      -16.87        9.654E-2      -17.03        0.80983       -20.88         
71.0965       0.0527        -161.08       9.633E-2      -17.05        9.66E-2       -17.18        0.80986       -21.05         
71.6964       0.05278       -160.93       9.637E-2      -17.21        9.66E-2       -17.36        0.80979       -21.22         
72.2964       0.05283       -160.87       9.641E-2      -17.36        9.656E-2      -17.52        0.8098        -21.39         
72.8964       0.05295       -160.80       9.644E-2      -17.53        9.659E-2      -17.67        0.80979       -21.59         
73.4963       0.05302       -160.61       9.64E-2       -17.69        9.66E-2       -17.81        0.80985       -21.75         
74.0963       0.05305       -160.50       9.644E-2      -17.79        9.665E-2      -17.96        0.80998       -21.94         
74.6963       0.0531        -160.45       9.645E-2      -17.98        9.668E-2      -18.10        0.80972       -22.10         
75.2963       0.05322       -160.25       9.648E-2      -18.12        9.67E-2       -18.26        0.80978       -22.28         
75.8962       0.05329       -160.17       9.652E-2      -18.28        9.676E-2      -18.43        0.80983       -22.45         
76.4962       0.05339       -159.98       9.659E-2      -18.42        9.679E-2      -18.58        0.81          -22.63         
77.0962       0.05346       -159.92       9.661E-2      -18.57        9.683E-2      -18.71        0.80996       -22.80         
77.6961       0.05352       -159.82       9.665E-2      -18.75        9.687E-2      -18.90        0.81027       -22.97         
78.2961       0.05365       -159.69       9.668E-2      -18.86        9.687E-2      -19.02        0.81018       -23.15         
78.8961       0.05368       -159.59       9.669E-2      -19.06        9.695E-2      -19.18        0.81032       -23.31         
79.4960       0.0538        -159.48       9.677E-2      -19.21        9.698E-2      -19.34        0.81053       -23.47         
80.0960       0.05383       -159.39       9.677E-2      -19.38        9.699E-2      -19.51        0.81053       -23.66         
80.6960       0.05391       -159.31       9.683E-2      -19.53        9.702E-2      -19.66        0.81064       -23.82         
81.2960       0.05399       -159.21       9.686E-2      -19.71        9.709E-2      -19.83        0.81081       -23.98         
81.8959       0.05407       -159.11       9.688E-2      -19.86        9.713E-2      -19.97        0.81094       -24.15         
82.4959       0.05418       -158.99       9.692E-2      -20.02        9.716E-2      -20.15        0.81113       -24.33         
83.0959       0.05425       -158.83       9.694E-2      -20.21        9.716E-2      -20.30        0.81127       -24.48         
83.6958       0.05433       -158.75       9.703E-2      -20.37        9.721E-2      -20.49        0.81137       -24.66         
84.2958       0.05442       -158.63       9.704E-2      -20.54        9.721E-2      -20.64        0.81146       -24.82         
84.8958       0.05449       -158.56       9.707E-2      -20.70        9.726E-2      -20.85        0.81143       -24.99         
85.4957       0.0546        -158.47       9.711E-2      -20.87        9.73E-2       -21.03        0.81174       -25.17         
86.0957       0.05465       -158.36       9.713E-2      -21.03        9.731E-2      -21.20        0.81162       -25.35         
86.6957       0.05472       -158.20       9.712E-2      -21.21        9.735E-2      -21.36        0.81182       -25.51         
87.2957       0.05483       -158.15       9.721E-2      -21.39        9.734E-2      -21.54        0.81203       -25.69         
87.8956       0.05487       -158.07       9.72E-2       -21.56        9.735E-2      -21.70        0.81205       -25.84         
88.4956       0.055         -157.95       9.722E-2      -21.72        9.738E-2      -21.86        0.81211       -26.01         
89.0956       0.05509       -157.85       9.728E-2      -21.89        9.739E-2      -22.05        0.81222       -26.17         
89.6955       0.05516       -157.71       9.735E-2      -22.06        9.744E-2      -22.21        0.81244       -26.33         
90.2955       0.05528       -157.62       9.74E-2       -22.22        9.748E-2      -22.37        0.81267       -26.50         
90.8955       0.05533       -157.58       9.745E-2      -22.42        9.75E-2       -22.54        0.8127        -26.67         
91.4954       0.05543       -157.46       9.745E-2      -22.60        9.754E-2      -22.75        0.81285       -26.84         
92.0954       0.05552       -157.37       9.748E-2      -22.80        9.757E-2      -22.91        0.81283       -27.00         
