!    8/6/2020   03:20:56 
! Ref Plane: 0.000 mm
# MHZ S MA R  50
!
0.3000        0.04756       179.39        9.898E-2      -0.97         9.631E-2      -0.93         0.8151        -0.43          
0.9000        0.04774       179.23        9.507E-2      -0.46         9.52E-2       -0.27         0.80909       -0.53          
1.4999        0.04779       179.38        9.521E-2      -0.27         9.534E-2      -0.39         0.8088        -0.69          
2.0999        0.04775       179.54        9.517E-2      -0.40         9.536E-2      -0.47         0.80906       -0.88          
2.6999        0.04777       179.73        9.52E-2       -0.52         9.536E-2      -0.60         0.80903       -1.03          
3.2999        0.04777       -180.00       9.519E-2      -0.60         9.539E-2      -0.76         0.80928       -1.21          
3.8998        0.04787       -179.81       9.516E-2      -0.73         9.537E-2      -0.88         0.80925       -1.39          
4.4998        0.04785       -179.60       9.514E-2      -0.86         9.54E-2       -0.98         0.80936       -1.55          
5.0998        0.04793       -179.28       9.514E-2      -0.96         9.538E-2      -1.08         0.80934       -1.73          
5.6997        0.04793       -179.03       9.515E-2      -1.09         9.545E-2      -1.24         0.80951       -1.91          
6.2997        0.04796       -178.93       9.512E-2      -1.22         9.543E-2      -1.33         0.80933       -2.11          
6.8997        0.04798       -178.66       9.514E-2      -1.40         9.54E-2       -1.46         0.80948       -2.28          
7.4996        0.04802       -178.39       9.512E-2      -1.45         9.541E-2      -1.56         0.8095        -2.49          
8.0996        0.04807       -178.17       9.51E-2       -1.61         9.544E-2      -1.70         0.80928       -2.67          
8.6996        0.04808       -177.95       9.511E-2      -1.71         9.54E-2       -1.80         0.80949       -2.84          
9.2996        0.04809       -177.68       9.517E-2      -1.84         9.544E-2      -1.95         0.80961       -3.02          
9.8995        0.04811       -177.45       9.515E-2      -2.00         9.542E-2      -2.08         0.80934       -3.19          
10.4995       0.04816       -177.25       9.509E-2      -2.11         9.542E-2      -2.20         0.80971       -3.37          
11.0995       0.04823       -177.03       9.513E-2      -2.22         9.542E-2      -2.30         0.80977       -3.56          
11.6994       0.04825       -176.76       9.512E-2      -2.34         9.543E-2      -2.41         0.80978       -3.75          
12.2994       0.04826       -176.57       9.509E-2      -2.47         9.541E-2      -2.54         0.80971       -3.92          
12.8994       0.04827       -176.32       9.513E-2      -2.52         9.542E-2      -2.67         0.80973       -4.09          
13.4993       0.04828       -176.07       9.52E-2       -2.72         9.539E-2      -2.81         0.80989       -4.29          
14.0993       0.04836       -175.90       9.514E-2      -2.81         9.54E-2       -2.93         0.80987       -4.45          
14.6993       0.04837       -175.60       9.511E-2      -2.96         9.544E-2      -3.03         0.80981       -4.63          
15.2993       0.0484        -175.45       9.512E-2      -3.03         9.537E-2      -3.17         0.80996       -4.82          
15.8992       0.04842       -175.23       9.515E-2      -3.15         9.537E-2      -3.32         0.80998       -4.98          
16.4992       0.04848       -175.04       9.51E-2       -3.29         9.539E-2      -3.45         0.80989       -5.17          
17.0992       0.0485        -174.77       9.514E-2      -3.39         9.539E-2      -3.55         0.81009       -5.35          
17.6991       0.0486        -174.54       9.511E-2      -3.52         9.54E-2       -3.69         0.80998       -5.53          
18.2991       0.04861       -174.36       9.512E-2      -3.66         9.54E-2       -3.80         0.81002       -5.69          
18.8991       0.04861       -174.14       9.515E-2      -3.78         9.542E-2      -3.89         0.81033       -5.86          
19.4990       0.04861       -173.90       9.518E-2      -3.91         9.539E-2      -4.05         0.81031       -6.04          
20.0990       0.04868       -173.68       9.512E-2      -4.02         9.539E-2      -4.17         0.81019       -6.23          
20.6990       0.04872       -173.50       9.515E-2      -4.17         9.542E-2      -4.28         0.81027       -6.39          
21.2990       0.04873       -173.20       9.513E-2      -4.28         9.54E-2       -4.39         0.81011       -6.56          
21.8989       0.04877       -173.08       9.516E-2      -4.41         9.54E-2       -4.52         0.81024       -6.75          
22.4989       0.04881       -172.81       9.511E-2      -4.55         9.544E-2      -4.63         0.81027       -6.92          
23.0989       0.04887       -172.64       9.513E-2      -4.63         9.544E-2      -4.78         0.81049       -7.11          
23.6988       0.04887       -172.34       9.515E-2      -4.75         9.541E-2      -4.90         0.81009       -7.28          
24.2988       0.04891       -172.22       9.51E-2       -4.87         9.538E-2      -5.00         0.8101        -7.45          
24.8988       0.04899       -171.97       9.509E-2      -5.00         9.542E-2      -5.16         0.80996       -7.63          
25.4987       0.049         -171.80       9.515E-2      -5.10         9.535E-2      -5.27         0.81004       -7.80          
26.0987       0.04906       -171.55       9.507E-2      -5.24         9.537E-2      -5.36         0.80988       -7.98          
26.6987       0.04911       -171.34       9.51E-2       -5.33         9.536E-2      -5.49         0.80971       -8.14          
27.2987       0.04912       -171.09       9.516E-2      -5.46         9.537E-2      -5.60         0.80943       -8.32          
27.8986       0.04917       -170.94       9.512E-2      -5.59         9.535E-2      -5.71         0.80929       -8.48          
28.4986       0.0492        -170.70       9.513E-2      -5.71         9.537E-2      -5.85         0.80925       -8.67          
29.0986       0.04923       -170.59       9.513E-2      -5.82         9.536E-2      -5.98         0.80899       -8.83          
29.6985       0.04931       -170.37       9.511E-2      -5.93         9.534E-2      -6.08         0.80888       -9.01          
30.2985       0.04928       -170.15       9.511E-2      -6.08         9.532E-2      -6.23         0.8086        -9.19          
30.8985       0.04932       -169.90       9.51E-2       -6.21         9.528E-2      -6.31         0.80859       -9.36          
31.4984       0.04938       -169.73       9.507E-2      -6.30         9.526E-2      -6.44         0.80853       -9.53          
32.0984       0.04944       -169.59       9.509E-2      -6.45         9.536E-2      -6.57         0.80857       -9.70          
32.6984       0.04946       -169.34       9.51E-2       -6.55         9.531E-2      -6.67         0.80838       -9.87          
33.2984       0.04949       -169.18       9.509E-2      -6.66         9.529E-2      -6.79         0.80831       -10.02         
33.8983       0.04952       -169.01       9.514E-2      -6.77         9.529E-2      -6.92         0.80845       -10.18         
34.4983       0.04959       -168.80       9.511E-2      -6.88         9.529E-2      -7.00         0.80855       -10.34         
35.0983       0.04957       -168.61       9.512E-2      -7.02         9.529E-2      -7.17         0.80859       -10.52         
35.6982       0.04961       -168.44       9.514E-2      -7.11         9.527E-2      -7.27         0.80873       -10.68         
36.2982       0.04968       -168.23       9.515E-2      -7.25         9.526E-2      -7.42         0.80865       -10.88         
36.8982       0.04971       -168.04       9.51E-2       -7.37         9.528E-2      -7.52         0.80858       -11.04         
37.4981       0.04975       -167.87       9.512E-2      -7.48         9.529E-2      -7.64         0.80849       -11.22         
38.0981       0.04978       -167.70       9.513E-2      -7.59         9.528E-2      -7.76         0.8085        -11.41         
38.6981       0.04982       -167.50       9.513E-2      -7.68         9.527E-2      -7.89         0.80844       -11.59         
39.2981       0.04986       -167.31       9.512E-2      -7.81         9.521E-2      -8.01         0.80838       -11.76         
39.8980       0.0499        -167.14       9.511E-2      -7.97         9.525E-2      -8.16         0.80826       -11.94         
40.4980       0.04991       -166.92       9.512E-2      -8.10         9.525E-2      -8.21         0.80826       -12.10         
41.0980       0.04999       -166.75       9.511E-2      -8.20         9.523E-2      -8.37         0.80796       -12.29         
41.6979       0.04998       -166.61       9.508E-2      -8.28         9.525E-2      -8.48         0.80821       -12.48         
42.2979       0.05008       -166.45       9.507E-2      -8.42         9.526E-2      -8.60         0.80807       -12.67         
42.8979       0.05009       -166.24       9.508E-2      -8.56         9.519E-2      -8.71         0.80812       -12.85         
43.4978       0.05007       -166.12       9.507E-2      -8.66         9.523E-2      -8.83         0.80819       -13.04         
44.0978       0.05015       -165.92       9.509E-2      -8.81         9.522E-2      -8.95         0.80807       -13.23         
44.6978       0.05023       -165.82       9.503E-2      -8.92         9.522E-2      -9.10         0.8082        -13.42         
45.2978       0.05026       -165.64       9.508E-2      -9.04         9.521E-2      -9.17         0.80812       -13.60         
45.8977       0.05034       -165.43       9.506E-2      -9.15         9.521E-2      -9.31         0.80823       -13.78         
46.4977       0.05033       -165.27       9.502E-2      -9.29         9.521E-2      -9.42         0.80826       -13.98         
47.0977       0.05035       -165.05       9.509E-2      -9.43         9.525E-2      -9.52         0.80912       -14.14         
47.6976       0.0504        -164.88       9.503E-2      -9.55         9.517E-2      -9.65         0.80915       -14.32         
48.2976       0.05047       -164.74       9.507E-2      -9.70         9.518E-2      -9.76         0.80912       -14.49         
48.8976       0.05049       -164.61       9.503E-2      -9.82         9.519E-2      -9.89         0.80931       -14.68         
49.4975       0.05055       -164.40       9.501E-2      -9.95         9.523E-2      -9.98         0.80918       -14.84         
50.0975       0.05058       -164.28       9.499E-2      -10.03        9.518E-2      -10.13        0.80924       -15.02         
50.6975       0.0506        -164.05       9.499E-2      -10.17        9.521E-2      -10.26        0.80935       -15.21         
51.2975       0.05065       -163.90       9.493E-2      -10.27        9.525E-2      -10.42        0.80935       -15.40         
51.8974       0.05075       -163.75       9.486E-2      -10.34        9.532E-2      -10.57        0.80929       -15.56         
52.4974       0.05149       -163.87       9.48E-2       -10.36        9.621E-2      -11.02        0.80724       -15.74         
53.0974       0.05089       -163.14       9.401E-2      -10.14        9.518E-2      -10.77        0.80677       -15.84         
53.6973       0.05085       -163.21       9.496E-2      -10.73        9.518E-2      -10.87        0.80976       -16.10         
54.2973       0.0509        -163.09       9.495E-2      -10.84        9.518E-2      -11.02        0.80969       -16.28         
54.8973       0.05091       -162.94       9.497E-2      -10.98        9.515E-2      -11.12        0.80967       -16.43         
55.4972       0.05097       -162.82       9.495E-2      -11.08        9.516E-2      -11.22        0.80973       -16.61         
56.0972       0.05104       -162.60       9.495E-2      -11.20        9.515E-2      -11.35        0.80961       -16.78         
56.6972       0.05107       -162.41       9.493E-2      -11.31        9.512E-2      -11.44        0.80961       -16.93         
57.2972       0.05114       -162.24       9.494E-2      -11.44        9.517E-2      -11.54        0.8096        -17.11         
57.8971       0.05114       -162.06       9.492E-2      -11.54        9.515E-2      -11.67        0.80952       -17.28         
58.4971       0.05119       -161.93       9.499E-2      -11.66        9.514E-2      -11.82        0.80977       -17.46         
59.0971       0.05125       -161.77       9.496E-2      -11.77        9.514E-2      -11.91        0.8097        -17.62         
59.6970       0.05128       -161.59       9.496E-2      -11.89        9.518E-2      -12.05        0.80986       -17.79         
60.2970       0.05133       -161.40       9.491E-2      -12.01        9.512E-2      -12.15        0.80989       -17.95         
60.8970       0.05138       -161.20       9.497E-2      -12.13        9.518E-2      -12.31        0.80997       -18.13         
61.4969       0.05141       -161.11       9.493E-2      -12.26        9.514E-2      -12.43        0.80978       -18.30         
62.0969       0.05149       -160.92       9.494E-2      -12.37        9.514E-2      -12.54        0.80968       -18.47         
62.6969       0.05149       -160.83       9.495E-2      -12.48        9.511E-2      -12.66        0.80965       -18.64         
63.2969       0.05158       -160.62       9.493E-2      -12.59        9.513E-2      -12.77        0.80972       -18.82         
63.8968       0.05163       -160.50       9.494E-2      -12.71        9.513E-2      -12.89        0.80965       -18.96         
64.4968       0.0517        -160.34       9.493E-2      -12.83        9.513E-2      -13.02        0.80964       -19.15         
65.0968       0.05173       -160.16       9.491E-2      -12.95        9.515E-2      -13.14        0.80967       -19.31         
65.6967       0.05181       -159.98       9.493E-2      -13.08        9.515E-2      -13.25        0.80968       -19.47         
66.2967       0.05182       -159.84       9.493E-2      -13.17        9.51E-2       -13.38        0.80965       -19.64         
66.8967       0.05184       -159.69       9.491E-2      -13.31        9.512E-2      -13.47        0.80951       -19.82         
67.4966       0.05188       -159.53       9.486E-2      -13.41        9.515E-2      -13.59        0.80946       -20.00         
68.0966       0.05193       -159.40       9.489E-2      -13.52        9.511E-2      -13.69        0.80949       -20.17         
68.6966       0.05201       -159.18       9.492E-2      -13.65        9.513E-2      -13.81        0.80953       -20.32         
69.2966       0.05208       -159.03       9.488E-2      -13.78        9.513E-2      -13.91        0.80938       -20.51         
69.8965       0.05213       -158.85       9.489E-2      -13.89        9.511E-2      -14.04        0.80946       -20.68         
70.4965       0.05217       -158.78       9.489E-2      -14.00        9.511E-2      -14.16        0.80957       -20.85         
71.0965       0.0522        -158.59       9.487E-2      -14.12        9.513E-2      -14.28        0.8096        -21.01         
71.6964       0.05227       -158.41       9.485E-2      -14.25        9.512E-2      -14.40        0.80949       -21.18         
72.2964       0.05233       -158.34       9.492E-2      -14.37        9.505E-2      -14.53        0.80949       -21.34         
72.8964       0.05243       -158.20       9.493E-2      -14.50        9.511E-2      -14.64        0.80949       -21.53         
73.4963       0.0525        -158.00       9.49E-2       -14.64        9.506E-2      -14.78        0.80951       -21.69         
74.0963       0.05253       -157.89       9.489E-2      -14.73        9.512E-2      -14.88        0.80957       -21.87         
74.6963       0.05255       -157.80       9.485E-2      -14.87        9.51E-2       -14.98        0.80938       -22.02         
75.2963       0.05264       -157.59       9.486E-2      -14.97        9.508E-2      -15.10        0.80947       -22.20         
75.8962       0.05265       -157.46       9.49E-2       -15.10        9.508E-2      -15.24        0.80949       -22.36         
76.4962       0.05275       -157.25       9.488E-2      -15.19        9.509E-2      -15.36        0.80968       -22.54         
77.0962       0.05282       -157.17       9.489E-2      -15.31        9.51E-2       -15.44        0.8097        -22.70         
77.6961       0.05285       -157.03       9.483E-2      -15.44        9.511E-2      -15.58        0.80992       -22.87         
78.2961       0.05297       -156.84       9.489E-2      -15.53        9.51E-2       -15.66        0.80989       -23.04         
78.8961       0.053         -156.73       9.481E-2      -15.67        9.512E-2      -15.78        0.81002       -23.20         
79.4960       0.05306       -156.59       9.487E-2      -15.78        9.511E-2      -15.91        0.8102        -23.36         
80.0960       0.0531        -156.45       9.489E-2      -15.91        9.512E-2      -16.01        0.81022       -23.54         
80.6960       0.05314       -156.31       9.486E-2      -16.02        9.511E-2      -16.13        0.81029       -23.69         
81.2960       0.05323       -156.19       9.489E-2      -16.14        9.512E-2      -16.25        0.81039       -23.86         
81.8959       0.05327       -156.03       9.488E-2      -16.23        9.514E-2      -16.36        0.81055       -24.02         
82.4959       0.05336       -155.90       9.489E-2      -16.36        9.514E-2      -16.47        0.81076       -24.19         
83.0959       0.05343       -155.72       9.489E-2      -16.47        9.512E-2      -16.58        0.81085       -24.34         
83.6958       0.05348       -155.58       9.488E-2      -16.59        9.512E-2      -16.71        0.81094       -24.52         
84.2958       0.05353       -155.39       9.49E-2       -16.70        9.509E-2      -16.82        0.81104       -24.67         
84.8958       0.0536        -155.28       9.492E-2      -16.82        9.511E-2      -16.95        0.81099       -24.84         
85.4957       0.05368       -155.17       9.494E-2      -16.93        9.515E-2      -17.09        0.81121       -25.01         
86.0957       0.0537        -155.01       9.497E-2      -17.06        9.511E-2      -17.20        0.81108       -25.20         
86.6957       0.05378       -154.80       9.49E-2       -17.18        9.511E-2      -17.31        0.81124       -25.35         
87.2957       0.05385       -154.70       9.495E-2      -17.29        9.514E-2      -17.44        0.81137       -25.52         
87.8956       0.05389       -154.57       9.492E-2      -17.41        9.509E-2      -17.56        0.81138       -25.68         
88.4956       0.05401       -154.39       9.491E-2      -17.51        9.51E-2       -17.67        0.8114        -25.83         
89.0956       0.05407       -154.20       9.492E-2      -17.63        9.508E-2      -17.79        0.81145       -25.99         
89.6955       0.05412       -154.06       9.501E-2      -17.75        9.509E-2      -17.90        0.81167       -26.15         
90.2955       0.0542        -153.93       9.498E-2      -17.85        9.511E-2      -18.00        0.8118        -26.33         
90.8955       0.05424       -153.83       9.499E-2      -17.98        9.508E-2      -18.12        0.8118        -26.48         
91.4954       0.05434       -153.63       9.50E-2       -18.10        9.508E-2      -18.24        0.81195       -26.66         
92.0954       0.0544        -153.48       9.498E-2      -18.24        9.508E-2      -18.35        0.81183       -26.81         
