!    8/6/2020   03:16:27 
! Ref Plane: 0.000 mm
# MHZ S MA R  50
!
0.3000        0.04725       179.93        9.906E-2      -1.07         9.628E-2      -0.85         0.814         -0.48          
0.9000        0.04768       179.49        9.507E-2      -0.54         9.512E-2      -0.14         0.8086        -0.58          
1.4999        0.04777       179.48        9.519E-2      -0.34         9.526E-2      -0.25         0.80856       -0.73          
2.0999        0.04773       179.64        9.517E-2      -0.45         9.53E-2       -0.34         0.80892       -0.92          
2.6999        0.04775       179.79        9.518E-2      -0.55         9.535E-2      -0.46         0.8091        -1.07          
3.2999        0.04775       -179.91       9.519E-2      -0.62         9.534E-2      -0.62         0.80919       -1.24          
3.8998        0.04784       -179.73       9.514E-2      -0.75         9.535E-2      -0.73         0.80919       -1.42          
4.4998        0.0478        -179.52       9.513E-2      -0.87         9.537E-2      -0.83         0.80925       -1.57          
5.0998        0.04792       -179.21       9.515E-2      -0.96         9.534E-2      -0.93         0.8093        -1.75          
5.6997        0.04789       -178.94       9.509E-2      -1.07         9.539E-2      -1.08         0.80943       -1.92          
6.2997        0.04794       -178.81       9.51E-2       -1.20         9.537E-2      -1.18         0.80923       -2.11          
6.8997        0.04798       -178.57       9.511E-2      -1.35         9.535E-2      -1.30         0.80946       -2.29          
7.4996        0.04802       -178.29       9.507E-2      -1.42         9.537E-2      -1.39         0.80948       -2.49          
8.0996        0.04805       -178.06       9.51E-2       -1.55         9.539E-2      -1.54         0.80931       -2.67          
8.6996        0.04808       -177.84       9.511E-2      -1.65         9.54E-2       -1.62         0.8095        -2.84          
9.2996        0.04811       -177.58       9.516E-2      -1.79         9.54E-2       -1.77         0.80968       -3.02          
9.8995        0.04815       -177.35       9.512E-2      -1.92         9.54E-2       -1.89         0.80936       -3.19          
10.4995       0.04821       -177.15       9.508E-2      -2.03         9.54E-2       -2.01         0.80976       -3.37          
11.0995       0.04825       -176.88       9.509E-2      -2.14         9.537E-2      -2.10         0.80984       -3.55          
11.6994       0.04826       -176.67       9.509E-2      -2.23         9.541E-2      -2.22         0.8099        -3.74          
12.2994       0.04829       -176.41       9.507E-2      -2.35         9.537E-2      -2.32         0.80983       -3.91          
12.8994       0.0483        -176.20       9.51E-2       -2.40         9.539E-2      -2.46         0.80983       -4.08          
13.4993       0.0483        -175.94       9.517E-2      -2.59         9.535E-2      -2.59         0.80998       -4.28          
14.0993       0.04839       -175.80       9.51E-2       -2.67         9.535E-2      -2.71         0.81006       -4.44          
14.6993       0.0484        -175.48       9.505E-2      -2.84         9.54E-2       -2.81         0.80998       -4.61          
15.2993       0.04841       -175.32       9.506E-2      -2.88         9.534E-2      -2.94         0.81017       -4.80          
15.8992       0.04847       -175.12       9.506E-2      -2.99         9.535E-2      -3.08         0.81025       -4.96          
16.4992       0.0485        -174.91       9.507E-2      -3.13         9.536E-2      -3.21         0.81017       -5.15          
17.0992       0.04853       -174.68       9.51E-2       -3.22         9.533E-2      -3.29         0.81031       -5.33          
17.6991       0.04863       -174.44       9.508E-2      -3.35         9.534E-2      -3.42         0.81028       -5.51          
18.2991       0.04861       -174.23       9.505E-2      -3.48         9.534E-2      -3.53         0.8103        -5.66          
18.8991       0.04866       -174.02       9.507E-2      -3.60         9.533E-2      -3.62         0.81064       -5.83          
19.4990       0.04867       -173.77       9.512E-2      -3.73         9.532E-2      -3.76         0.81069       -6.01          
20.0990       0.04871       -173.55       9.507E-2      -3.83         9.534E-2      -3.88         0.81057       -6.20          
20.6990       0.04876       -173.35       9.511E-2      -3.96         9.535E-2      -3.98         0.81067       -6.36          
21.2990       0.04874       -173.02       9.505E-2      -4.09         9.532E-2      -4.09         0.81057       -6.53          
21.8989       0.04883       -172.94       9.506E-2      -4.19         9.533E-2      -4.20         0.81071       -6.72          
22.4989       0.04885       -172.67       9.503E-2      -4.34         9.539E-2      -4.31         0.81079       -6.89          
23.0989       0.04892       -172.53       9.505E-2      -4.41         9.535E-2      -4.44         0.81097       -7.07          
23.6988       0.04889       -172.26       9.51E-2       -4.51         9.532E-2      -4.55         0.81065       -7.24          
24.2988       0.04894       -172.09       9.504E-2      -4.62         9.531E-2      -4.69         0.81071       -7.41          
24.8988       0.04901       -171.83       9.503E-2      -4.75         9.534E-2      -4.81         0.81061       -7.58          
25.4987       0.04905       -171.65       9.505E-2      -4.84         9.528E-2      -4.92         0.81069       -7.75          
26.0987       0.04908       -171.40       9.499E-2      -4.96         9.53E-2       -5.00         0.81063       -7.92          
26.6987       0.04914       -171.22       9.502E-2      -5.07         9.527E-2      -5.11         0.81044       -8.08          
27.2987       0.04916       -170.98       9.508E-2      -5.17         9.527E-2      -5.24         0.81028       -8.26          
27.8986       0.04917       -170.79       9.504E-2      -5.33         9.527E-2      -5.35         0.81018       -8.42          
28.4986       0.04923       -170.56       9.504E-2      -5.42         9.527E-2      -5.46         0.81013       -8.61          
29.0986       0.04926       -170.46       9.502E-2      -5.50         9.524E-2      -5.59         0.80993       -8.76          
29.6985       0.04933       -170.25       9.50E-2       -5.63         9.522E-2      -5.68         0.80986       -8.95          
30.2985       0.04933       -170.02       9.498E-2      -5.75         9.522E-2      -5.83         0.8096        -9.11          
30.8985       0.04937       -169.76       9.499E-2      -5.89         9.52E-2       -5.88         0.80968       -9.29          
31.4984       0.04943       -169.56       9.495E-2      -5.96         9.515E-2      -6.02         0.8097        -9.45          
32.0984       0.04945       -169.47       9.497E-2      -6.09         9.521E-2      -6.13         0.80969       -9.62          
32.6984       0.04949       -169.19       9.496E-2      -6.19         9.521E-2      -6.23         0.80959       -9.78          
33.2984       0.04952       -169.06       9.496E-2      -6.29         9.517E-2      -6.35         0.8096        -9.94          
33.8983       0.04953       -168.85       9.50E-2       -6.42         9.518E-2      -6.46         0.80979       -10.09         
34.4983       0.04958       -168.63       9.498E-2      -6.50         9.518E-2      -6.55         0.80993       -10.24         
35.0983       0.0496        -168.50       9.499E-2      -6.63         9.52E-2       -6.70         0.81004       -10.42         
35.6982       0.04966       -168.28       9.499E-2      -6.73         9.518E-2      -6.78         0.81025       -10.58         
36.2982       0.04969       -168.08       9.502E-2      -6.85         9.513E-2      -6.93         0.81021       -10.77         
36.8982       0.0497        -167.87       9.496E-2      -6.95         9.514E-2      -7.03         0.81019       -10.94         
37.4981       0.04976       -167.70       9.499E-2      -7.06         9.515E-2      -7.14         0.81014       -11.11         
38.0981       0.04981       -167.52       9.50E-2       -7.18         9.514E-2      -7.25         0.81025       -11.29         
38.6981       0.04985       -167.34       9.497E-2      -7.24         9.513E-2      -7.38         0.81023       -11.47         
39.2981       0.04986       -167.16       9.494E-2      -7.38         9.507E-2      -7.47         0.81027       -11.63         
39.8980       0.04989       -167.00       9.496E-2      -7.52         9.511E-2      -7.64         0.81013       -11.81         
40.4980       0.04991       -166.75       9.495E-2      -7.62         9.51E-2       -7.68         0.81023       -11.97         
41.0980       0.04997       -166.53       9.497E-2      -7.73         9.512E-2      -7.81         0.81003       -12.15         
41.6979       0.05          -166.42       9.494E-2      -7.81         9.511E-2      -7.92         0.81032       -12.33         
42.2979       0.05006       -166.27       9.492E-2      -7.93         9.513E-2      -8.03         0.81026       -12.52         
42.8979       0.0501        -166.09       9.494E-2      -8.07         9.507E-2      -8.12         0.81037       -12.69         
43.4978       0.05006       -165.93       9.491E-2      -8.16         9.51E-2       -8.25         0.81051       -12.88         
44.0978       0.05014       -165.74       9.49E-2       -8.29         9.51E-2       -8.36         0.81047       -13.07         
44.6978       0.05021       -165.63       9.489E-2      -8.39         9.509E-2      -8.50         0.81069       -13.25         
45.2978       0.05024       -165.42       9.491E-2      -8.50         9.506E-2      -8.56         0.81067       -13.43         
45.8977       0.05031       -165.22       9.489E-2      -8.63         9.507E-2      -8.69         0.81089       -13.61         
46.4977       0.05032       -165.05       9.482E-2      -8.75         9.505E-2      -8.79         0.81091       -13.80         
47.0977       0.05031       -164.86       9.496E-2      -8.88         9.51E-2       -8.89         0.81188       -13.96         
47.6976       0.05038       -164.67       9.486E-2      -8.98         9.501E-2      -9.00         0.81202       -14.13         
48.2976       0.05044       -164.55       9.491E-2      -9.12         9.505E-2      -9.10         0.81206       -14.29         
48.8976       0.05047       -164.38       9.484E-2      -9.22         9.504E-2      -9.21         0.81234       -14.48         
49.4975       0.05054       -164.20       9.482E-2      -9.35         9.509E-2      -9.33         0.81233       -14.64         
50.0975       0.05052       -164.04       9.481E-2      -9.42         9.499E-2      -9.44         0.81241       -14.81         
50.6975       0.05057       -163.82       9.482E-2      -9.55         9.507E-2      -9.57         0.81261       -14.99         
51.2975       0.05062       -163.69       9.478E-2      -9.65         9.507E-2      -9.71         0.81273       -15.17         
51.8974       0.05071       -163.56       9.474E-2      -9.75         9.512E-2      -9.84         0.81275       -15.34         
52.4974       0.05144       -163.63       9.47E-2       -9.78         9.585E-2      -10.18        0.81072       -15.52         
53.0974       0.05074       -163.11       9.454E-2      -9.82         9.502E-2      -10.03        0.81039       -15.61         
53.6973       0.0508        -163.01       9.479E-2      -10.08        9.502E-2      -10.15        0.81348       -15.86         
54.2973       0.05084       -162.90       9.481E-2      -10.19        9.50E-2       -10.27        0.81345       -16.03         
54.8973       0.05087       -162.70       9.48E-2       -10.32        9.501E-2      -10.36        0.81359       -16.19         
55.4972       0.05089       -162.55       9.478E-2      -10.41        9.504E-2      -10.46        0.81373       -16.35         
56.0972       0.05096       -162.39       9.479E-2      -10.52        9.50E-2       -10.57        0.81369       -16.53         
56.6972       0.05098       -162.20       9.479E-2      -10.62        9.498E-2      -10.66        0.81377       -16.67         
57.2972       0.05106       -162.01       9.474E-2      -10.72        9.499E-2      -10.76        0.81392       -16.84         
57.8971       0.05108       -161.84       9.473E-2      -10.84        9.499E-2      -10.88        0.81393       -17.00         
58.4971       0.05112       -161.72       9.481E-2      -10.95        9.503E-2      -11.03        0.81426       -17.18         
59.0971       0.05114       -161.52       9.481E-2      -11.04        9.503E-2      -11.09        0.81428       -17.33         
59.6970       0.05121       -161.33       9.479E-2      -11.15        9.502E-2      -11.23        0.81454       -17.51         
60.2970       0.05123       -161.18       9.474E-2      -11.25        9.501E-2      -11.32        0.81464       -17.66         
60.8970       0.0513        -160.98       9.477E-2      -11.35        9.504E-2      -11.46        0.81485       -17.83         
61.4969       0.05132       -160.88       9.476E-2      -11.49        9.50E-2       -11.57        0.81475       -18.00         
62.0969       0.05137       -160.66       9.478E-2      -11.60        9.503E-2      -11.67        0.81472       -18.16         
62.6969       0.05137       -160.61       9.479E-2      -11.70        9.496E-2      -11.81        0.81483       -18.33         
63.2969       0.05145       -160.40       9.478E-2      -11.81        9.502E-2      -11.89        0.81497       -18.50         
63.8968       0.05151       -160.27       9.478E-2      -11.91        9.501E-2      -12.02        0.815         -18.64         
64.4968       0.05156       -160.07       9.479E-2      -12.04        9.50E-2       -12.13        0.81516       -18.82         
65.0968       0.0516        -159.92       9.476E-2      -12.14        9.503E-2      -12.24        0.8153        -18.98         
65.6967       0.05169       -159.72       9.479E-2      -12.24        9.503E-2      -12.34        0.81538       -19.13         
66.2967       0.05168       -159.60       9.478E-2      -12.34        9.498E-2      -12.45        0.81545       -19.30         
66.8967       0.0517        -159.45       9.477E-2      -12.47        9.501E-2      -12.56        0.81538       -19.48         
67.4966       0.05175       -159.25       9.474E-2      -12.58        9.503E-2      -12.67        0.8155        -19.65         
68.0966       0.05175       -159.14       9.475E-2      -12.67        9.504E-2      -12.76        0.81562       -19.81         
68.6966       0.05185       -158.91       9.479E-2      -12.78        9.502E-2      -12.87        0.81573       -19.95         
69.2966       0.05194       -158.77       9.473E-2      -12.90        9.503E-2      -12.97        0.81571       -20.15         
69.8965       0.05198       -158.59       9.478E-2      -13.03        9.504E-2      -13.08        0.81589       -20.31         
70.4965       0.052         -158.50       9.479E-2      -13.12        9.501E-2      -13.18        0.81613       -20.48         
71.0965       0.05202       -158.34       9.476E-2      -13.23        9.502E-2      -13.29        0.81627       -20.63         
71.6964       0.05212       -158.15       9.473E-2      -13.34        9.502E-2      -13.42        0.81626       -20.79         
72.2964       0.05214       -158.05       9.478E-2      -13.46        9.496E-2      -13.53        0.81635       -20.95         
72.8964       0.05223       -157.94       9.479E-2      -13.60        9.501E-2      -13.63        0.81651       -21.14         
73.4963       0.0523        -157.77       9.477E-2      -13.71        9.498E-2      -13.76        0.81665       -21.29         
74.0963       0.05232       -157.62       9.476E-2      -13.79        9.502E-2      -13.85        0.81684       -21.46         
74.6963       0.05234       -157.49       9.476E-2      -13.92        9.501E-2      -13.95        0.8167        -21.62         
75.2963       0.05242       -157.32       9.475E-2      -14.03        9.499E-2      -14.06        0.81695       -21.79         
75.8962       0.05245       -157.17       9.476E-2      -14.15        9.502E-2      -14.21        0.81706       -21.95         
76.4962       0.05251       -156.95       9.478E-2      -14.24        9.501E-2      -14.31        0.81737       -22.12         
77.0962       0.05259       -156.90       9.479E-2      -14.34        9.505E-2      -14.41        0.8175        -22.28         
77.6961       0.05266       -156.73       9.474E-2      -14.45        9.505E-2      -14.53        0.81785       -22.44         
78.2961       0.05272       -156.58       9.476E-2      -14.56        9.503E-2      -14.62        0.81789       -22.60         
78.8961       0.05275       -156.42       9.475E-2      -14.68        9.502E-2      -14.72        0.81818       -22.76         
79.4960       0.0528        -156.26       9.479E-2      -14.78        9.509E-2      -14.84        0.8185        -22.91         
80.0960       0.05282       -156.15       9.479E-2      -14.91        9.505E-2      -14.93        0.81861       -23.09         
80.6960       0.05287       -156.02       9.478E-2      -15.02        9.504E-2      -15.03        0.81883       -23.24         
81.2960       0.05294       -155.90       9.481E-2      -15.12        9.508E-2      -15.15        0.81904       -23.40         
81.8959       0.053         -155.73       9.479E-2      -15.20        9.509E-2      -15.26        0.81931       -23.56         
82.4959       0.05307       -155.56       9.48E-2       -15.34        9.51E-2       -15.36        0.81959       -23.73         
83.0959       0.05313       -155.42       9.482E-2      -15.42        9.51E-2       -15.46        0.81979       -23.87         
83.6958       0.05318       -155.26       9.482E-2      -15.54        9.507E-2      -15.59        0.82004       -24.04         
84.2958       0.05324       -155.08       9.483E-2      -15.66        9.507E-2      -15.67        0.82025       -24.20         
84.8958       0.05331       -154.95       9.485E-2      -15.76        9.508E-2      -15.82        0.82033       -24.36         
85.4957       0.05337       -154.83       9.49E-2       -15.90        9.507E-2      -15.94        0.82068       -24.53         
86.0957       0.05339       -154.65       9.486E-2      -15.99        9.508E-2      -16.06        0.82066       -24.70         
86.6957       0.05344       -154.46       9.486E-2      -16.11        9.51E-2       -16.16        0.82098       -24.85         
87.2957       0.05353       -154.37       9.488E-2      -16.21        9.508E-2      -16.28        0.82125       -25.02         
87.8956       0.05355       -154.24       9.49E-2       -16.33        9.505E-2      -16.37        0.82133       -25.17         
88.4956       0.05367       -154.05       9.485E-2      -16.43        9.509E-2      -16.47        0.82142       -25.33         
89.0956       0.05374       -153.87       9.489E-2      -16.53        9.507E-2      -16.58        0.82164       -25.48         
89.6955       0.05379       -153.70       9.493E-2      -16.65        9.509E-2      -16.70        0.82194       -25.63         
90.2955       0.05388       -153.59       9.492E-2      -16.74        9.51E-2       -16.79        0.82226       -25.81         
90.8955       0.05389       -153.49       9.495E-2      -16.87        9.508E-2      -16.91        0.82229       -25.96         
91.4954       0.05397       -153.28       9.496E-2      -16.95        9.509E-2      -17.02        0.82259       -26.13         
92.0954       0.05405       -153.12       9.495E-2      -17.08        9.509E-2      -17.12        0.8226        -26.28         
