!    8/6/2020   03:19:14 
! Ref Plane: 0.000 mm
# MHZ S MA R  50
!
0.3000        0.04701       179.78        9.898E-2      -0.97         9.624E-2      -0.86         0.8147        -0.49          
0.9000        0.0476        179.46        9.506E-2      -0.43         9.511E-2      -0.20         0.80888       -0.55          
1.4999        0.04771       179.50        9.517E-2      -0.24         9.526E-2      -0.32         0.80865       -0.71          
2.0999        0.04769       179.63        9.517E-2      -0.38         9.529E-2      -0.41         0.80904       -0.89          
2.6999        0.04772       179.80        9.513E-2      -0.48         9.534E-2      -0.55         0.80924       -1.04          
3.2999        0.04773       -179.89       9.516E-2      -0.56         9.535E-2      -0.69         0.80931       -1.20          
3.8998        0.04783       -179.74       9.513E-2      -0.71         9.535E-2      -0.82         0.80925       -1.38          
4.4998        0.04781       -179.49       9.511E-2      -0.82         9.537E-2      -0.92         0.80936       -1.54          
5.0998        0.04792       -179.21       9.509E-2      -0.92         9.532E-2      -1.01         0.80935       -1.71          
5.6997        0.04789       -178.96       9.511E-2      -1.06         9.537E-2      -1.17         0.80953       -1.89          
6.2997        0.04793       -178.81       9.508E-2      -1.21         9.536E-2      -1.27         0.80934       -2.08          
6.8997        0.04798       -178.57       9.512E-2      -1.38         9.533E-2      -1.41         0.80955       -2.26          
7.4996        0.04803       -178.28       9.506E-2      -1.44         9.538E-2      -1.54         0.80958       -2.45          
8.0996        0.04806       -178.08       9.507E-2      -1.58         9.536E-2      -1.67         0.80932       -2.63          
8.6996        0.04808       -177.87       9.507E-2      -1.67         9.539E-2      -1.77         0.80953       -2.80          
9.2996        0.04811       -177.61       9.515E-2      -1.84         9.541E-2      -1.92         0.80967       -2.98          
9.8995        0.04813       -177.38       9.509E-2      -1.98         9.539E-2      -2.02         0.80933       -3.15          
10.4995       0.04818       -177.16       9.508E-2      -2.10         9.541E-2      -2.16         0.80973       -3.33          
11.0995       0.04826       -176.93       9.509E-2      -2.22         9.541E-2      -2.26         0.80982       -3.51          
11.6994       0.04828       -176.67       9.508E-2      -2.32         9.54E-2       -2.39         0.80987       -3.70          
12.2994       0.04829       -176.44       9.507E-2      -2.45         9.538E-2      -2.50         0.80976       -3.87          
12.8994       0.04832       -176.24       9.51E-2       -2.54         9.537E-2      -2.66         0.80975       -4.04          
13.4993       0.04833       -175.99       9.516E-2      -2.72         9.537E-2      -2.78         0.80994       -4.24          
14.0993       0.04838       -175.82       9.512E-2      -2.80         9.537E-2      -2.92         0.8099        -4.40          
14.6993       0.04843       -175.55       9.506E-2      -2.98         9.541E-2      -3.03         0.80983       -4.57          
15.2993       0.04841       -175.41       9.508E-2      -3.04         9.536E-2      -3.16         0.80999       -4.76          
15.8992       0.04847       -175.18       9.509E-2      -3.16         9.537E-2      -3.30         0.81005       -4.92          
16.4992       0.04853       -174.98       9.51E-2       -3.31         9.538E-2      -3.44         0.80993       -5.11          
17.0992       0.04858       -174.72       9.513E-2      -3.40         9.536E-2      -3.56         0.81009       -5.29          
17.6991       0.04866       -174.49       9.512E-2      -3.57         9.536E-2      -3.69         0.80996       -5.47          
18.2991       0.04865       -174.32       9.509E-2      -3.67         9.539E-2      -3.81         0.81001       -5.63          
18.8991       0.04867       -174.10       9.513E-2      -3.81         9.538E-2      -3.91         0.81031       -5.80          
19.4990       0.04868       -173.87       9.517E-2      -3.94         9.537E-2      -4.07         0.8103        -5.98          
20.0990       0.04876       -173.62       9.512E-2      -4.04         9.538E-2      -4.18         0.81021       -6.16          
20.6990       0.04879       -173.43       9.515E-2      -4.22         9.54E-2       -4.31         0.81026       -6.33          
21.2990       0.04877       -173.16       9.512E-2      -4.34         9.54E-2       -4.41         0.81013       -6.50          
21.8989       0.04882       -173.01       9.51E-2       -4.44         9.542E-2      -4.55         0.81025       -6.69          
22.4989       0.04887       -172.77       9.511E-2      -4.60         9.545E-2      -4.66         0.81031       -6.86          
23.0989       0.04893       -172.60       9.511E-2      -4.69         9.544E-2      -4.79         0.81046       -7.04          
23.6988       0.04893       -172.32       9.517E-2      -4.80         9.541E-2      -4.94         0.8101        -7.21          
24.2988       0.04896       -172.17       9.513E-2      -4.92         9.54E-2       -5.04         0.81011       -7.38          
24.8988       0.04905       -171.95       9.513E-2      -5.07         9.542E-2      -5.20         0.81001       -7.56          
25.4987       0.04907       -171.75       9.516E-2      -5.15         9.536E-2      -5.32         0.80997       -7.73          
26.0987       0.04911       -171.49       9.509E-2      -5.29         9.542E-2      -5.41         0.80987       -7.91          
26.6987       0.04918       -171.32       9.512E-2      -5.41         9.538E-2      -5.54         0.80969       -8.07          
27.2987       0.04918       -171.10       9.519E-2      -5.52         9.54E-2       -5.66         0.8095        -8.25          
27.8986       0.04924       -170.90       9.515E-2      -5.69         9.538E-2      -5.78         0.80928       -8.40          
28.4986       0.04926       -170.65       9.517E-2      -5.81         9.538E-2      -5.92         0.80926       -8.60          
29.0986       0.04933       -170.57       9.516E-2      -5.90         9.538E-2      -6.06         0.809         -8.76          
29.6985       0.04938       -170.35       9.514E-2      -6.03         9.535E-2      -6.14         0.80888       -8.95          
30.2985       0.04937       -170.11       9.512E-2      -6.15         9.536E-2      -6.30         0.80857       -9.12          
30.8985       0.04943       -169.89       9.515E-2      -6.31         9.534E-2      -6.39         0.8086        -9.30          
31.4984       0.04946       -169.71       9.512E-2      -6.40         9.529E-2      -6.51         0.80853       -9.46          
32.0984       0.04951       -169.56       9.514E-2      -6.55         9.539E-2      -6.65         0.80853       -9.63          
32.6984       0.04952       -169.33       9.514E-2      -6.65         9.534E-2      -6.76         0.80837       -9.80          
33.2984       0.04957       -169.19       9.515E-2      -6.77         9.531E-2      -6.90         0.80833       -9.96          
33.8983       0.04958       -168.97       9.518E-2      -6.90         9.534E-2      -7.01         0.80844       -10.11         
34.4983       0.04967       -168.77       9.516E-2      -7.00         9.534E-2      -7.11         0.80856       -10.27         
35.0983       0.04965       -168.62       9.52E-2       -7.12         9.538E-2      -7.28         0.80857       -10.46         
35.6982       0.04968       -168.42       9.517E-2      -7.23         9.535E-2      -7.38         0.80871       -10.62         
36.2982       0.04975       -168.22       9.522E-2      -7.38         9.534E-2      -7.53         0.80862       -10.81         
36.8982       0.04978       -168.01       9.516E-2      -7.50         9.533E-2      -7.65         0.80851       -10.98         
37.4981       0.04985       -167.86       9.521E-2      -7.62         9.537E-2      -7.76         0.80845       -11.16         
38.0981       0.04987       -167.66       9.52E-2       -7.72         9.536E-2      -7.89         0.80849       -11.35         
38.6981       0.04991       -167.47       9.521E-2      -7.82         9.534E-2      -8.01         0.80843       -11.53         
39.2981       0.04994       -167.32       9.521E-2      -7.96         9.531E-2      -8.12         0.80839       -11.70         
39.8980       0.04997       -167.13       9.521E-2      -8.12         9.532E-2      -8.29         0.80821       -11.88         
40.4980       0.04998       -166.92       9.524E-2      -8.24         9.535E-2      -8.38         0.80822       -12.05         
41.0980       0.05004       -166.72       9.52E-2       -8.36         9.536E-2      -8.52         0.80798       -12.24         
41.6979       0.05009       -166.56       9.52E-2       -8.46         9.536E-2      -8.62         0.80821       -12.42         
42.2979       0.05014       -166.43       9.52E-2       -8.58         9.536E-2      -8.77         0.80802       -12.61         
42.8979       0.05017       -166.25       9.519E-2      -8.74         9.532E-2      -8.87         0.8081        -12.80         
43.4978       0.05016       -166.10       9.518E-2      -8.84         9.535E-2      -9.00         0.80811       -12.99         
44.0978       0.05025       -165.89       9.52E-2       -8.98         9.533E-2      -9.12         0.80803       -13.18         
44.6978       0.05029       -165.81       9.516E-2      -9.11         9.535E-2      -9.27         0.80817       -13.37         
45.2978       0.05035       -165.62       9.523E-2      -9.24         9.536E-2      -9.34         0.80804       -13.55         
45.8977       0.05042       -165.37       9.519E-2      -9.36         9.534E-2      -9.50         0.80819       -13.73         
46.4977       0.05039       -165.26       9.514E-2      -9.49         9.534E-2      -9.61         0.80818       -13.93         
47.0977       0.05043       -165.07       9.522E-2      -9.65         9.538E-2      -9.72         0.8091        -14.10         
47.6976       0.05049       -164.86       9.517E-2      -9.76         9.53E-2       -9.84         0.80914       -14.28         
48.2976       0.05054       -164.75       9.524E-2      -9.93         9.532E-2      -9.94         0.80911       -14.45         
48.8976       0.05056       -164.57       9.52E-2       -10.04        9.533E-2      -10.09        0.80929       -14.64         
49.4975       0.05064       -164.37       9.516E-2      -10.18        9.54E-2       -10.18        0.80917       -14.81         
50.0975       0.05066       -164.24       9.515E-2      -10.27        9.532E-2      -10.33        0.80922       -14.99         
50.6975       0.05068       -164.04       9.513E-2      -10.41        9.536E-2      -10.48        0.80933       -15.18         
51.2975       0.05072       -163.89       9.511E-2      -10.52        9.541E-2      -10.64        0.80935       -15.37         
51.8974       0.05082       -163.75       9.505E-2      -10.62        9.548E-2      -10.79        0.80923       -15.54         
52.4974       0.05155       -163.82       9.501E-2      -10.62        9.632E-2      -11.22        0.8072        -15.72         
53.0974       0.05093       -163.20       9.44E-2       -10.48        9.535E-2      -11.01        0.80673       -15.82         
53.6973       0.05091       -163.21       9.513E-2      -10.98        9.537E-2      -11.11        0.80973       -16.08         
54.2973       0.05098       -163.11       9.513E-2      -11.10        9.537E-2      -11.26        0.80963       -16.26         
54.8973       0.051         -162.96       9.513E-2      -11.24        9.536E-2      -11.36        0.80968       -16.42         
55.4972       0.05103       -162.80       9.514E-2      -11.34        9.538E-2      -11.48        0.80976       -16.59         
56.0972       0.05109       -162.61       9.515E-2      -11.49        9.535E-2      -11.61        0.80959       -16.78         
56.6972       0.05116       -162.40       9.513E-2      -11.59        9.533E-2      -11.70        0.80951       -16.93         
57.2972       0.05121       -162.23       9.514E-2      -11.73        9.533E-2      -11.81        0.80957       -17.11         
57.8971       0.05123       -162.02       9.513E-2      -11.85        9.536E-2      -11.97        0.80956       -17.27         
58.4971       0.05129       -161.94       9.518E-2      -11.97        9.537E-2      -12.11        0.80978       -17.46         
59.0971       0.0513        -161.77       9.518E-2      -12.07        9.537E-2      -12.21        0.80972       -17.62         
59.6970       0.05137       -161.56       9.518E-2      -12.21        9.542E-2      -12.36        0.80985       -17.80         
60.2970       0.05139       -161.41       9.515E-2      -12.31        9.538E-2      -12.47        0.80987       -17.97         
60.8970       0.05147       -161.22       9.518E-2      -12.45        9.54E-2       -12.62        0.80995       -18.15         
61.4969       0.05147       -161.12       9.518E-2      -12.58        9.54E-2       -12.74        0.80977       -18.32         
62.0969       0.05154       -160.93       9.516E-2      -12.70        9.54E-2       -12.86        0.80966       -18.49         
62.6969       0.05154       -160.83       9.518E-2      -12.82        9.536E-2      -12.99        0.80959       -18.67         
63.2969       0.05165       -160.61       9.519E-2      -12.95        9.54E-2       -13.11        0.80967       -18.85         
63.8968       0.05168       -160.51       9.521E-2      -13.07        9.537E-2      -13.23        0.8096        -19.01         
64.4968       0.05175       -160.33       9.519E-2      -13.18        9.542E-2      -13.35        0.80963       -19.19         
65.0968       0.05181       -160.17       9.52E-2       -13.31        9.541E-2      -13.50        0.80963       -19.35         
65.6967       0.05188       -159.97       9.52E-2       -13.43        9.541E-2      -13.60        0.80963       -19.52         
66.2967       0.05187       -159.83       9.518E-2      -13.53        9.54E-2       -13.72        0.80961       -19.70         
66.8967       0.05189       -159.70       9.519E-2      -13.68        9.541E-2      -13.84        0.80947       -19.88         
67.4966       0.05196       -159.52       9.516E-2      -13.80        9.543E-2      -13.96        0.80944       -20.06         
68.0966       0.05198       -159.38       9.515E-2      -13.91        9.54E-2       -14.06        0.80944       -20.23         
68.6966       0.05208       -159.19       9.517E-2      -14.03        9.544E-2      -14.19        0.80946       -20.38         
69.2966       0.05216       -159.05       9.52E-2       -14.17        9.545E-2      -14.30        0.80932       -20.58         
69.8965       0.05218       -158.86       9.521E-2      -14.32        9.544E-2      -14.42        0.8094        -20.76         
70.4965       0.05224       -158.80       9.522E-2      -14.41        9.541E-2      -14.56        0.80948       -20.93         
71.0965       0.05229       -158.63       9.518E-2      -14.56        9.546E-2      -14.68        0.80951       -21.09         
71.6964       0.05238       -158.43       9.519E-2      -14.67        9.544E-2      -14.80        0.8094        -21.26         
72.2964       0.05239       -158.36       9.521E-2      -14.80        9.539E-2      -14.94        0.8094        -21.43         
72.8964       0.0525        -158.25       9.525E-2      -14.94        9.545E-2      -15.06        0.80938       -21.62         
73.4963       0.0526        -158.06       9.521E-2      -15.07        9.542E-2      -15.19        0.80941       -21.79         
74.0963       0.05258       -157.92       9.522E-2      -15.18        9.545E-2      -15.33        0.80952       -21.97         
74.6963       0.05262       -157.85       9.522E-2      -15.30        9.543E-2      -15.44        0.80928       -22.13         
75.2963       0.05269       -157.62       9.522E-2      -15.44        9.544E-2      -15.55        0.80935       -22.31         
75.8962       0.05276       -157.54       9.525E-2      -15.56        9.547E-2      -15.69        0.80939       -22.47         
76.4962       0.05283       -157.32       9.523E-2      -15.67        9.546E-2      -15.81        0.8096        -22.65         
77.0962       0.05289       -157.23       9.523E-2      -15.78        9.548E-2      -15.93        0.80956       -22.82         
77.6961       0.05295       -157.09       9.521E-2      -15.92        9.549E-2      -16.06        0.80979       -22.99         
78.2961       0.05305       -156.91       9.525E-2      -16.02        9.551E-2      -16.16        0.80974       -23.16         
78.8961       0.05306       -156.79       9.522E-2      -16.16        9.552E-2      -16.27        0.80989       -23.33         
79.4960       0.05311       -156.63       9.526E-2      -16.29        9.551E-2      -16.41        0.81008       -23.49         
80.0960       0.05318       -156.51       9.527E-2      -16.42        9.552E-2      -16.51        0.81004       -23.67         
80.6960       0.05322       -156.38       9.525E-2      -16.54        9.549E-2      -16.63        0.81017       -23.83         
81.2960       0.05328       -156.27       9.528E-2      -16.65        9.555E-2      -16.77        0.81028       -24.00         
81.8959       0.05337       -156.14       9.527E-2      -16.80        9.552E-2      -16.88        0.81041       -24.16         
82.4959       0.05345       -155.96       9.531E-2      -16.90        9.555E-2      -17.00        0.8106        -24.34         
83.0959       0.0535        -155.81       9.528E-2      -17.03        9.553E-2      -17.12        0.81059       -24.49         
83.6958       0.05354       -155.66       9.531E-2      -17.14        9.556E-2      -17.26        0.81076       -24.67         
84.2958       0.05363       -155.50       9.533E-2      -17.28        9.551E-2      -17.37        0.81084       -24.84         
84.8958       0.0537        -155.38       9.533E-2      -17.40        9.555E-2      -17.52        0.81074       -25.00         
85.4957       0.05376       -155.27       9.537E-2      -17.52        9.554E-2      -17.66        0.81101       -25.18         
86.0957       0.0538        -155.12       9.539E-2      -17.65        9.553E-2      -17.78        0.81085       -25.36         
86.6957       0.05386       -154.92       9.535E-2      -17.77        9.554E-2      -17.91        0.811         -25.52         
87.2957       0.05394       -154.85       9.54E-2       -17.90        9.555E-2      -18.04        0.81117       -25.70         
87.8956       0.05398       -154.70       9.539E-2      -18.02        9.553E-2      -18.15        0.81114       -25.86         
88.4956       0.0541        -154.51       9.537E-2      -18.13        9.553E-2      -18.27        0.81113       -26.02         
89.0956       0.05417       -154.38       9.541E-2      -18.26        9.554E-2      -18.41        0.81123       -26.18         
89.6955       0.05423       -154.20       9.544E-2      -18.38        9.555E-2      -18.53        0.81139       -26.34         
90.2955       0.0543        -154.07       9.54E-2       -18.50        9.555E-2      -18.63        0.81156       -26.52         
90.8955       0.05435       -153.97       9.544E-2      -18.62        9.555E-2      -18.74        0.8115        -26.68         
91.4954       0.05444       -153.78       9.547E-2      -18.76        9.555E-2      -18.88        0.81163       -26.86         
92.0954       0.0545        -153.62       9.546E-2      -18.90        9.556E-2      -19.01        0.81153       -27.01         
