!    8/10/2020   01:51:11 
! Ref Plane: 0.000 mm
# MHZ S MA R  50
!
0.3000        0.82123       0.20          6.076E-5      -51.48        3.901E-5      74.10         0.99576       -0.36          
0.9000        0.81899       0.26          8.471E-5      -142.48       8.18E-5       -96.76        0.99705       -0.30          
1.4999        0.8202        0.24          2.809E-5      173.79        5.324E-5      28.70         0.99837       -0.30          
2.0999        0.82004       0.21          8.546E-5      -93.71        3.236E-5      123.88        0.99879       -0.24          
2.6999        0.81992       0.16          5.282E-5      -84.86        2.63E-5       18.59         0.99907       -0.20          
3.2999        0.81982       0.11          1.10E-5       -46.89        1.645E-5      1.51          0.99897       -0.17          
3.8998        0.81976       0.08          1.988E-5      -134.79       1.163E-5      -106.79       0.99901       -0.16          
4.4998        0.81959       0.02          1.198E-5      -77.11        2.604E-5      15.72         0.99904       -0.14          
5.0998        0.81952       -0.02         3.218E-5      174.78        1.873E-5      88.25         0.99903       -0.13          
5.6997        0.81945       -0.06         4.656E-5      82.88         3.396E-5      -83.43        0.99912       -0.12          
6.2997        0.81943       -0.11         6.935E-5      130.44        3.517E-5      33.41         0.99907       -0.11          
6.8997        0.8194        -0.15         5.823E-5      -84.18        1.723E-5      -107.90       0.99915       -0.11          
7.4996        0.81939       -0.18         4.213E-5      101.28        5.878E-5      97.75         0.99923       -0.10          
8.0996        0.81946       -0.22         6.63E-5       -128.61       1.986E-5      -28.91        0.99917       -0.10          
8.6996        0.81933       -0.28         3.145E-5      111.49        3.932E-5      126.19        0.99915       -0.10          
9.2996        0.81929       -0.32         5.758E-5      -47.11        4.682E-5      -15.26        0.99922       -0.10          
9.8995        0.81937       -0.36         2.933E-5      -92.25        6.558E-6      20.11         0.99921       -0.09          
10.4995       0.81921       -0.41         3.589E-5      144.66        1.154E-5      -127.53       0.99922       -0.09          
11.0995       0.81911       -0.44         6.344E-5      -57.75        2.112E-5      12.70         0.99923       -0.09          
11.6994       0.8191        -0.48         2.668E-5      62.94         5.137E-5      34.37         0.9992        -0.09          
12.2994       0.81914       -0.52         8.301E-5      -137.36       3.788E-5      82.01         0.99924       -0.08          
12.8994       0.81916       -0.56         8.251E-5      69.99         3.174E-5      50.89         0.99921       -0.09          
13.4993       0.81908       -0.60         6.706E-5      -33.68        2.959E-6      118.31        0.99928       -0.09          
14.0993       0.81908       -0.64         2.184E-5      82.07         3.938E-5      -66.33        0.99926       -0.09          
14.6993       0.81908       -0.69         8.837E-5      -128.04       3.543E-5      63.28         0.99924       -0.09          
15.2993       0.81894       -0.73         7.919E-5      127.40        6.77E-5       59.80         0.99928       -0.09          
15.8992       0.81888       -0.78         5.159E-5      77.13         1.741E-5      -135.25       0.99937       -0.09          
16.4992       0.819         -0.81         5.234E-5      130.27        2.988E-5      -22.62        0.99937       -0.09          
17.0992       0.81887       -0.84         6.019E-5      78.40         1.13E-5       -28.80        0.99938       -0.09          
17.6991       0.81891       -0.88         4.17E-5       117.99        3.229E-5      140.55        0.9993        -0.09          
18.2991       0.81886       -0.92         4.416E-5      141.37        1.642E-5      143.11        0.99933       -0.09          
18.8991       0.81872       -0.97         1.075E-5      -115.74       3.997E-5      115.88        0.99933       -0.09          
19.4990       0.81882       -1.01         3.249E-5      -28.01        1.689E-5      -0.50         0.99943       -0.09          
20.0990       0.8188        -1.05         3.239E-5      -25.61        1.703E-6      118.08        0.99942       -0.09          
20.6990       0.81878       -1.09         6.31E-5       -36.99        2.336E-5      71.76         0.99935       -0.09          
21.2990       0.81878       -1.14         3.677E-5      -137.02       1.703E-5      66.23         0.99943       -0.09          
21.8989       0.81872       -1.17         4.21E-5       -47.64        5.345E-5      70.06         0.99946       -0.09          
22.4989       0.81868       -1.21         7.885E-5      -137.17       2.237E-5      89.72         0.99939       -0.09          
23.0989       0.8186        -1.25         3.322E-5      115.75        3.748E-5      8.94          0.99941       -0.10          
23.6988       0.81866       -1.29         5.231E-6      -8.33         5.062E-5      23.05         0.99943       -0.10          
24.2988       0.81864       -1.34         1.27E-5       104.64        2.14E-5       -50.03        0.99943       -0.10          
24.8988       0.81865       -1.37         8.068E-6      166.06        1.164E-5      78.69         0.99947       -0.10          
25.4987       0.81866       -1.41         5.042E-5      29.70         3.867E-5      -16.09        0.99942       -0.10          
26.0987       0.81867       -1.45         7.44E-5       138.56        5.632E-5      68.79         0.99942       -0.10          
26.6987       0.81869       -1.49         4.579E-5      161.55        2.345E-5      64.78         0.9994        -0.10          
27.2987       0.81854       -1.53         5.624E-5      29.39         4.712E-5      69.78         0.99951       -0.10          
27.8986       0.81863       -1.57         2.299E-5      -106.84       2.438E-5      40.32         0.99938       -0.11          
28.4986       0.81856       -1.61         1.396E-5      26.21         1.045E-5      -27.15        0.99947       -0.11          
29.0986       0.8186        -1.65         2.703E-5      51.93         3.55E-5       -45.13        0.99959       -0.11          
29.6985       0.81841       -1.69         2.294E-5      110.16        1.41E-5       143.81        0.9995        -0.11          
30.2985       0.81848       -1.72         1.484E-5      -133.09       9.825E-6      -164.31       0.99947       -0.11          
30.8985       0.81852       -1.76         3.931E-5      -40.59        1.86E-5       112.74        0.99949       -0.11          
31.4984       0.81844       -1.80         5.931E-5      78.29         5.06E-5       -152.06       0.99947       -0.11          
32.0984       0.81848       -1.84         5.221E-5      -115.17       3.376E-5      78.25         0.9995        -0.11          
32.6984       0.81844       -1.88         1.65E-5       -118.19       3.524E-5      29.48         0.99944       -0.12          
33.2984       0.8186        -1.92         2.879E-5      -134.10       7.671E-6      155.36        0.99946       -0.12          
33.8983       0.81852       -1.95         6.735E-5      -11.09        3.07E-5       -54.14        0.99946       -0.12          
34.4983       0.81828       -1.99         8.626E-6      -150.97       6.326E-6      -147.69       0.9995        -0.11          
35.0983       0.81841       -2.03         4.062E-5      -76.45        2.317E-5      -54.43        0.99953       -0.12          
35.6982       0.81833       -2.06         5.046E-5      -102.39       7.257E-6      63.44         0.9995        -0.12          
36.2982       0.81838       -2.09         4.141E-5      -117.62       1.663E-5      -131.75       0.99951       -0.12          
36.8982       0.81844       -2.13         7.393E-5      -138.23       4.216E-5      -9.80         0.99946       -0.12          
37.4981       0.81845       -2.16         3.481E-5      -146.58       7.65E-6       154.31        0.99945       -0.13          
38.0981       0.81838       -2.20         2.222E-5      48.65         2.728E-5      157.33        0.99947       -0.13          
38.6981       0.81833       -2.23         2.601E-5      25.62         1.515E-5      103.07        0.99946       -0.13          
39.2981       0.81836       -2.28         6.604E-5      155.44        1.725E-5      -146.60       0.99942       -0.13          
39.8980       0.81842       -2.30         1.765E-5      -88.37        2.764E-5      -52.63        0.99952       -0.13          
40.4980       0.81833       -2.35         1.754E-5      -53.40        3.133E-5      30.04         0.99954       -0.13          
41.0980       0.8184        -2.40         3.734E-5      -63.17        3.661E-5      41.03         0.99949       -0.14          
41.6979       0.81829       -2.42         3.361E-5      58.00         3.216E-5      5.73          0.99957       -0.14          
42.2979       0.81836       -2.47         3.85E-5       53.53         1.723E-5      80.35         0.99951       -0.14          
42.8979       0.81833       -2.50         4.31E-5       -174.72       4.312E-5      152.18        0.99954       -0.14          
43.4978       0.81826       -2.53         5.763E-5      119.07        1.947E-5      28.86         0.99959       -0.14          
44.0978       0.81825       -2.57         2.069E-5      -99.33        1.70E-5       22.64         0.99956       -0.15          
44.6978       0.81819       -2.59         1.795E-5      -112.63       2.061E-5      -12.75        0.99954       -0.15          
45.2978       0.81837       -2.64         3.314E-5      7.20          1.615E-5      84.93         0.99962       -0.15          
45.8977       0.81831       -2.68         2.527E-5      105.33        2.605E-5      -79.20        0.99956       -0.15          
46.4977       0.81821       -2.71         4.531E-5      147.55        1.475E-5      118.10        0.9995        -0.15          
47.0977       0.81823       -2.74         7.33E-5       56.83         2.706E-5      13.33         0.99967       -0.15          
47.6976       0.81806       -2.77         4.689E-5      84.36         4.139E-5      -172.47       0.99967       -0.16          
48.2976       0.81815       -2.82         4.699E-5      25.84         3.282E-5      177.50        0.99967       -0.16          
48.8976       0.81806       -2.85         3.289E-5      90.82         3.158E-5      160.78        0.99965       -0.16          
49.4975       0.81804       -2.88         2.484E-5      -39.78        3.459E-5      86.65         0.99959       -0.16          
50.0975       0.81811       -2.93         1.883E-5      44.46         2.074E-5      -130.72       0.99963       -0.16          
50.6975       0.81811       -2.95         2.039E-5      -121.94       2.083E-5      161.09        0.99958       -0.16          
51.2975       0.81809       -2.98         4.382E-5      43.37         1.80E-5       -9.26         0.99961       -0.17          
51.8974       0.8182        -3.02         4.248E-5      48.37         4.503E-5      169.82        0.99962       -0.16          
52.4974       0.82043       -3.05         5.717E-5      58.76         2.058E-5      26.34         0.99964       -0.17          
53.0974       0.81802       -3.10         1.987E-5      -154.58       3.278E-5      -157.27       0.99963       -0.17          
53.6973       0.81809       -3.12         5.04E-5       93.92         1.467E-5      -133.64       0.99963       -0.17          
54.2973       0.81808       -3.15         3.429E-5      123.84        2.348E-5      -51.23        0.99959       -0.17          
54.8973       0.81804       -3.20         2.66E-5       -167.22       1.248E-5      -42.16        0.99961       -0.17          
55.4972       0.81806       -3.23         3.629E-5      118.70        7.552E-6      94.18         0.9996        -0.18          
56.0972       0.81817       -3.26         5.339E-5      34.78         1.89E-5       108.30        0.9996        -0.18          
56.6972       0.81812       -3.31         6.169E-5      -27.12        8.088E-6      -165.61       0.99964       -0.18          
57.2972       0.81804       -3.35         1.613E-5      -83.25        2.245E-5      -100.51       0.99965       -0.18          
57.8971       0.81807       -3.38         2.232E-5      14.69         1.777E-5      164.68        0.99961       -0.18          
58.4971       0.81792       -3.41         3.996E-5      -72.64        1.342E-5      9.19          0.99965       -0.18          
59.0971       0.81797       -3.46         4.031E-5      1.92          3.487E-5      66.39         0.99964       -0.19          
59.6970       0.81796       -3.49         2.794E-5      -173.12       1.138E-5      -39.29        0.99965       -0.19          
60.2970       0.81792       -3.53         2.205E-5      146.86        3.565E-5      -87.85        0.99965       -0.19          
60.8970       0.81782       -3.55         4.579E-5      -137.73       2.674E-5      28.63         0.99965       -0.19          
61.4969       0.81783       -3.58         1.923E-5      179.17        5.696E-6      -8.94         0.99965       -0.20          
62.0969       0.81788       -3.62         1.953E-5      10.75         4.493E-5      145.62        0.99969       -0.20          
62.6969       0.81787       -3.67         3.775E-5      -92.24        4.163E-5      2.75          0.99963       -0.20          
63.2969       0.81784       -3.70         8.298E-6      93.78         1.017E-5      -31.16        0.99967       -0.20          
63.8968       0.81763       -3.73         4.974E-5      134.98        1.474E-5      -50.11        0.9996        -0.20          
64.4968       0.81765       -3.77         4.035E-5      0.62          1.103E-5      117.44        0.99963       -0.21          
65.0968       0.81756       -3.80         3.134E-5      -167.08       4.147E-5      74.57         0.99965       -0.20          
65.6967       0.81761       -3.83         3.798E-5      -61.83        3.847E-5      7.67          0.99967       -0.21          
66.2967       0.81754       -3.87         7.159E-5      -62.67        8.877E-6      24.86         0.99963       -0.21          
66.8967       0.81766       -3.90         2.983E-5      140.01        3.311E-5      -32.38        0.9997        -0.21          
67.4966       0.81774       -3.93         3.924E-5      85.65         2.256E-5      160.93        0.99967       -0.21          
68.0966       0.81774       -3.96         3.665E-5      -3.37         5.404E-6      -61.95        0.99962       -0.21          
68.6966       0.81769       -4.02         3.104E-5      4.72          1.901E-5      -32.72        0.99965       -0.21          
69.2966       0.81762       -4.05         1.235E-5      50.13         4.256E-5      147.55        0.99964       -0.21          
69.8965       0.81758       -4.08         4.565E-5      -71.29        2.051E-5      -23.66        0.99966       -0.22          
70.4965       0.81757       -4.12         4.54E-5       28.78         2.818E-5      -152.97       0.99963       -0.22          
71.0965       0.81749       -4.16         2.674E-5      166.47        1.608E-5      100.34        0.99969       -0.22          
71.6964       0.81754       -4.20         2.872E-5      72.88         2.376E-6      -65.57        0.99969       -0.23          
72.2964       0.81743       -4.23         4.801E-5      122.55        1.646E-5      -136.62       0.99968       -0.22          
72.8964       0.81739       -4.27         1.822E-5      -131.77       2.559E-5      87.40         0.99972       -0.22          
73.4963       0.81742       -4.31         2.25E-5       -96.18        3.287E-5      -13.10        0.99965       -0.23          
74.0963       0.81742       -4.34         6.825E-5      -139.14       4.614E-5      70.55         0.99965       -0.22          
74.6963       0.81744       -4.39         1.307E-5      -87.49        1.173E-5      -63.04        0.99969       -0.23          
75.2963       0.8174        -4.43         4.956E-5      137.07        1.434E-5      -66.79        0.99964       -0.23          
75.8962       0.81734       -4.47         3.84E-5       -159.61       2.403E-5      164.14        0.99969       -0.23          
76.4962       0.81724       -4.50         7.102E-6      -15.90        2.707E-5      92.45         0.99963       -0.23          
77.0962       0.81726       -4.54         1.117E-5      135.24        3.024E-5      95.15         0.99967       -0.23          
77.6961       0.8172        -4.57         2.644E-5      162.90        2.557E-5      -0.48         0.99966       -0.23          
78.2961       0.81724       -4.61         5.165E-5      -25.57        3.437E-5      179.26        0.99969       -0.23          
78.8961       0.81711       -4.64         5.218E-5      41.46         2.157E-5      -141.63       0.99962       -0.23          
79.4960       0.81701       -4.68         5.929E-5      -139.26       5.822E-6      121.37        0.99963       -0.23          
80.0960       0.8171        -4.71         3.035E-5      74.12         2.099E-5      122.54        0.99962       -0.23          
80.6960       0.81715       -4.74         4.86E-5       -157.88       1.819E-5      -143.05       0.99963       -0.23          
81.2960       0.81699       -4.79         3.202E-6      -167.54       2.878E-5      76.76         0.99967       -0.23          
81.8959       0.81696       -4.83         2.104E-5      13.34         2.396E-5      118.88        0.99968       -0.23          
82.4959       0.817         -4.86         1.664E-5      -6.64         2.365E-5      136.20        0.99966       -0.23          
83.0959       0.81695       -4.90         2.297E-5      55.29         4.085E-5      173.99        0.99961       -0.23          
83.6958       0.81683       -4.93         3.559E-5      102.05        2.221E-5      -58.48        0.99957       -0.24          
84.2958       0.81689       -4.98         1.127E-5      -142.35       9.823E-6      -156.29       0.99963       -0.24          
84.8958       0.81688       -5.01         2.725E-5      -60.40        2.601E-5      -145.20       0.99962       -0.24          
85.4957       0.81671       -5.05         2.985E-5      -178.26       2.731E-5      57.08         0.99963       -0.24          
86.0957       0.81691       -5.08         3.646E-5      -89.11        1.812E-5      161.24        0.99955       -0.24          
86.6957       0.81679       -5.12         9.276E-6      -28.38        3.324E-5      -79.24        0.99959       -0.25          
87.2957       0.81672       -5.15         4.495E-5      112.76        2.241E-5      115.58        0.99965       -0.25          
87.8956       0.81675       -5.20         1.757E-5      -65.75        1.973E-5      -124.47       0.99958       -0.25          
88.4956       0.81675       -5.24         4.81E-5       58.53         2.60E-5       -133.13       0.99965       -0.25          
89.0956       0.81672       -5.27         7.968E-5      111.62        4.158E-5      -75.86        0.99961       -0.25          
89.6955       0.81664       -5.31         4.918E-5      93.07         2.541E-5      34.23         0.99958       -0.25          
90.2955       0.81668       -5.35         8.059E-6      -64.61        3.255E-6      -35.87        0.99957       -0.25          
90.8955       0.81652       -5.39         5.861E-5      -99.92        2.025E-5      -145.15       0.99962       -0.26          
91.4954       0.8165        -5.43         4.31E-5       -100.68       1.214E-5      -151.04       0.99962       -0.25          
92.0954       0.81654       -5.47         2.15E-5       -175.09       1.487E-5      -144.22       0.99958       -0.26          
