!    8/12/2020   02:56:47 
! Ref Plane: 0.000 mm
# MHZ S MA R  50
!
0.3000        0.04814       177.61        9.862E-2      -1.14         9.691E-2      -1.08         0.81774       -0.48          
0.9000        0.04779       178.59        9.465E-2      -0.65         9.563E-2      -0.55         0.81051       -0.67          
1.4999        0.04781       178.94        9.487E-2      -0.61         9.54E-2       -0.52         0.80844       -0.82          
2.0999        0.04778       179.22        9.495E-2      -0.83         9.53E-2       -0.65         0.80834       -1.08          
2.6999        0.04784       179.41        9.503E-2      -0.98         9.524E-2      -0.81         0.80828       -1.30          
3.2999        0.04782       179.70        9.51E-2       -1.14         9.525E-2      -0.98         0.80821       -1.52          
3.8998        0.04791       179.85        9.508E-2      -1.30         9.519E-2      -1.14         0.80836       -1.74          
4.4998        0.04788       -179.95       9.511E-2      -1.47         9.521E-2      -1.30         0.8085        -1.95          
5.0998        0.04796       -179.63       9.512E-2      -1.59         9.521E-2      -1.43         0.80847       -2.15          
5.6997        0.04793       -179.38       9.514E-2      -1.76         9.525E-2      -1.62         0.80876       -2.38          
6.2997        0.04797       -179.29       9.514E-2      -1.93         9.522E-2      -1.76         0.80855       -2.58          
6.8997        0.04798       -179.04       9.516E-2      -2.14         9.519E-2      -1.92         0.80889       -2.82          
7.4996        0.04804       -178.77       9.516E-2      -2.24         9.518E-2      -2.07         0.80893       -3.04          
8.0996        0.04806       -178.62       9.517E-2      -2.41         9.519E-2      -2.24         0.80845       -3.25          
8.6996        0.04806       -178.36       9.516E-2      -2.54         9.518E-2      -2.38         0.80871       -3.45          
9.2996        0.04808       -178.13       9.522E-2      -2.72         9.523E-2      -2.57         0.80891       -3.65          
9.8995        0.04811       -177.92       9.518E-2      -2.88         9.52E-2       -2.73         0.80867       -3.87          
10.4995       0.04815       -177.75       9.518E-2      -3.05         9.521E-2      -2.88         0.80904       -4.05          
11.0995       0.04822       -177.50       9.519E-2      -3.21         9.52E-2       -3.03         0.80915       -4.28          
11.6994       0.04823       -177.29       9.522E-2      -3.34         9.518E-2      -3.17         0.80927       -4.49          
12.2994       0.04822       -177.06       9.519E-2      -3.50         9.516E-2      -3.33         0.80924       -4.69          
12.8994       0.04827       -176.85       9.523E-2      -3.60         9.52E-2       -3.50         0.80922       -4.90          
13.4993       0.04827       -176.63       9.53E-2       -3.82         9.518E-2      -3.67         0.80944       -5.12          
14.0993       0.04832       -176.48       9.523E-2      -3.96         9.518E-2      -3.82         0.80927       -5.30          
14.6993       0.04834       -176.22       9.521E-2      -4.14         9.524E-2      -3.97         0.80938       -5.49          
15.2993       0.04838       -176.08       9.521E-2      -4.23         9.52E-2       -4.11         0.80961       -5.69          
15.8992       0.0484        -175.87       9.523E-2      -4.41         9.518E-2      -4.29         0.80969       -5.90          
16.4992       0.04844       -175.70       9.523E-2      -4.58         9.522E-2      -4.47         0.80958       -6.13          
17.0992       0.04847       -175.47       9.526E-2      -4.71         9.523E-2      -4.60         0.80982       -6.34          
17.6991       0.04858       -175.23       9.524E-2      -4.88         9.519E-2      -4.77         0.80972       -6.56          
18.2991       0.04856       -175.11       9.524E-2      -5.04         9.522E-2      -4.91         0.80977       -6.71          
18.8991       0.04859       -174.88       9.527E-2      -5.22         9.525E-2      -5.05         0.81019       -6.93          
19.4990       0.0486        -174.67       9.533E-2      -5.38         9.523E-2      -5.24         0.81018       -7.13          
20.0990       0.04865       -174.45       9.526E-2      -5.52         9.525E-2      -5.39         0.81012       -7.33          
20.6990       0.04869       -174.25       9.527E-2      -5.70         9.527E-2      -5.53         0.8101        -7.54          
21.2990       0.04869       -174.03       9.528E-2      -5.87         9.529E-2      -5.70         0.81017       -7.74          
21.8989       0.04877       -173.88       9.531E-2      -6.00         9.527E-2      -5.84         0.81037       -7.94          
22.4989       0.04879       -173.68       9.526E-2      -6.19         9.532E-2      -5.99         0.81027       -8.15          
23.0989       0.04884       -173.54       9.531E-2      -6.33         9.535E-2      -6.14         0.81061       -8.36          
23.6988       0.04884       -173.23       9.533E-2      -6.47         9.532E-2      -6.32         0.81022       -8.57          
24.2988       0.04889       -173.09       9.532E-2      -6.62         9.534E-2      -6.46         0.8103        -8.75          
24.8988       0.04894       -172.89       9.532E-2      -6.80         9.533E-2      -6.65         0.81017       -8.96          
25.4987       0.04902       -172.72       9.536E-2      -6.93         9.531E-2      -6.80         0.81021       -9.17          
26.0987       0.04904       -172.50       9.528E-2      -7.10         9.531E-2      -6.92         0.81006       -9.37          
26.6987       0.0491        -172.34       9.533E-2      -7.26         9.532E-2      -7.08         0.81008       -9.56          
27.2987       0.04909       -172.12       9.54E-2       -7.41         9.533E-2      -7.23         0.80993       -9.77          
27.8986       0.04913       -171.94       9.537E-2      -7.60         9.533E-2      -7.39         0.80971       -9.97          
28.4986       0.04918       -171.72       9.539E-2      -7.74         9.535E-2      -7.59         0.80959       -10.19         
29.0986       0.04923       -171.66       9.537E-2      -7.88         9.535E-2      -7.74         0.80947       -10.37         
29.6985       0.04929       -171.43       9.539E-2      -8.05         9.536E-2      -7.87         0.80964       -10.59         
30.2985       0.04927       -171.25       9.536E-2      -8.21         9.533E-2      -8.06         0.80931       -10.79         
30.8985       0.04935       -171.02       9.54E-2       -8.38         9.534E-2      -8.17         0.80925       -11.00         
31.4984       0.04939       -170.85       9.536E-2      -8.50         9.531E-2      -8.34         0.80937       -11.20         
32.0984       0.04943       -170.75       9.54E-2       -8.70         9.54E-2       -8.49         0.80935       -11.40         
32.6984       0.04947       -170.53       9.536E-2      -8.82         9.539E-2      -8.62         0.80937       -11.59         
33.2984       0.0495        -170.41       9.541E-2      -8.97         9.534E-2      -8.81         0.8092        -11.77         
33.8983       0.04952       -170.20       9.543E-2      -9.13         9.538E-2      -8.96         0.80935       -11.96         
34.4983       0.04961       -170.02       9.544E-2      -9.27         9.543E-2      -9.11         0.80979       -12.15         
35.0983       0.0496        -169.94       9.547E-2      -9.43         9.54E-2       -9.28         0.80957       -12.36         
35.6982       0.04966       -169.75       9.548E-2      -9.58         9.541E-2      -9.42         0.80989       -12.56         
36.2982       0.04972       -169.53       9.549E-2      -9.75         9.537E-2      -9.62         0.80983       -12.79         
36.8982       0.04976       -169.35       9.546E-2      -9.91         9.542E-2      -9.77         0.80996       -12.98         
37.4981       0.04982       -169.26       9.55E-2       -10.07        9.546E-2      -9.92         0.80977       -13.20         
38.0981       0.04984       -169.07       9.55E-2       -10.19        9.543E-2      -10.08        0.80997       -13.41         
38.6981       0.04988       -168.92       9.55E-2       -10.34        9.543E-2      -10.25        0.80993       -13.62         
39.2981       0.04992       -168.76       9.551E-2      -10.50        9.54E-2       -10.41        0.81001       -13.82         
39.8980       0.04994       -168.59       9.55E-2       -10.71        9.544E-2      -10.61        0.80976       -14.05         
40.4980       0.04999       -168.39       9.555E-2      -10.86        9.546E-2      -10.70        0.81001       -14.24         
41.0980       0.05004       -168.22       9.556E-2      -11.01        9.549E-2      -10.87        0.80973       -14.45         
41.6979       0.05006       -168.11       9.554E-2      -11.17        9.547E-2      -11.04        0.80984       -14.68         
42.2979       0.05016       -167.98       9.554E-2      -11.32        9.551E-2      -11.21        0.81009       -14.88         
42.8979       0.05018       -167.83       9.554E-2      -11.50        9.547E-2      -11.35        0.81012       -15.10         
43.4978       0.05017       -167.69       9.554E-2      -11.64        9.552E-2      -11.52        0.81018       -15.32         
44.0978       0.05027       -167.56       9.558E-2      -11.82        9.551E-2      -11.67        0.81009       -15.54         
44.6978       0.05035       -167.46       9.556E-2      -11.98        9.551E-2      -11.88        0.81044       -15.78         
45.2978       0.05037       -167.29       9.558E-2      -12.15        9.55E-2       -11.99        0.81027       -15.99         
45.8977       0.05045       -167.09       9.559E-2      -12.33        9.553E-2      -12.16        0.81051       -16.21         
46.4977       0.05046       -166.96       9.553E-2      -12.48        9.552E-2      -12.32        0.81065       -16.43         
47.0977       0.05049       -166.79       9.556E-2      -12.65        9.559E-2      -12.49        0.81164       -16.63         
47.6976       0.05054       -166.64       9.557E-2      -12.80        9.554E-2      -12.67        0.81179       -16.85         
48.2976       0.05061       -166.54       9.564E-2      -12.97        9.554E-2      -12.81        0.81174       -17.04         
48.8976       0.05067       -166.38       9.56E-2       -13.13        9.554E-2      -12.98        0.81211       -17.25         
49.4975       0.05073       -166.23       9.56E-2       -13.30        9.563E-2      -13.12        0.81214       -17.46         
50.0975       0.05073       -166.10       9.563E-2      -13.44        9.552E-2      -13.32        0.81234       -17.66         
50.6975       0.0508        -165.95       9.563E-2      -13.63        9.556E-2      -13.48        0.81237       -17.89         
51.2975       0.05087       -165.82       9.567E-2      -13.81        9.549E-2      -13.66        0.81245       -18.10         
51.8974       0.05095       -165.71       9.566E-2      -14.00        9.554E-2      -13.77        0.81252       -18.29         
52.4974       0.05166       -165.83       9.577E-2      -14.24        9.581E-2      -14.00        0.80794       -18.54         
53.0974       0.05099       -165.41       9.605E-2      -14.43        9.447E-2      -13.88        0.81169       -18.69         
53.6973       0.051         -165.32       9.568E-2      -14.51        9.557E-2      -14.32        0.81333       -18.94         
54.2973       0.05106       -165.16       9.558E-2      -14.60        9.559E-2      -14.49        0.81344       -19.15         
54.8973       0.05111       -165.00       9.556E-2      -14.79        9.56E-2       -14.63        0.81365       -19.33         
55.4972       0.05117       -164.89       9.559E-2      -14.92        9.558E-2      -14.80        0.81385       -19.55         
56.0972       0.05121       -164.73       9.557E-2      -15.09        9.554E-2      -14.95        0.8138        -19.76         
56.6972       0.05124       -164.55       9.554E-2      -15.24        9.553E-2      -15.08        0.81397       -19.94         
57.2972       0.05132       -164.40       9.551E-2      -15.41        9.554E-2      -15.23        0.81411       -20.16         
57.8971       0.0513        -164.25       9.549E-2      -15.55        9.551E-2      -15.40        0.81429       -20.36         
58.4971       0.05136       -164.10       9.555E-2      -15.68        9.554E-2      -15.57        0.81469       -20.59         
59.0971       0.05142       -163.94       9.552E-2      -15.80        9.552E-2      -15.69        0.81481       -20.76         
59.6970       0.05147       -163.75       9.555E-2      -15.97        9.557E-2      -15.80        0.81491       -20.99         
60.2970       0.05149       -163.57       9.554E-2      -16.09        9.555E-2      -15.95        0.81482       -21.17         
60.8970       0.05161       -163.42       9.562E-2      -16.25        9.561E-2      -16.12        0.81507       -21.39         
61.4969       0.05166       -163.30       9.563E-2      -16.39        9.564E-2      -16.26        0.8151        -21.59         
62.0969       0.05174       -163.11       9.569E-2      -16.54        9.568E-2      -16.42        0.81493       -21.80         
62.6969       0.05179       -163.05       9.578E-2      -16.71        9.57E-2       -16.59        0.81495       -22.00         
63.2969       0.05191       -162.90       9.577E-2      -16.88        9.577E-2      -16.75        0.81522       -22.19         
63.8968       0.05197       -162.79       9.578E-2      -17.04        9.58E-2       -16.94        0.81525       -22.38         
64.4968       0.05204       -162.66       9.583E-2      -17.24        9.58E-2       -17.12        0.81536       -22.58         
65.0968       0.05208       -162.53       9.581E-2      -17.41        9.582E-2      -17.29        0.81557       -22.79         
65.6967       0.05214       -162.38       9.576E-2      -17.56        9.581E-2      -17.43        0.81583       -22.99         
66.2967       0.05215       -162.23       9.582E-2      -17.67        9.581E-2      -17.59        0.81588       -23.18         
66.8967       0.0522        -162.13       9.581E-2      -17.84        9.582E-2      -17.74        0.81574       -23.40         
67.4966       0.05231       -161.96       9.585E-2      -17.99        9.59E-2       -17.89        0.81576       -23.61         
68.0966       0.05238       -161.85       9.593E-2      -18.17        9.595E-2      -18.05        0.81585       -23.81         
68.6966       0.05244       -161.69       9.593E-2      -18.33        9.596E-2      -18.22        0.81605       -23.97         
69.2966       0.05256       -161.57       9.591E-2      -18.55        9.599E-2      -18.38        0.81613       -24.20         
69.8965       0.05262       -161.44       9.597E-2      -18.72        9.598E-2      -18.55        0.81625       -24.41         
70.4965       0.05263       -161.38       9.596E-2      -18.85        9.596E-2      -18.71        0.81653       -24.60         
71.0965       0.05268       -161.22       9.593E-2      -19.00        9.603E-2      -18.88        0.81684       -24.79         
71.6964       0.05281       -161.06       9.598E-2      -19.18        9.60E-2       -19.03        0.81678       -24.99         
72.2964       0.05285       -160.99       9.602E-2      -19.35        9.603E-2      -19.20        0.81689       -25.20         
72.8964       0.05298       -160.87       9.608E-2      -19.52        9.606E-2      -19.35        0.81701       -25.40         
73.4963       0.05307       -160.72       9.608E-2      -19.71        9.609E-2      -19.55        0.81708       -25.60         
74.0963       0.05311       -160.62       9.614E-2      -19.86        9.614E-2      -19.71        0.81734       -25.81         
74.6963       0.05317       -160.58       9.617E-2      -20.05        9.618E-2      -19.85        0.81724       -25.99         
75.2963       0.05325       -160.40       9.616E-2      -20.22        9.615E-2      -20.03        0.81735       -26.19         
75.8962       0.05334       -160.34       9.618E-2      -20.40        9.623E-2      -20.21        0.8176        -26.37         
76.4962       0.05343       -160.17       9.62E-2       -20.56        9.626E-2      -20.40        0.818         -26.58         
77.0962       0.0535        -160.09       9.624E-2      -20.75        9.626E-2      -20.56        0.8182        -26.78         
77.6961       0.05356       -160.02       9.627E-2      -20.95        9.63E-2       -20.76        0.8186        -26.98         
78.2961       0.05367       -159.85       9.63E-2       -21.09        9.631E-2      -20.91        0.81871       -27.17         
78.8961       0.0537        -159.80       9.63E-2       -21.27        9.634E-2      -21.08        0.81912       -27.35         
79.4960       0.05379       -159.66       9.633E-2      -21.47        9.638E-2      -21.28        0.81951       -27.54         
80.0960       0.05382       -159.58       9.633E-2      -21.65        9.638E-2      -21.45        0.81948       -27.76         
80.6960       0.05389       -159.49       9.637E-2      -21.80        9.639E-2      -21.62        0.81956       -27.93         
81.2960       0.05398       -159.42       9.64E-2       -22.02        9.646E-2      -21.82        0.82029       -28.12         
81.8959       0.05405       -159.30       9.64E-2       -22.18        9.646E-2      -22.01        0.82051       -28.30         
82.4959       0.05413       -159.22       9.64E-2       -22.38        9.648E-2      -22.19        0.82079       -28.51         
83.0959       0.0542        -159.09       9.64E-2       -22.55        9.646E-2      -22.37        0.82103       -28.67         
83.6958       0.05426       -159.00       9.646E-2      -22.74        9.643E-2      -22.59        0.82153       -28.90         
84.2958       0.05435       -158.88       9.643E-2      -22.97        9.642E-2      -22.76        0.82186       -29.06         
84.8958       0.0544        -158.83       9.643E-2      -23.15        9.644E-2      -22.99        0.82197       -29.25         
85.4957       0.05446       -158.77       9.648E-2      -23.37        9.642E-2      -23.20        0.8226        -29.45         
86.0957       0.05449       -158.66       9.644E-2      -23.55        9.639E-2      -23.38        0.82255       -29.65         
86.6957       0.05452       -158.53       9.639E-2      -23.77        9.639E-2      -23.57        0.82309       -29.84         
87.2957       0.05458       -158.46       9.639E-2      -23.96        9.633E-2      -23.79        0.82368       -30.03         
87.8956       0.05459       -158.40       9.631E-2      -24.16        9.626E-2      -23.95        0.82377       -30.21         
88.4956       0.05471       -158.28       9.626E-2      -24.34        9.624E-2      -24.16        0.82413       -30.41         
89.0956       0.05473       -158.18       9.622E-2      -24.54        9.615E-2      -24.38        0.82447       -30.60         
89.6955       0.05474       -158.07       9.62E-2       -24.75        9.611E-2      -24.58        0.82505       -30.78         
90.2955       0.05479       -157.97       9.609E-2      -24.91        9.605E-2      -24.77        0.82539       -30.99         
90.8955       0.05478       -157.97       9.602E-2      -25.13        9.594E-2      -24.98        0.82591       -31.18         
91.4954       0.05477       -157.82       9.591E-2      -25.34        9.577E-2      -25.15        0.82634       -31.38         
92.0954       0.05477       -157.73       9.572E-2      -25.52        9.565E-2      -25.36        0.82668       -31.58         
