!    8/12/2020   02:55:55 
! Ref Plane: 0.000 mm
# MHZ S MA R  50
!
0.3000        0.04827       177.46        9.849E-2      -1.08         9.697E-2      -1.11         0.81817       -0.50          
0.9000        0.04775       178.63        9.464E-2      -0.59         9.564E-2      -0.52         0.81047       -0.69          
1.4999        0.04783       179.00        9.488E-2      -0.52         9.543E-2      -0.53         0.80849       -0.84          
2.0999        0.04776       179.28        9.499E-2      -0.73         9.532E-2      -0.62         0.80848       -1.12          
2.6999        0.04784       179.50        9.509E-2      -0.87         9.525E-2      -0.79         0.80824       -1.36          
3.2999        0.04783       179.83        9.512E-2      -1.00         9.524E-2      -0.94         0.80838       -1.58          
3.8998        0.0479        -179.99       9.507E-2      -1.14         9.523E-2      -1.07         0.80848       -1.82          
4.4998        0.04789       -179.75       9.512E-2      -1.29         9.521E-2      -1.20         0.80861       -2.02          
5.0998        0.04796       -179.41       9.513E-2      -1.43         9.521E-2      -1.33         0.80863       -2.23          
5.6997        0.04795       -179.20       9.512E-2      -1.57         9.524E-2      -1.47         0.80887       -2.47          
6.2997        0.04798       -179.05       9.513E-2      -1.72         9.521E-2      -1.58         0.80867       -2.68          
6.8997        0.04803       -178.77       9.518E-2      -1.91         9.518E-2      -1.74         0.80902       -2.91          
7.4996        0.04805       -178.48       9.515E-2      -2.00         9.52E-2       -1.84         0.80904       -3.14          
8.0996        0.04807       -178.29       9.512E-2      -2.16         9.518E-2      -2.00         0.80857       -3.36          
8.6996        0.04809       -178.07       9.515E-2      -2.26         9.519E-2      -2.12         0.80883       -3.56          
9.2996        0.0481        -177.81       9.52E-2       -2.42         9.523E-2      -2.29         0.80905       -3.77          
9.8995        0.04812       -177.54       9.517E-2      -2.58         9.519E-2      -2.43         0.8088        -3.99          
10.4995       0.04816       -177.34       9.515E-2      -2.70         9.518E-2      -2.55         0.80917       -4.18          
11.0995       0.0482        -177.07       9.516E-2      -2.84         9.52E-2       -2.67         0.8093        -4.41          
11.6994       0.04825       -176.84       9.518E-2      -2.97         9.517E-2      -2.82         0.80938       -4.63          
12.2994       0.04824       -176.64       9.516E-2      -3.12         9.517E-2      -2.96         0.80942       -4.83          
12.8994       0.04827       -176.39       9.52E-2       -3.19         9.516E-2      -3.10         0.80937       -5.04          
13.4993       0.04827       -176.14       9.526E-2      -3.39         9.516E-2      -3.24         0.80957       -5.27          
14.0993       0.04835       -175.98       9.518E-2      -3.51         9.515E-2      -3.40         0.80941       -5.46          
14.6993       0.04836       -175.70       9.514E-2      -3.68         9.52E-2       -3.51         0.80955       -5.64          
15.2993       0.0484        -175.49       9.514E-2      -3.75         9.515E-2      -3.64         0.80977       -5.86          
15.8992       0.04838       -175.30       9.519E-2      -3.90         9.514E-2      -3.79         0.80986       -6.06          
16.4992       0.04845       -175.07       9.516E-2      -4.06         9.516E-2      -3.96         0.8097        -6.30          
17.0992       0.04847       -174.83       9.521E-2      -4.15         9.518E-2      -4.07         0.80996       -6.52          
17.6991       0.0486        -174.58       9.519E-2      -4.31         9.517E-2      -4.25         0.80998       -6.74          
18.2991       0.04858       -174.40       9.516E-2      -4.46         9.516E-2      -4.35         0.80993       -6.90          
18.8991       0.04861       -174.19       9.519E-2      -4.61         9.519E-2      -4.45         0.81041       -7.11          
19.4990       0.04863       -173.91       9.522E-2      -4.74         9.513E-2      -4.62         0.81041       -7.31          
20.0990       0.04865       -173.71       9.52E-2       -4.87         9.518E-2      -4.74         0.81037       -7.53          
20.6990       0.04871       -173.52       9.521E-2      -5.01         9.519E-2      -4.90         0.81036       -7.73          
21.2990       0.04872       -173.23       9.518E-2      -5.17         9.52E-2       -5.02         0.81037       -7.94          
21.8989       0.04877       -173.09       9.522E-2      -5.29         9.519E-2      -5.13         0.8106        -8.14          
22.4989       0.04878       -172.84       9.519E-2      -5.48         9.522E-2      -5.29         0.81054       -8.36          
23.0989       0.04885       -172.69       9.519E-2      -5.58         9.525E-2      -5.41         0.8109        -8.57          
23.6988       0.04885       -172.40       9.523E-2      -5.70         9.522E-2      -5.58         0.81048       -8.79          
24.2988       0.04889       -172.20       9.517E-2      -5.83         9.52E-2       -5.67         0.81062       -8.97          
24.8988       0.04895       -171.98       9.518E-2      -5.98         9.519E-2      -5.85         0.81049       -9.18          
25.4987       0.04898       -171.79       9.521E-2      -6.11         9.517E-2      -5.97         0.81057       -9.40          
26.0987       0.04903       -171.56       9.514E-2      -6.25         9.519E-2      -6.09         0.81041       -9.59          
26.6987       0.0491        -171.34       9.516E-2      -6.38         9.517E-2      -6.21         0.81041       -9.79          
27.2987       0.0491        -171.09       9.522E-2      -6.51         9.518E-2      -6.35         0.81028       -10.00         
27.8986       0.04914       -170.93       9.52E-2       -6.68         9.517E-2      -6.49         0.81005       -10.20         
28.4986       0.04916       -170.68       9.522E-2      -6.79         9.517E-2      -6.64         0.80998       -10.43         
29.0986       0.04921       -170.59       9.519E-2      -6.90         9.518E-2      -6.79         0.80993       -10.61         
29.6985       0.0493        -170.37       9.52E-2       -7.05         9.515E-2      -6.87         0.81002       -10.84         
30.2985       0.04928       -170.16       9.518E-2      -7.18         9.515E-2      -7.07         0.80971       -11.04         
30.8985       0.04933       -169.89       9.519E-2      -7.36         9.512E-2      -7.16         0.80969       -11.24         
31.4984       0.04939       -169.70       9.517E-2      -7.46         9.511E-2      -7.31         0.80979       -11.45         
32.0984       0.04944       -169.61       9.517E-2      -7.63         9.516E-2      -7.43         0.80976       -11.65         
32.6984       0.04945       -169.32       9.518E-2      -7.73         9.515E-2      -7.55         0.80982       -11.85         
33.2984       0.0495        -169.18       9.519E-2      -7.86         9.511E-2      -7.70         0.80963       -12.03         
33.8983       0.04952       -168.99       9.521E-2      -7.97         9.513E-2      -7.84         0.80984       -12.22         
34.4983       0.04961       -168.77       9.521E-2      -8.10         9.517E-2      -7.95         0.81027       -12.41         
35.0983       0.04958       -168.63       9.523E-2      -8.25         9.516E-2      -8.12         0.81007       -12.62         
35.6982       0.04963       -168.42       9.524E-2      -8.38         9.516E-2      -8.22         0.81045       -12.83         
36.2982       0.0497        -168.23       9.523E-2      -8.54         9.512E-2      -8.41         0.81041       -13.06         
36.8982       0.04972       -168.03       9.52E-2       -8.66         9.512E-2      -8.51         0.81053       -13.25         
37.4981       0.04978       -167.87       9.522E-2      -8.80         9.518E-2      -8.65         0.81035       -13.47         
38.0981       0.04983       -167.69       9.524E-2      -8.92         9.514E-2      -8.80         0.81054       -13.68         
38.6981       0.04986       -167.45       9.524E-2      -9.03         9.513E-2      -8.95         0.81053       -13.90         
39.2981       0.04987       -167.32       9.519E-2      -9.16         9.509E-2      -9.06         0.81061       -14.10         
39.8980       0.04991       -167.13       9.52E-2       -9.34         9.51E-2       -9.24         0.81036       -14.33         
40.4980       0.04994       -166.90       9.522E-2      -9.48         9.513E-2      -9.33         0.81062       -14.52         
41.0980       0.05002       -166.69       9.522E-2      -9.59         9.514E-2      -9.47         0.81038       -14.73         
41.6979       0.05003       -166.55       9.519E-2      -9.73         9.512E-2      -9.60         0.81055       -14.96         
42.2979       0.05011       -166.41       9.52E-2       -9.85         9.515E-2      -9.73         0.81072       -15.17         
42.8979       0.05014       -166.24       9.521E-2      -10.00        9.514E-2      -9.87         0.81085       -15.39         
43.4978       0.05013       -166.07       9.519E-2      -10.12        9.514E-2      -10.01        0.81088       -15.62         
44.0978       0.0502        -165.90       9.52E-2       -10.28        9.514E-2      -10.14        0.81081       -15.83         
44.6978       0.0503        -165.80       9.519E-2      -10.41        9.511E-2      -10.30        0.81115       -16.08         
45.2978       0.05033       -165.61       9.519E-2      -10.54        9.511E-2      -10.41        0.81101       -16.29         
45.8977       0.05042       -165.38       9.517E-2      -10.69        9.513E-2      -10.55        0.81123       -16.51         
46.4977       0.05041       -165.23       9.514E-2      -10.83        9.511E-2      -10.68        0.81141       -16.73         
47.0977       0.05042       -165.04       9.518E-2      -10.96        9.522E-2      -10.82        0.81244       -16.94         
47.6976       0.05047       -164.84       9.518E-2      -11.11        9.512E-2      -10.97        0.81261       -17.15         
48.2976       0.05054       -164.71       9.523E-2      -11.26        9.512E-2      -11.09        0.81252       -17.35         
48.8976       0.05062       -164.50       9.518E-2      -11.37        9.512E-2      -11.22        0.81291       -17.55         
49.4975       0.05065       -164.39       9.515E-2      -11.54        9.519E-2      -11.36        0.81298       -17.77         
50.0975       0.05066       -164.21       9.515E-2      -11.61        9.508E-2      -11.50        0.81314       -17.97         
50.6975       0.05073       -163.98       9.515E-2      -11.78        9.51E-2       -11.65        0.81317       -18.21         
51.2975       0.0508        -163.85       9.52E-2       -11.92        9.512E-2      -11.80        0.81323       -18.42         
51.8974       0.05087       -163.72       9.515E-2      -12.08        9.508E-2      -11.89        0.8133        -18.60         
52.4974       0.05159       -163.79       9.528E-2      -12.28        9.54E-2       -12.15        0.80871       -18.86         
53.0974       0.05092       -163.35       9.547E-2      -12.40        9.49E-2       -12.13        0.81244       -19.00         
53.6973       0.05096       -163.16       9.512E-2      -12.45        9.512E-2      -12.33        0.81408       -19.26         
54.2973       0.05104       -163.08       9.514E-2      -12.60        9.514E-2      -12.50        0.81428       -19.47         
54.8973       0.05102       -162.89       9.515E-2      -12.74        9.513E-2      -12.60        0.81442       -19.66         
55.4972       0.05111       -162.73       9.515E-2      -12.85        9.515E-2      -12.74        0.81459       -19.87         
56.0972       0.05115       -162.57       9.516E-2      -12.99        9.512E-2      -12.86        0.81455       -20.08         
56.6972       0.05121       -162.36       9.515E-2      -13.14        9.512E-2      -12.97        0.81465       -20.26         
57.2972       0.05127       -162.20       9.512E-2      -13.26        9.515E-2      -13.10        0.81479       -20.48         
57.8971       0.0513        -161.98       9.514E-2      -13.40        9.515E-2      -13.24        0.81496       -20.67         
58.4971       0.05138       -161.84       9.52E-2       -13.52        9.516E-2      -13.43        0.81535       -20.90         
59.0971       0.0514        -161.71       9.519E-2      -13.66        9.518E-2      -13.50        0.81546       -21.07         
59.6970       0.05147       -161.51       9.518E-2      -13.80        9.52E-2       -13.66        0.81563       -21.29         
60.2970       0.05149       -161.34       9.516E-2      -13.92        9.514E-2      -13.80        0.8156        -21.47         
60.8970       0.05157       -161.16       9.52E-2       -14.08        9.521E-2      -13.95        0.8159        -21.69         
61.4969       0.05159       -161.03       9.518E-2      -14.20        9.514E-2      -14.07        0.81599       -21.89         
62.0969       0.05166       -160.84       9.52E-2       -14.34        9.517E-2      -14.21        0.81593       -22.10         
62.6969       0.05168       -160.75       9.522E-2      -14.47        9.513E-2      -14.36        0.81595       -22.29         
63.2969       0.05177       -160.55       9.519E-2      -14.59        9.519E-2      -14.46        0.81627       -22.49         
63.8968       0.05184       -160.40       9.52E-2       -14.72        9.521E-2      -14.63        0.81637       -22.69         
64.4968       0.05189       -160.23       9.52E-2       -14.87        9.517E-2      -14.76        0.81646       -22.90         
65.0968       0.05192       -160.05       9.52E-2       -15.01        9.52E-2       -14.91        0.81659       -23.10         
65.6967       0.05203       -159.87       9.523E-2      -15.14        9.52E-2       -15.03        0.81683       -23.30         
66.2967       0.05203       -159.71       9.521E-2      -15.27        9.518E-2      -15.16        0.81692       -23.49         
66.8967       0.05209       -159.61       9.518E-2      -15.40        9.521E-2      -15.32        0.81683       -23.71         
67.4966       0.05213       -159.39       9.519E-2      -15.53        9.522E-2      -15.44        0.81693       -23.92         
68.0966       0.05217       -159.26       9.52E-2       -15.68        9.525E-2      -15.56        0.81708       -24.13         
68.6966       0.05224       -159.08       9.524E-2      -15.80        9.525E-2      -15.68        0.81723       -24.29         
69.2966       0.05234       -158.94       9.517E-2      -15.97        9.527E-2      -15.81        0.81731       -24.52         
69.8965       0.05239       -158.76       9.523E-2      -16.11        9.523E-2      -15.95        0.8174        -24.73         
70.4965       0.05245       -158.69       9.522E-2      -16.21        9.523E-2      -16.09        0.81768       -24.92         
71.0965       0.05249       -158.48       9.521E-2      -16.35        9.527E-2      -16.22        0.81795       -25.11         
71.6964       0.05255       -158.30       9.521E-2      -16.50        9.527E-2      -16.35        0.81792       -25.31         
72.2964       0.05262       -158.19       9.525E-2      -16.63        9.521E-2      -16.51        0.81809       -25.52         
72.8964       0.05271       -158.06       9.526E-2      -16.80        9.523E-2      -16.61        0.81824       -25.72         
73.4963       0.05279       -157.90       9.525E-2      -16.93        9.523E-2      -16.78        0.81834       -25.93         
74.0963       0.0528        -157.74       9.525E-2      -17.05        9.528E-2      -16.92        0.81863       -26.13         
74.6963       0.05284       -157.66       9.527E-2      -17.21        9.527E-2      -17.03        0.8185        -26.32         
75.2963       0.05293       -157.47       9.523E-2      -17.33        9.523E-2      -17.16        0.81867       -26.53         
75.8962       0.05298       -157.31       9.528E-2      -17.48        9.528E-2      -17.32        0.81884       -26.71         
76.4962       0.05309       -157.10       9.53E-2       -17.60        9.528E-2      -17.45        0.81924       -26.92         
77.0962       0.05313       -157.03       9.529E-2      -17.74        9.531E-2      -17.56        0.81936       -27.13         
77.6961       0.05318       -156.90       9.525E-2      -17.88        9.531E-2      -17.74        0.81976       -27.33         
78.2961       0.0533        -156.66       9.527E-2      -17.98        9.531E-2      -17.84        0.8199        -27.52         
78.8961       0.05332       -156.57       9.527E-2      -18.14        9.533E-2      -17.95        0.8202        -27.71         
79.4960       0.05341       -156.40       9.53E-2       -18.27        9.534E-2      -18.11        0.82056       -27.90         
80.0960       0.05344       -156.28       9.53E-2       -18.43        9.532E-2      -18.25        0.82052       -28.12         
80.6960       0.05348       -156.16       9.531E-2      -18.54        9.532E-2      -18.36        0.82056       -28.30         
81.2960       0.05358       -156.00       9.533E-2      -18.69        9.538E-2      -18.50        0.82121       -28.49         
81.8959       0.05365       -155.86       9.53E-2       -18.79        9.538E-2      -18.65        0.82139       -28.68         
82.4959       0.05374       -155.70       9.533E-2      -18.96        9.538E-2      -18.76        0.82154       -28.89         
83.0959       0.0538        -155.55       9.535E-2      -19.06        9.539E-2      -18.90        0.82171       -29.05         
83.6958       0.05387       -155.40       9.537E-2      -19.21        9.537E-2      -19.06        0.82217       -29.28         
84.2958       0.05393       -155.23       9.54E-2       -19.37        9.537E-2      -19.14        0.82237       -29.45         
84.8958       0.05401       -155.08       9.537E-2      -19.48        9.537E-2      -19.33        0.82239       -29.65         
85.4957       0.05408       -154.98       9.543E-2      -19.64        9.539E-2      -19.46        0.82287       -29.85         
86.0957       0.05413       -154.78       9.544E-2      -19.76        9.538E-2      -19.61        0.8227        -30.05         
86.6957       0.05418       -154.59       9.541E-2      -19.94        9.539E-2      -19.73        0.82308       -30.25         
87.2957       0.05427       -154.49       9.544E-2      -20.04        9.542E-2      -19.89        0.82348       -30.43         
87.8956       0.05433       -154.34       9.545E-2      -20.17        9.536E-2      -19.99        0.82344       -30.62         
88.4956       0.05445       -154.16       9.543E-2      -20.31        9.538E-2      -20.15        0.82359       -30.81         
89.0956       0.05451       -154.01       9.545E-2      -20.44        9.537E-2      -20.29        0.82379       -31.00         
89.6955       0.05456       -153.85       9.551E-2      -20.59        9.541E-2      -20.42        0.82419       -31.19         
90.2955       0.05465       -153.69       9.55E-2       -20.69        9.542E-2      -20.55        0.82431       -31.39         
90.8955       0.05472       -153.58       9.553E-2      -20.83        9.539E-2      -20.68        0.82451       -31.58         
91.4954       0.05479       -153.41       9.554E-2      -20.97        9.539E-2      -20.81        0.82469       -31.77         
92.0954       0.05487       -153.22       9.552E-2      -21.12        9.542E-2      -20.97        0.82476       -31.97         
