!    8/12/2020   02:53:42 
! Ref Plane: 0.000 mm
# MHZ S MA R  50
!
0.3000        0.04823       177.53        9.859E-2      -1.21         9.692E-2      -1.05         0.81757       -0.53          
0.9000        0.04778       178.60        9.462E-2      -0.69         9.563E-2      -0.46         0.81041       -0.73          
1.4999        0.04781       178.99        9.487E-2      -0.63         9.541E-2      -0.46         0.80844       -0.89          
2.0999        0.04779       179.26        9.496E-2      -0.83         9.531E-2      -0.56         0.80845       -1.16          
2.6999        0.04783       179.49        9.506E-2      -0.96         9.522E-2      -0.70         0.80837       -1.40          
3.2999        0.04783       179.80        9.511E-2      -1.09         9.523E-2      -0.84         0.8083        -1.61          
3.8998        0.04791       -179.98       9.509E-2      -1.24         9.521E-2      -1.00         0.80841       -1.85          
4.4998        0.04788       -179.81       9.51E-2       -1.38         9.518E-2      -1.13         0.80855       -2.05          
5.0998        0.04794       -179.49       9.513E-2      -1.48         9.521E-2      -1.25         0.80849       -2.27          
5.6997        0.04793       -179.22       9.511E-2      -1.61         9.52E-2       -1.42         0.80876       -2.50          
6.2997        0.04795       -179.09       9.512E-2      -1.78         9.521E-2      -1.53         0.80855       -2.71          
6.8997        0.04801       -178.83       9.517E-2      -1.97         9.515E-2      -1.69         0.8089        -2.95          
7.4996        0.04802       -178.55       9.516E-2      -2.05         9.516E-2      -1.80         0.8089        -3.17          
8.0996        0.04805       -178.35       9.515E-2      -2.21         9.515E-2      -1.93         0.80847       -3.39          
8.6996        0.04806       -178.13       9.517E-2      -2.30         9.516E-2      -2.07         0.80872       -3.60          
9.2996        0.04808       -177.83       9.524E-2      -2.44         9.521E-2      -2.22         0.8089        -3.81          
9.8995        0.04811       -177.60       9.519E-2      -2.62         9.514E-2      -2.38         0.8086        -4.03          
10.4995       0.04812       -177.39       9.518E-2      -2.73         9.515E-2      -2.47         0.80901       -4.22          
11.0995       0.04821       -177.16       9.52E-2       -2.88         9.517E-2      -2.61         0.80908       -4.45          
11.6994       0.04821       -176.93       9.521E-2      -3.00         9.514E-2      -2.75         0.80922       -4.67          
12.2994       0.04822       -176.69       9.52E-2       -3.13         9.516E-2      -2.88         0.80915       -4.87          
12.8994       0.04823       -176.47       9.524E-2      -3.21         9.514E-2      -3.03         0.80911       -5.08          
13.4993       0.04824       -176.21       9.527E-2      -3.42         9.514E-2      -3.17         0.80931       -5.31          
14.0993       0.04829       -176.03       9.522E-2      -3.52         9.513E-2      -3.32         0.80915       -5.50          
14.6993       0.04832       -175.76       9.516E-2      -3.69         9.516E-2      -3.43         0.80919       -5.69          
15.2993       0.04835       -175.57       9.519E-2      -3.74         9.512E-2      -3.57         0.80942       -5.90          
15.8992       0.04834       -175.36       9.521E-2      -3.91         9.513E-2      -3.70         0.80948       -6.11          
16.4992       0.04841       -175.15       9.521E-2      -4.05         9.516E-2      -3.88         0.80934       -6.35          
17.0992       0.04842       -174.92       9.522E-2      -4.17         9.515E-2      -4.00         0.80957       -6.57          
17.6991       0.04852       -174.68       9.519E-2      -4.32         9.512E-2      -4.16         0.80949       -6.79          
18.2991       0.04849       -174.48       9.518E-2      -4.47         9.515E-2      -4.24         0.80949       -6.95          
18.8991       0.04853       -174.27       9.521E-2      -4.61         9.518E-2      -4.35         0.80991       -7.17          
19.4990       0.04854       -174.02       9.526E-2      -4.74         9.513E-2      -4.52         0.8099        -7.38          
20.0990       0.0486        -173.79       9.524E-2      -4.88         9.517E-2      -4.65         0.80981       -7.60          
20.6990       0.04862       -173.60       9.526E-2      -5.02         9.518E-2      -4.78         0.8097        -7.81          
21.2990       0.04861       -173.29       9.52E-2       -5.17         9.522E-2      -4.90         0.80974       -8.01          
21.8989       0.04868       -173.16       9.523E-2      -5.29         9.517E-2      -5.03         0.80994       -8.22          
22.4989       0.04871       -172.94       9.518E-2      -5.46         9.522E-2      -5.17         0.80982       -8.44          
23.0989       0.0488        -172.76       9.52E-2       -5.57         9.523E-2      -5.32         0.81013       -8.65          
23.6988       0.04877       -172.45       9.523E-2      -5.69         9.52E-2       -5.47         0.8097        -8.87          
24.2988       0.0488        -172.31       9.521E-2      -5.81         9.52E-2       -5.59         0.80982       -9.05          
24.8988       0.04887       -172.08       9.521E-2      -5.97         9.519E-2      -5.74         0.80958       -9.27          
25.4987       0.0489        -171.88       9.522E-2      -6.09         9.516E-2      -5.88         0.8096        -9.49          
26.0987       0.04896       -171.62       9.516E-2      -6.23         9.52E-2       -5.98         0.80942       -9.70          
26.6987       0.049         -171.45       9.518E-2      -6.36         9.515E-2      -6.11         0.80941       -9.89          
27.2987       0.04901       -171.20       9.526E-2      -6.49         9.519E-2      -6.25         0.80923       -10.11         
27.8986       0.04904       -171.01       9.522E-2      -6.66         9.517E-2      -6.37         0.80893       -10.31         
28.4986       0.04906       -170.78       9.524E-2      -6.76         9.514E-2      -6.53         0.8088        -10.55         
29.0986       0.04909       -170.67       9.524E-2      -6.88         9.518E-2      -6.69         0.8087        -10.73         
29.6985       0.04919       -170.45       9.522E-2      -7.04         9.515E-2      -6.78         0.80879       -10.96         
30.2985       0.04918       -170.24       9.517E-2      -7.16         9.512E-2      -6.96         0.80843       -11.16         
30.8985       0.04922       -170.00       9.52E-2       -7.31         9.512E-2      -7.05         0.80834       -11.38         
31.4984       0.04929       -169.80       9.518E-2      -7.42         9.507E-2      -7.20         0.80841       -11.59         
32.0984       0.04931       -169.66       9.519E-2      -7.60         9.516E-2      -7.32         0.80833       -11.79         
32.6984       0.04934       -169.43       9.518E-2      -7.71         9.516E-2      -7.46         0.8083        -11.99         
33.2984       0.04936       -169.29       9.52E-2       -7.83         9.511E-2      -7.59         0.80807       -12.18         
33.8983       0.04941       -169.09       9.521E-2      -7.95         9.512E-2      -7.73         0.80822       -12.38         
34.4983       0.04946       -168.87       9.522E-2      -8.07         9.517E-2      -7.83         0.80858       -12.57         
35.0983       0.04946       -168.75       9.524E-2      -8.22         9.514E-2      -8.00         0.80831       -12.79         
35.6982       0.04953       -168.51       9.522E-2      -8.35         9.516E-2      -8.12         0.80864       -13.00         
36.2982       0.04958       -168.29       9.521E-2      -8.50         9.512E-2      -8.30         0.80858       -13.24         
36.8982       0.04957       -168.13       9.519E-2      -8.63         9.512E-2      -8.42         0.80861       -13.43         
37.4981       0.04966       -167.96       9.52E-2       -8.75         9.514E-2      -8.54         0.80838       -13.66         
38.0981       0.04968       -167.77       9.522E-2      -8.88         9.515E-2      -8.69         0.80852       -13.88         
38.6981       0.0497        -167.58       9.522E-2      -9.00         9.512E-2      -8.81         0.80845       -14.10         
39.2981       0.04974       -167.43       9.517E-2      -9.14         9.507E-2      -8.96         0.80847       -14.30         
39.8980       0.04976       -167.21       9.52E-2       -9.31         9.506E-2      -9.12         0.80816       -14.54         
40.4980       0.04979       -167.00       9.52E-2       -9.44         9.509E-2      -9.21         0.80835       -14.74         
41.0980       0.04987       -166.81       9.521E-2      -9.56         9.511E-2      -9.37         0.80802       -14.95         
41.6979       0.04989       -166.64       9.515E-2      -9.69         9.51E-2       -9.51         0.80807       -15.19         
42.2979       0.04993       -166.51       9.517E-2      -9.81         9.513E-2      -9.63         0.80826       -15.41         
42.8979       0.04999       -166.33       9.519E-2      -9.97         9.511E-2      -9.75         0.80831       -15.63         
43.4978       0.04998       -166.17       9.516E-2      -10.10        9.511E-2      -9.90         0.80832       -15.86         
44.0978       0.05004       -165.99       9.516E-2      -10.23        9.51E-2       -10.03        0.8081        -16.09         
44.6978       0.0501        -165.90       9.515E-2      -10.38        9.51E-2       -10.19        0.80838       -16.34         
45.2978       0.05016       -165.70       9.517E-2      -10.51        9.507E-2      -10.30        0.80819       -16.55         
45.8977       0.05024       -165.48       9.512E-2      -10.65        9.51E-2       -10.45        0.80834       -16.78         
46.4977       0.05021       -165.35       9.51E-2       -10.80        9.508E-2      -10.56        0.80843       -17.00         
47.0977       0.05023       -165.16       9.516E-2      -10.95        9.516E-2      -10.71        0.80939       -17.22         
47.6976       0.05033       -164.94       9.512E-2      -11.06        9.504E-2      -10.86        0.80948       -17.44         
48.2976       0.05036       -164.82       9.514E-2      -11.21        9.504E-2      -10.98        0.80932       -17.64         
48.8976       0.05042       -164.64       9.511E-2      -11.32        9.506E-2      -11.10        0.80962       -17.85         
49.4975       0.05049       -164.48       9.513E-2      -11.49        9.51E-2       -11.25        0.8096        -18.08         
50.0975       0.05048       -164.31       9.51E-2       -11.58        9.503E-2      -11.40        0.80973       -18.28         
50.6975       0.05053       -164.10       9.509E-2      -11.74        9.501E-2      -11.55        0.80964       -18.53         
51.2975       0.05058       -163.98       9.515E-2      -11.88        9.498E-2      -11.69        0.80969       -18.74         
51.8974       0.05066       -163.82       9.514E-2      -12.06        9.496E-2      -11.77        0.80964       -18.94         
52.4974       0.05138       -163.94       9.525E-2      -12.28        9.526E-2      -11.99        0.805         -19.20         
53.0974       0.05067       -163.44       9.552E-2      -12.47        9.387E-2      -11.76        0.80873       -19.35         
53.6973       0.05068       -163.40       9.533E-2      -12.53        9.504E-2      -12.22        0.81023       -19.61         
54.2973       0.05078       -163.18       9.505E-2      -12.55        9.504E-2      -12.38        0.81026       -19.83         
54.8973       0.05082       -162.99       9.505E-2      -12.69        9.501E-2      -12.49        0.81035       -20.02         
55.4972       0.05088       -162.83       9.504E-2      -12.80        9.502E-2      -12.63        0.81049       -20.25         
56.0972       0.05091       -162.64       9.506E-2      -12.94        9.502E-2      -12.76        0.81034       -20.46         
56.6972       0.05098       -162.46       9.505E-2      -13.09        9.498E-2      -12.85        0.81042       -20.65         
57.2972       0.05108       -162.29       9.501E-2      -13.23        9.504E-2      -12.98        0.81042       -20.87         
57.8971       0.05106       -162.09       9.501E-2      -13.34        9.50E-2       -13.12        0.81055       -21.07         
58.4971       0.05112       -161.96       9.508E-2      -13.48        9.504E-2      -13.30        0.81083       -21.31         
59.0971       0.05118       -161.82       9.505E-2      -13.62        9.503E-2      -13.39        0.81088       -21.49         
59.6970       0.05119       -161.59       9.505E-2      -13.76        9.504E-2      -13.54        0.81092       -21.71         
60.2970       0.05124       -161.40       9.50E-2       -13.87        9.499E-2      -13.66        0.8109        -21.90         
60.8970       0.05132       -161.24       9.503E-2      -14.04        9.506E-2      -13.83        0.81113       -22.13         
61.4969       0.05134       -161.14       9.504E-2      -14.16        9.504E-2      -13.94        0.81113       -22.33         
62.0969       0.05142       -160.91       9.502E-2      -14.31        9.502E-2      -14.08        0.81092       -22.55         
62.6969       0.05142       -160.83       9.503E-2      -14.43        9.497E-2      -14.22        0.81094       -22.75         
63.2969       0.05152       -160.65       9.502E-2      -14.53        9.502E-2      -14.34        0.81114       -22.96         
63.8968       0.05155       -160.47       9.501E-2      -14.68        9.501E-2      -14.50        0.81113       -23.16         
64.4968       0.05162       -160.33       9.502E-2      -14.82        9.498E-2      -14.63        0.81115       -23.38         
65.0968       0.05167       -160.15       9.503E-2      -14.97        9.502E-2      -14.77        0.81124       -23.59         
65.6967       0.05174       -159.98       9.502E-2      -15.11        9.503E-2      -14.91        0.81138       -23.79         
66.2967       0.05174       -159.83       9.501E-2      -15.21        9.499E-2      -15.05        0.81144       -23.99         
66.8967       0.05179       -159.68       9.498E-2      -15.36        9.499E-2      -15.20        0.81123       -24.22         
67.4966       0.05183       -159.50       9.495E-2      -15.47        9.50E-2       -15.33        0.81122       -24.43         
68.0966       0.05187       -159.38       9.496E-2      -15.63        9.501E-2      -15.46        0.81133       -24.65         
68.6966       0.05195       -159.16       9.495E-2      -15.74        9.501E-2      -15.55        0.81139       -24.82         
69.2966       0.05203       -158.99       9.497E-2      -15.89        9.502E-2      -15.69        0.81141       -25.06         
69.8965       0.05209       -158.85       9.496E-2      -16.03        9.499E-2      -15.81        0.81145       -25.27         
70.4965       0.05214       -158.74       9.50E-2       -16.15        9.497E-2      -15.95        0.81163       -25.47         
71.0965       0.05215       -158.57       9.497E-2      -16.30        9.50E-2       -16.08        0.8118        -25.67         
71.6964       0.05225       -158.39       9.494E-2      -16.44        9.502E-2      -16.21        0.81171       -25.87         
72.2964       0.05228       -158.29       9.493E-2      -16.58        9.495E-2      -16.37        0.81177       -26.08         
72.8964       0.05238       -158.15       9.498E-2      -16.73        9.497E-2      -16.48        0.81186       -26.30         
73.4963       0.05248       -157.95       9.495E-2      -16.89        9.496E-2      -16.62        0.81186       -26.51         
74.0963       0.05249       -157.82       9.496E-2      -16.99        9.498E-2      -16.76        0.81208       -26.72         
74.6963       0.05252       -157.73       9.493E-2      -17.16        9.494E-2      -16.87        0.81182       -26.91         
75.2963       0.05259       -157.53       9.492E-2      -17.27        9.492E-2      -16.99        0.81191       -27.12         
75.8962       0.05262       -157.40       9.49E-2       -17.42        9.496E-2      -17.16        0.81209       -27.31         
76.4962       0.05273       -157.16       9.494E-2      -17.54        9.495E-2      -17.29        0.81235       -27.53         
77.0962       0.05278       -157.07       9.494E-2      -17.68        9.496E-2      -17.41        0.81243       -27.75         
77.6961       0.05284       -156.94       9.491E-2      -17.80        9.497E-2      -17.56        0.81276       -27.95         
78.2961       0.05296       -156.73       9.492E-2      -17.91        9.493E-2      -17.68        0.81278       -28.15         
78.8961       0.05295       -156.65       9.492E-2      -18.06        9.496E-2      -17.80        0.81302       -28.35         
79.4960       0.05304       -156.47       9.491E-2      -18.17        9.498E-2      -17.95        0.8133        -28.54         
80.0960       0.05306       -156.32       9.489E-2      -18.34        9.494E-2      -18.09        0.81317       -28.77         
80.6960       0.05311       -156.22       9.491E-2      -18.45        9.494E-2      -18.19        0.81315       -28.95         
81.2960       0.05318       -156.08       9.494E-2      -18.60        9.496E-2      -18.35        0.81369       -29.16         
81.8959       0.05328       -155.89       9.489E-2      -18.69        9.499E-2      -18.48        0.81381       -29.34         
82.4959       0.05334       -155.75       9.491E-2      -18.86        9.497E-2      -18.59        0.81391       -29.57         
83.0959       0.05341       -155.59       9.491E-2      -18.97        9.495E-2      -18.73        0.81399       -29.73         
83.6958       0.05349       -155.43       9.493E-2      -19.12        9.494E-2      -18.89        0.81433       -29.97         
84.2958       0.05354       -155.25       9.494E-2      -19.27        9.496E-2      -18.96        0.81449       -30.14         
84.8958       0.05359       -155.11       9.494E-2      -19.40        9.492E-2      -19.14        0.81441       -30.35         
85.4957       0.05368       -155.00       9.495E-2      -19.55        9.492E-2      -19.29        0.81479       -30.55         
86.0957       0.05373       -154.82       9.497E-2      -19.68        9.491E-2      -19.42        0.81463       -30.76         
86.6957       0.05377       -154.62       9.494E-2      -19.83        9.493E-2      -19.55        0.81488       -30.96         
87.2957       0.05387       -154.53       9.496E-2      -19.95        9.494E-2      -19.68        0.81527       -31.16         
87.8956       0.05387       -154.36       9.494E-2      -20.08        9.488E-2      -19.79        0.81503       -31.35         
88.4956       0.05401       -154.19       9.489E-2      -20.20        9.491E-2      -19.94        0.81517       -31.54         
89.0956       0.05407       -153.98       9.495E-2      -20.32        9.49E-2       -20.09        0.81526       -31.74         
89.6955       0.05412       -153.85       9.498E-2      -20.46        9.49E-2       -20.21        0.81563       -31.93         
90.2955       0.05419       -153.72       9.497E-2      -20.57        9.491E-2      -20.33        0.81557       -32.14         
90.8955       0.05427       -153.59       9.497E-2      -20.72        9.488E-2      -20.48        0.81578       -32.33         
91.4954       0.05432       -153.41       9.499E-2      -20.84        9.486E-2      -20.60        0.81586       -32.53         
92.0954       0.05441       -153.24       9.497E-2      -20.99        9.489E-2      -20.75        0.81585       -32.73         
