!    8/12/2020   02:54:47 
! Ref Plane: 0.000 mm
# MHZ S MA R  50
!
0.3000        0.04801       177.64        9.852E-2      -1.18         9.684E-2      -1.01         0.81733       -0.54          
0.9000        0.0477        178.75        9.46E-2       -0.66         9.557E-2      -0.50         0.8103        -0.75          
1.4999        0.04779       179.00        9.486E-2      -0.64         9.536E-2      -0.46         0.80847       -0.90          
2.0999        0.04775       179.29        9.499E-2      -0.83         9.524E-2      -0.57         0.80846       -1.17          
2.6999        0.04781       179.54        9.505E-2      -0.98         9.518E-2      -0.71         0.80833       -1.39          
3.2999        0.04777       179.82        9.508E-2      -1.09         9.519E-2      -0.87         0.80839       -1.61          
3.8998        0.0479        -179.96       9.507E-2      -1.25         9.517E-2      -1.02         0.80853       -1.84          
4.4998        0.04786       -179.75       9.507E-2      -1.39         9.519E-2      -1.15         0.80866       -2.05          
5.0998        0.04795       -179.43       9.506E-2      -1.51         9.515E-2      -1.28         0.80863       -2.26          
5.6997        0.04793       -179.18       9.51E-2       -1.66         9.518E-2      -1.45         0.80893       -2.49          
6.2997        0.04796       -179.07       9.509E-2      -1.81         9.514E-2      -1.56         0.80871       -2.70          
6.8997        0.048         -178.81       9.516E-2      -2.00         9.51E-2       -1.72         0.80907       -2.93          
7.4996        0.04804       -178.51       9.512E-2      -2.08         9.512E-2      -1.84         0.80913       -3.15          
8.0996        0.04807       -178.33       9.509E-2      -2.24         9.51E-2       -2.00         0.80871       -3.37          
8.6996        0.04808       -178.09       9.511E-2      -2.35         9.51E-2       -2.12         0.80893       -3.57          
9.2996        0.04811       -177.84       9.518E-2      -2.51         9.513E-2      -2.29         0.80917       -3.78          
9.8995        0.04811       -177.62       9.515E-2      -2.68         9.51E-2       -2.44         0.80894       -4.00          
10.4995       0.04817       -177.38       9.513E-2      -2.81         9.512E-2      -2.57         0.80931       -4.19          
11.0995       0.04822       -177.16       9.514E-2      -2.95         9.514E-2      -2.70         0.80944       -4.42          
11.6994       0.04824       -176.93       9.515E-2      -3.07         9.508E-2      -2.83         0.80956       -4.63          
12.2994       0.04825       -176.71       9.513E-2      -3.21         9.509E-2      -2.97         0.80955       -4.83          
12.8994       0.04827       -176.47       9.517E-2      -3.29         9.507E-2      -3.12         0.80955       -5.04          
13.4993       0.04829       -176.21       9.523E-2      -3.50         9.508E-2      -3.27         0.80981       -5.27          
14.0993       0.04835       -176.05       9.515E-2      -3.62         9.506E-2      -3.42         0.80965       -5.45          
14.6993       0.04836       -175.79       9.513E-2      -3.80         9.511E-2      -3.53         0.80973       -5.64          
15.2993       0.04838       -175.60       9.515E-2      -3.85         9.506E-2      -3.66         0.81005       -5.85          
15.8992       0.04842       -175.39       9.515E-2      -4.02         9.508E-2      -3.82         0.81013       -6.05          
16.4992       0.04846       -175.17       9.512E-2      -4.18         9.511E-2      -4.00         0.81004       -6.29          
17.0992       0.04848       -174.93       9.518E-2      -4.29         9.508E-2      -4.12         0.81028       -6.51          
17.6991       0.04858       -174.70       9.514E-2      -4.43         9.508E-2      -4.28         0.81027       -6.72          
18.2991       0.04859       -174.50       9.512E-2      -4.60         9.509E-2      -4.39         0.81032       -6.88          
18.8991       0.0486        -174.30       9.518E-2      -4.74         9.512E-2      -4.51         0.81077       -7.10          
19.4990       0.04863       -174.08       9.52E-2       -4.88         9.508E-2      -4.67         0.81074       -7.30          
20.0990       0.04867       -173.83       9.516E-2      -5.00         9.511E-2      -4.79         0.81074       -7.51          
20.6990       0.04872       -173.65       9.518E-2      -5.17         9.513E-2      -4.95         0.81077       -7.71          
21.2990       0.04869       -173.38       9.514E-2      -5.33         9.513E-2      -5.06         0.81078       -7.92          
21.8989       0.04877       -173.23       9.517E-2      -5.44         9.513E-2      -5.18         0.81103       -8.12          
22.4989       0.04881       -173.00       9.513E-2      -5.61         9.518E-2      -5.34         0.81097       -8.34          
23.0989       0.0489        -172.85       9.515E-2      -5.72         9.516E-2      -5.48         0.81135       -8.54          
23.6988       0.04888       -172.56       9.517E-2      -5.85         9.515E-2      -5.62         0.81097       -8.76          
24.2988       0.04889       -172.39       9.513E-2      -5.99         9.515E-2      -5.75         0.81115       -8.93          
24.8988       0.04898       -172.15       9.514E-2      -6.14         9.513E-2      -5.91         0.81103       -9.15          
25.4987       0.04902       -171.96       9.52E-2       -6.27         9.512E-2      -6.06         0.81115       -9.36          
26.0987       0.04908       -171.72       9.512E-2      -6.40         9.515E-2      -6.16         0.81098       -9.56          
26.6987       0.04912       -171.56       9.513E-2      -6.55         9.513E-2      -6.30         0.81104       -9.75          
27.2987       0.04912       -171.30       9.523E-2      -6.67         9.513E-2      -6.42         0.8109        -9.97          
27.8986       0.04917       -171.13       9.518E-2      -6.85         9.51E-2       -6.57         0.81072       -10.16         
28.4986       0.0492        -170.87       9.518E-2      -6.96         9.512E-2      -6.72         0.81062       -10.39         
29.0986       0.04923       -170.79       9.517E-2      -7.07         9.512E-2      -6.87         0.81059       -10.57         
29.6985       0.04933       -170.58       9.519E-2      -7.22         9.51E-2       -6.97         0.8107        -10.79         
30.2985       0.0493        -170.36       9.514E-2      -7.38         9.509E-2      -7.16         0.81046       -10.99         
30.8985       0.04935       -170.12       9.516E-2      -7.54         9.507E-2      -7.27         0.81048       -11.19         
31.4984       0.04941       -169.96       9.516E-2      -7.64         9.503E-2      -7.40         0.8106        -11.40         
32.0984       0.04946       -169.84       9.516E-2      -7.82         9.513E-2      -7.53         0.81059       -11.60         
32.6984       0.04949       -169.59       9.516E-2      -7.91         9.51E-2       -7.65         0.81068       -11.79         
33.2984       0.04952       -169.43       9.517E-2      -8.05         9.509E-2      -7.81         0.81055       -11.97         
33.8983       0.04954       -169.25       9.521E-2      -8.18         9.508E-2      -7.95         0.81075       -12.16         
34.4983       0.04962       -169.03       9.519E-2      -8.29         9.514E-2      -8.06         0.81124       -12.35         
35.0983       0.04963       -168.87       9.521E-2      -8.45         9.512E-2      -8.23         0.81107       -12.56         
35.6982       0.04967       -168.71       9.521E-2      -8.58         9.511E-2      -8.35         0.81147       -12.77         
36.2982       0.04973       -168.50       9.523E-2      -8.73         9.51E-2       -8.53         0.81147       -13.00         
36.8982       0.04974       -168.29       9.519E-2      -8.87         9.51E-2       -8.66         0.81161       -13.18         
37.4981       0.04981       -168.16       9.52E-2       -8.99         9.514E-2      -8.77         0.81146       -13.40         
38.0981       0.04984       -167.96       9.522E-2      -9.12         9.513E-2      -8.94         0.8117        -13.61         
38.6981       0.04987       -167.79       9.524E-2      -9.23         9.513E-2      -9.06         0.81171       -13.83         
39.2981       0.04992       -167.59       9.521E-2      -9.36         9.509E-2      -9.20         0.81184       -14.02         
39.8980       0.04996       -167.41       9.521E-2      -9.55         9.509E-2      -9.38         0.81165       -14.25         
40.4980       0.04996       -167.21       9.525E-2      -9.70         9.512E-2      -9.46         0.81194       -14.45         
41.0980       0.05005       -167.01       9.523E-2      -9.83         9.514E-2      -9.62         0.81175       -14.65         
41.6979       0.05008       -166.88       9.518E-2      -9.95         9.511E-2      -9.75         0.81192       -14.88         
42.2979       0.05013       -166.73       9.521E-2      -10.09        9.517E-2      -9.88         0.81218       -15.09         
42.8979       0.05019       -166.56       9.523E-2      -10.23        9.513E-2      -10.02        0.81233       -15.31         
43.4978       0.05017       -166.42       9.521E-2      -10.35        9.516E-2      -10.16        0.81241       -15.53         
44.0978       0.05026       -166.22       9.521E-2      -10.50        9.515E-2      -10.30        0.81236       -15.74         
44.6978       0.05031       -166.13       9.521E-2      -10.64        9.512E-2      -10.47        0.81278       -15.99         
45.2978       0.05035       -165.94       9.525E-2      -10.79        9.513E-2      -10.56        0.81266       -16.19         
45.8977       0.05043       -165.74       9.521E-2      -10.94        9.514E-2      -10.73        0.81293       -16.41         
46.4977       0.05042       -165.60       9.516E-2      -11.08        9.515E-2      -10.85        0.81314       -16.63         
47.0977       0.05046       -165.41       9.521E-2      -11.22        9.521E-2      -10.98        0.81421       -16.83         
47.6976       0.05052       -165.22       9.521E-2      -11.37        9.513E-2      -11.12        0.81449       -17.05         
48.2976       0.05058       -165.10       9.525E-2      -11.49        9.514E-2      -11.26        0.81443       -17.23         
48.8976       0.05064       -164.93       9.521E-2      -11.63        9.515E-2      -11.39        0.81484       -17.44         
49.4975       0.05071       -164.75       9.521E-2      -11.78        9.522E-2      -11.53        0.8149        -17.66         
50.0975       0.05072       -164.59       9.52E-2       -11.87        9.511E-2      -11.69        0.81512       -17.85         
50.6975       0.05075       -164.40       9.522E-2      -12.04        9.514E-2      -11.84        0.81524       -18.09         
51.2975       0.05082       -164.27       9.524E-2      -12.17        9.511E-2      -11.98        0.81537       -18.29         
51.8974       0.0509        -164.14       9.527E-2      -12.34        9.509E-2      -12.07        0.81545       -18.48         
52.4974       0.05165       -164.21       9.539E-2      -12.56        9.537E-2      -12.28        0.81089       -18.73         
53.0974       0.05093       -163.75       9.567E-2      -12.77        9.405E-2      -12.11        0.81475       -18.88         
53.6973       0.05093       -163.73       9.54E-2       -12.82        9.515E-2      -12.54        0.81641       -19.12         
54.2973       0.05106       -163.48       9.52E-2       -12.87        9.52E-2       -12.68        0.81662       -19.33         
54.8973       0.05109       -163.35       9.523E-2      -13.00        9.518E-2      -12.80        0.81683       -19.52         
55.4972       0.05114       -163.18       9.522E-2      -13.13        9.522E-2      -12.94        0.81709       -19.73         
56.0972       0.05121       -163.01       9.521E-2      -13.26        9.518E-2      -13.09        0.8171        -19.93         
56.6972       0.05123       -162.82       9.523E-2      -13.43        9.517E-2      -13.18        0.81724       -20.11         
57.2972       0.05134       -162.65       9.517E-2      -13.57        9.521E-2      -13.32        0.81744       -20.33         
57.8971       0.05133       -162.47       9.523E-2      -13.69        9.52E-2       -13.46        0.81768       -20.52         
58.4971       0.05142       -162.35       9.528E-2      -13.82        9.524E-2      -13.63        0.81811       -20.74         
59.0971       0.05142       -162.19       9.526E-2      -13.93        9.526E-2      -13.72        0.8183        -20.91         
59.6970       0.05149       -162.00       9.526E-2      -14.08        9.527E-2      -13.87        0.8185        -21.13         
60.2970       0.05152       -161.82       9.524E-2      -14.20        9.524E-2      -14.00        0.81856       -21.31         
60.8970       0.0516        -161.64       9.528E-2      -14.37        9.528E-2      -14.15        0.81891       -21.52         
61.4969       0.05165       -161.53       9.529E-2      -14.49        9.527E-2      -14.29        0.81903       -21.72         
62.0969       0.05172       -161.33       9.529E-2      -14.64        9.529E-2      -14.42        0.81901       -21.93         
62.6969       0.05173       -161.25       9.531E-2      -14.76        9.526E-2      -14.57        0.81914       -22.12         
63.2969       0.05182       -161.04       9.534E-2      -14.89        9.531E-2      -14.68        0.8194        -22.32         
63.8968       0.05186       -160.92       9.531E-2      -15.03        9.53E-2       -14.87        0.81958       -22.51         
64.4968       0.05193       -160.76       9.537E-2      -15.18        9.53E-2       -14.98        0.81975       -22.72         
65.0968       0.05199       -160.58       9.535E-2      -15.34        9.534E-2      -15.14        0.81996       -22.92         
65.6967       0.05206       -160.42       9.537E-2      -15.46        9.537E-2      -15.27        0.82028       -23.11         
66.2967       0.05208       -160.29       9.539E-2      -15.57        9.533E-2      -15.40        0.82046       -23.30         
66.8967       0.05212       -160.14       9.536E-2      -15.71        9.535E-2      -15.56        0.82042       -23.52         
67.4966       0.05217       -159.97       9.534E-2      -15.84        9.54E-2       -15.68        0.82052       -23.72         
68.0966       0.05221       -159.83       9.537E-2      -15.98        9.54E-2       -15.82        0.82078       -23.93         
68.6966       0.05232       -159.64       9.542E-2      -16.11        9.54E-2       -15.94        0.82094       -24.08         
69.2966       0.0524        -159.51       9.541E-2      -16.27        9.544E-2      -16.06        0.82113       -24.31         
69.8965       0.05245       -159.33       9.542E-2      -16.44        9.543E-2      -16.21        0.82125       -24.52         
70.4965       0.05248       -159.23       9.543E-2      -16.54        9.541E-2      -16.34        0.82163       -24.70         
71.0965       0.05254       -159.07       9.541E-2      -16.68        9.548E-2      -16.48        0.82195       -24.89         
71.6964       0.05263       -158.87       9.542E-2      -16.82        9.548E-2      -16.62        0.82198       -25.09         
72.2964       0.05266       -158.80       9.546E-2      -16.97        9.543E-2      -16.77        0.8222        -25.29         
72.8964       0.05276       -158.70       9.55E-2       -17.13        9.546E-2      -16.88        0.82244       -25.50         
73.4963       0.05288       -158.49       9.55E-2       -17.28        9.544E-2      -17.05        0.82257       -25.69         
74.0963       0.05289       -158.39       9.551E-2      -17.42        9.55E-2       -17.19        0.8229        -25.90         
74.6963       0.05291       -158.31       9.549E-2      -17.56        9.548E-2      -17.30        0.82284       -26.08         
75.2963       0.053         -158.10       9.55E-2       -17.68        9.549E-2      -17.44        0.82307       -26.29         
75.8962       0.05302       -157.97       9.549E-2      -17.84        9.553E-2      -17.58        0.82333       -26.47         
76.4962       0.05313       -157.76       9.555E-2      -17.95        9.557E-2      -17.73        0.82379       -26.67         
77.0962       0.05321       -157.67       9.556E-2      -18.12        9.557E-2      -17.86        0.82401       -26.88         
77.6961       0.05327       -157.51       9.552E-2      -18.27        9.559E-2      -18.02        0.82445       -27.08         
78.2961       0.05337       -157.35       9.557E-2      -18.36        9.558E-2      -18.14        0.82462       -27.27         
78.8961       0.05341       -157.26       9.558E-2      -18.52        9.564E-2      -18.27        0.82507       -27.44         
79.4960       0.05347       -157.09       9.559E-2      -18.66        9.564E-2      -18.43        0.82542       -27.63         
80.0960       0.05349       -156.94       9.561E-2      -18.81        9.563E-2      -18.56        0.82545       -27.85         
80.6960       0.05355       -156.84       9.562E-2      -18.92        9.562E-2      -18.68        0.82562       -28.02         
81.2960       0.05364       -156.71       9.567E-2      -19.09        9.57E-2       -18.81        0.82632       -28.22         
81.8959       0.0537        -156.57       9.562E-2      -19.19        9.572E-2      -18.96        0.82657       -28.40         
82.4959       0.05381       -156.42       9.566E-2      -19.36        9.574E-2      -19.09        0.82685       -28.61         
83.0959       0.05387       -156.24       9.568E-2      -19.48        9.574E-2      -19.22        0.82702       -28.77         
83.6958       0.05394       -156.12       9.572E-2      -19.62        9.574E-2      -19.39        0.82755       -29.00         
84.2958       0.05401       -155.95       9.575E-2      -19.78        9.574E-2      -19.48        0.82786       -29.16         
84.8958       0.05407       -155.84       9.577E-2      -19.91        9.573E-2      -19.67        0.82788       -29.35         
85.4957       0.05416       -155.72       9.58E-2       -20.06        9.578E-2      -19.81        0.8285        -29.54         
86.0957       0.05422       -155.53       9.582E-2      -20.20        9.577E-2      -19.96        0.82841       -29.74         
86.6957       0.05426       -155.35       9.579E-2      -20.37        9.581E-2      -20.10        0.82885       -29.94         
87.2957       0.05436       -155.27       9.586E-2      -20.51        9.579E-2      -20.25        0.82931       -30.12         
87.8956       0.0544        -155.14       9.58E-2       -20.63        9.577E-2      -20.37        0.82934       -30.31         
88.4956       0.05453       -154.97       9.583E-2      -20.75        9.581E-2      -20.53        0.8296        -30.49         
89.0956       0.0546        -154.78       9.586E-2      -20.90        9.579E-2      -20.67        0.82985       -30.68         
89.6955       0.05464       -154.63       9.593E-2      -21.04        9.584E-2      -20.82        0.83036       -30.86         
90.2955       0.05474       -154.52       9.59E-2       -21.17        9.583E-2      -20.93        0.83049       -31.06         
90.8955       0.05479       -154.42       9.595E-2      -21.32        9.585E-2      -21.08        0.83086       -31.24         
91.4954       0.05487       -154.22       9.598E-2      -21.45        9.584E-2      -21.22        0.83106       -31.44         
92.0954       0.05494       -154.09       9.594E-2      -21.62        9.584E-2      -21.39        0.83124       -31.63         
