!    8/12/2020   03:02:05 
! Ref Plane: 0.000 mm
# MHZ S MA R  50
!
0.3000        0.81991       0.28          5.795E-5      -113.05       3.194E-5      81.99         1.00255       0.63           
0.9000        0.81704       0.21          6.698E-5      -112.50       6.153E-5      -85.43        1.00105       1.70           
1.4999        0.81814       0.17          2.768E-5      161.98        6.074E-5      11.97         1.00067       2.77           
2.0999        0.81826       0.15          1.124E-4      -92.04        2.065E-5      99.42         1.00045       3.81           
2.6999        0.81839       0.11          7.217E-5      -110.36       5.568E-6      -170.47       1.00039       4.87           
3.2999        0.81845       0.08          2.082E-5      37.71         2.857E-5      -15.88        1.00026       5.92           
3.8998        0.8184        0.05          2.336E-5      -71.13        4.182E-5      -95.96        1.00028       6.97           
4.4998        0.81836       -0.01         2.157E-5      -115.15       2.531E-5      -11.64        1.00028       8.03           
5.0998        0.81834       -0.05         1.578E-5      9.03          3.287E-5      88.72         1.00025       9.09           
5.6997        0.81827       -0.09         3.168E-5      114.26        4.908E-6      -135.91       1.00027       10.14          
6.2997        0.81832       -0.12         6.819E-5      122.26        1.515E-5      53.08         1.00027       11.21          
6.8997        0.8183        -0.17         8.049E-5      -54.30        2.464E-5      -27.61        1.00037       12.26          
7.4996        0.8183        -0.20         3.269E-5      94.76         6.485E-5      122.13        1.00043       13.32          
8.0996        0.81835       -0.24         5.788E-5      -117.96       1.423E-5      -111.29       1.00035       14.37          
8.6996        0.81825       -0.29         4.089E-5      98.20         3.243E-5      137.83        1.00038       15.43          
9.2996        0.81826       -0.33         3.869E-5      -22.29        2.837E-5      34.19         1.00043       16.49          
9.8995        0.81825       -0.37         6.503E-5      -55.82        2.168E-5      67.39         1.00045       17.55          
10.4995       0.81817       -0.42         3.002E-5      129.58        1.031E-5      -61.36        1.00051       18.61          
11.0995       0.81813       -0.45         2.24E-5       -48.75        3.346E-5      22.12         1.00054       19.67          
11.6994       0.81807       -0.49         2.116E-5      74.20         4.149E-5      72.37         1.00053       20.73          
12.2994       0.81808       -0.53         7.022E-5      -133.45       5.366E-5      114.42        1.00067       21.79          
12.8994       0.81812       -0.58         5.851E-5      96.82         3.991E-5      64.08         1.00065       22.84          
13.4993       0.81809       -0.61         6.881E-5      -19.70        3.499E-5      138.83        1.00073       23.91          
14.0993       0.81807       -0.66         2.289E-5      108.99        2.058E-5      -51.31        1.00086       24.96          
14.6993       0.81803       -0.71         9.028E-5      -120.08       2.964E-6      154.35        1.0009        26.02          
15.2993       0.81796       -0.74         7.628E-5      137.30        4.699E-5      91.58         1.00089       27.09          
15.8992       0.81792       -0.78         3.253E-5      54.32         1.012E-5      -116.55       1.00099       28.15          
16.4992       0.818         -0.82         2.776E-5      129.56        3.232E-5      0.30          1.00104       29.21          
17.0992       0.81786       -0.86         6.888E-5      59.56         1.049E-5      3.95          1.00103       30.27          
17.6991       0.81797       -0.89         2.423E-5      151.70        1.372E-5      178.41        1.00107       31.33          
18.2991       0.81791       -0.94         3.976E-5      150.66        8.576E-6      -146.79       1.00103       32.39          
18.8991       0.81776       -0.98         2.625E-5      -80.54        2.022E-6      157.84        1.00113       33.46          
19.4990       0.8179        -1.02         4.933E-5      -6.67         1.095E-5      -129.79       1.0012        34.52          
20.0990       0.81783       -1.06         1.983E-5      -41.88        1.491E-5      -122.95       1.00122       35.58          
20.6990       0.81784       -1.10         5.056E-5      -30.14        2.63E-5       164.87        1.00119       36.65          
21.2990       0.81781       -1.15         4.165E-5      -131.62       1.535E-5      41.14         1.00122       37.71          
21.8989       0.81772       -1.18         3.156E-5      -43.59        3.482E-5      92.96         1.00131       38.78          
22.4989       0.81774       -1.22         6.916E-5      -111.91       1.627E-5      -143.29       1.00125       39.84          
23.0989       0.81765       -1.26         4.524E-5      133.85        1.862E-5      16.36         1.00131       40.90          
23.6988       0.81775       -1.30         2.362E-5      108.44        4.50E-5       23.50         1.00132       41.97          
24.2988       0.8177        -1.35         2.258E-5      61.80         2.412E-5      -65.01        1.00135       43.03          
24.8988       0.81773       -1.39         8.807E-6      103.87        1.946E-5      139.14        1.00127       44.10          
25.4987       0.81775       -1.42         3.526E-5      36.88         4.887E-5      14.20         1.00133       45.16          
26.0987       0.8178        -1.46         4.978E-5      173.64        4.903E-5      98.64         1.00132       46.22          
26.6987       0.81773       -1.50         2.91E-5       -158.85       3.892E-5      67.73         1.00136       47.28          
27.2987       0.81765       -1.54         4.718E-5      37.17         5.312E-5      81.29         1.00135       48.35          
27.8986       0.81774       -1.58         4.853E-6      -167.55       4.742E-6      22.16         1.00129       49.41          
28.4986       0.81763       -1.62         3.35E-5       6.85          1.432E-5      -69.11        1.00139       50.47          
29.0986       0.81773       -1.66         2.254E-5      12.95         3.481E-5      -42.24        1.00141       51.53          
29.6985       0.81755       -1.70         3.974E-5      135.16        1.773E-5      148.91        1.00124       52.59          
30.2985       0.81758       -1.74         9.283E-6      -122.26       7.598E-6      -162.23       1.00124       53.66          
30.8985       0.81764       -1.77         4.929E-5      -45.08        1.387E-5      138.69        1.00118       54.71          
31.4984       0.81754       -1.81         5.991E-5      106.01        6.407E-5      -104.48       1.00123       55.77          
32.0984       0.8176        -1.85         3.575E-5      -61.49        8.342E-6      -177.11       1.0013        56.84          
32.6984       0.81759       -1.89         3.529E-5      -128.26       2.127E-5      22.24         1.00134       57.90          
33.2984       0.81772       -1.93         3.838E-5      -74.56        2.292E-5      -164.57       1.00147       58.97          
33.8983       0.81764       -1.97         5.239E-5      4.29          2.29E-5       33.75         1.00156       60.03          
34.4983       0.81745       -2.00         1.548E-5      37.24         9.871E-6      160.07        1.00172       61.10          
35.0983       0.81763       -2.04         3.208E-5      -47.90        4.228E-5      -39.26        1.00183       62.16          
35.6982       0.81748       -2.07         3.479E-5      -70.33        3.532E-5      179.27        1.00184       63.22          
36.2982       0.81754       -2.10         2.943E-5      -103.19       3.03E-5       -110.03       1.00185       64.27          
36.8982       0.81756       -2.14         5.336E-5      -98.63        3.061E-5      68.44         1.00165       65.33          
37.4981       0.81761       -2.18         3.802E-5      -119.56       8.536E-6      130.59        1.00162       66.39          
38.0981       0.8175        -2.21         3.618E-5      0.62          1.135E-5      174.07        1.00159       67.46          
38.6981       0.81755       -2.24         3.849E-5      29.51         2.872E-5      -167.06       1.00156       68.52          
39.2981       0.81754       -2.29         4.628E-5      -167.70       4.253E-5      -68.32        1.00156       69.58          
39.8980       0.8176        -2.32         4.025E-5      -79.94        2.906E-5      -23.33        1.00146       70.65          
40.4980       0.81754       -2.37         1.517E-5      -87.02        1.925E-5      165.87        1.00153       71.71          
41.0980       0.81761       -2.41         3.99E-5       -17.55        3.952E-6      -117.87       1.00134       72.77          
41.6979       0.81752       -2.44         3.648E-5      94.73         6.979E-6      -75.88        1.00144       73.84          
42.2979       0.81756       -2.48         1.907E-5      105.69        6.297E-6      -87.71        1.00132       74.90          
42.8979       0.81748       -2.51         3.169E-5      -160.38       2.493E-5      -156.63       1.00131       75.96          
43.4978       0.81748       -2.55         3.913E-5      171.62        5.063E-5      -148.48       1.00129       77.02          
44.0978       0.81748       -2.59         8.131E-6      14.45         1.705E-5      35.04         1.00127       78.08          
44.6978       0.8174        -2.61         5.376E-6      -131.23       2.502E-5      146.37        1.00116       79.14          
45.2978       0.81757       -2.66         3.39E-5       59.85         3.603E-5      -46.87        1.00121       80.21          
45.8977       0.81753       -2.70         1.42E-5       167.79        1.522E-5      -40.08        1.00121       81.27          
46.4977       0.81746       -2.73         3.40E-5       -136.36       1.782E-5      93.21         1.00116       82.32          
47.0977       0.8176        -2.74         5.537E-5      116.29        1.603E-5      94.25         1.00136       83.34          
47.6976       0.81741       -2.78         1.981E-5      131.54        2.604E-5      164.31        1.00154       84.41          
48.2976       0.81751       -2.82         3.847E-5      57.67         9.917E-6      -85.13        1.00155       85.47          
48.8976       0.81739       -2.86         3.793E-5      104.83        3.657E-5      -91.54        1.00154       86.52          
49.4975       0.81748       -2.89         2.801E-5      70.40         4.665E-5      166.03        1.00161       87.59          
50.0975       0.81753       -2.94         2.279E-5      78.73         5.002E-5      -95.42        1.0016        88.64          
50.6975       0.8175        -2.96         1.128E-5      -92.99        2.356E-5      -113.82       1.00167       89.70          
51.2975       0.8175        -3.00         4.534E-5      98.46         2.426E-5      45.45         1.00178       90.76          
51.8974       0.81759       -3.04         1.701E-5      88.02         2.367E-5      -69.16        1.00185       91.82          
52.4974       0.81987       -3.06         3.559E-5      73.91         2.606E-5      91.31         1.00197       92.87          
53.0974       0.8174        -3.21         1.309E-5      -157.32       2.351E-5      -44.18        1.00215       93.93          
53.6973       0.81747       -3.14         3.567E-5      82.76         2.469E-5      -85.54        1.00214       94.99          
54.2973       0.81739       -3.17         1.069E-5      -168.13       1.683E-5      -33.81        1.00224       96.04          
54.8973       0.81741       -3.22         2.971E-5      -157.75       3.542E-5      62.34         1.00236       97.10          
55.4972       0.81741       -3.24         7.41E-6       -132.45       2.707E-5      151.23        1.00248       98.16          
56.0972       0.81749       -3.28         4.624E-5      76.02         6.168E-6      154.17        1.00261       99.22          
56.6972       0.81748       -3.33         4.59E-5       35.07         1.211E-5      176.09        1.00269       100.28         
57.2972       0.81742       -3.36         1.083E-5      -4.16         3.687E-5      -122.06       1.0029        101.34         
57.8971       0.81743       -3.40         2.736E-5      59.46         1.842E-5      -14.53        1.0029        102.40         
58.4971       0.81731       -3.42         2.638E-5      10.65         3.044E-5      134.13        1.00307       103.45         
59.0971       0.81738       -3.48         3.051E-5      31.78         2.966E-5      76.47         1.00316       104.52         
59.6970       0.81735       -3.50         7.831E-6      141.01        8.98E-6       38.92         1.00331       105.58         
60.2970       0.81728       -3.55         1.564E-5      173.32        2.046E-5      -4.95         1.0034        106.63         
60.8970       0.81721       -3.57         1.763E-5      -66.56        9.832E-6      156.57        1.00356       107.69         
61.4969       0.81718       -3.60         1.462E-5      -72.36        3.636E-6      -179.29       1.00375       108.76         
62.0969       0.81727       -3.64         6.752E-6      -73.76        1.875E-5      -170.53       1.00386       109.82         
62.6969       0.81729       -3.68         2.317E-5      -34.39        3.202E-5      52.04         1.00398       110.88         
63.2969       0.81724       -3.72         1.635E-5      170.86        1.976E-5      -142.79       1.00415       111.94         
63.8968       0.81704       -3.75         2.303E-5      174.53        2.585E-5      69.87         1.00427       113.00         
64.4968       0.8171        -3.79         1.616E-5      33.08         2.22E-5       -100.14       1.00446       114.05         
65.0968       0.81701       -3.82         3.351E-5      -113.19       4.738E-5      169.20        1.00458       115.12         
65.6967       0.81702       -3.85         1.818E-5      -15.75        1.057E-5      96.08         1.00479       116.17         
66.2967       0.81699       -3.89         2.59E-5       -17.77        1.594E-5      117.29        1.00498       117.24         
66.8967       0.81707       -3.92         5.995E-6      166.62        2.791E-5      21.20         1.00508       118.29         
67.4966       0.81719       -3.95         1.66E-5       141.71        1.501E-5      35.12         1.00532       119.36         
68.0966       0.81723       -3.98         3.027E-5      67.01         2.663E-5      -160.08       1.00545       120.41         
68.6966       0.81712       -4.04         8.501E-6      92.40         2.21E-5       154.71        1.00563       121.48         
69.2966       0.81709       -4.06         1.962E-5      40.15         2.786E-5      170.03        1.00575       122.53         
69.8965       0.81709       -4.10         1.709E-5      -21.93        3.328E-5      178.94        1.00597       123.60         
70.4965       0.81705       -4.14         3.556E-6      8.66          2.707E-5      -46.62        1.00612       124.66         
71.0965       0.81698       -4.18         4.47E-6       -137.23       4.795E-5      -161.66       1.00631       125.72         
71.6964       0.81699       -4.22         4.773E-6      -161.55       2.65E-5       -15.68        1.0065        126.78         
72.2964       0.81696       -4.25         1.917E-5      103.61        2.545E-5      73.55         1.00662       127.84         
72.8964       0.81689       -4.29         3.016E-5      -134.68       1.874E-5      76.71         1.00681       128.90         
73.4963       0.81694       -4.33         1.493E-5      105.16        3.538E-5      112.31        1.00697       129.96         
74.0963       0.81694       -4.36         2.231E-5      -95.90        4.519E-6      146.29        1.0071        131.02         
74.6963       0.81697       -4.41         2.11E-5       -151.06       1.288E-5      -116.31       1.00725       132.09         
75.2963       0.81695       -4.45         2.128E-5      -103.01       5.398E-5      22.98         1.00739       133.15         
75.8962       0.81685       -4.49         1.161E-5      -104.04       3.021E-5      -72.59        1.00756       134.21         
76.4962       0.81677       -4.52         1.439E-5      53.34         1.548E-5      101.78        1.00765       135.27         
77.0962       0.81681       -4.56         1.117E-5      -18.47        7.575E-6      -161.41       1.00783       136.33         
77.6961       0.81669       -4.59         2.83E-5       160.26        1.221E-5      -10.81        1.00796       137.39         
78.2961       0.81678       -4.63         2.29E-5       42.98         1.298E-5      -51.39        1.0082        138.45         
78.8961       0.81662       -4.66         2.298E-5      89.91         2.583E-5      -75.01        1.00822       139.51         
79.4960       0.81658       -4.70         3.115E-5      -98.82        2.775E-5      172.41        1.00832       140.57         
80.0960       0.81665       -4.73         2.258E-5      -134.19       8.468E-6      102.11        1.00851       141.62         
80.6960       0.81671       -4.77         1.88E-5       -145.58       3.765E-5      32.92         1.00862       142.69         
81.2960       0.81656       -4.81         1.415E-5      146.12        2.954E-5      -151.35       1.00873       143.75         
81.8959       0.81651       -4.85         1.575E-5      96.05         1.674E-5      173.18        1.00887       144.81         
82.4959       0.81656       -4.88         1.271E-5      74.04         3.991E-5      -78.27        1.009         145.87         
83.0959       0.81655       -4.92         2.666E-5      167.62        2.562E-5      -90.34        1.0091        146.93         
83.6958       0.81643       -4.94         2.199E-5      -129.17       1.331E-5      0.97          1.00924       147.98         
84.2958       0.81649       -4.99         1.421E-5      -91.75        3.678E-5      -30.20        1.00934       149.04         
84.8958       0.81647       -5.03         4.90E-6       -124.06       6.354E-6      -85.77        1.00947       150.10         
85.4957       0.81635       -5.06         1.391E-5      -70.61        2.368E-5      174.32        1.00953       151.16         
86.0957       0.81649       -5.10         2.627E-5      -56.55        3.13E-5       -24.64        1.00967       152.22         
86.6957       0.81636       -5.14         2.189E-5      -149.19       7.926E-6      -91.11        1.00973       153.28         
87.2957       0.81631       -5.17         3.135E-5      -145.75       1.326E-5      150.33        1.00982       154.34         
87.8956       0.81637       -5.22         1.058E-5      -144.42       3.108E-5      26.10         1.00999       155.39         
88.4956       0.81642       -5.25         1.996E-5      144.18        6.093E-6      26.98         1.01012       156.45         
89.0956       0.81633       -5.29         1.137E-5      60.20         3.40E-5       39.82         1.01022       157.51         
89.6955       0.81624       -5.33         4.448E-6      -162.05       8.969E-6      131.48        1.01035       158.57         
90.2955       0.81626       -5.37         6.055E-6      -138.40       1.207E-5      -124.80       1.01036       159.63         
90.8955       0.8162        -5.41         1.811E-5      145.02        2.759E-5      38.15         1.01053       160.68         
91.4954       0.81615       -5.45         7.594E-6      5.75          2.276E-5      135.31        1.01067       161.74         
92.0954       0.81622       -5.48         1.651E-5      135.62        2.536E-5      88.00         1.01078       162.80         
