!    8/6/2020   02:34:19 
! Ref Plane: 0.000 mm
# MHZ S MA R  50
!
0.3000        0.04707       178.80        9.886E-2      -1.00         9.654E-2      -0.73         0.81536       -0.36          
0.9000        0.04752       179.27        9.497E-2      -0.50         9.528E-2      -0.16         0.80964       -0.49          
1.4999        0.04769       179.32        9.515E-2      -0.32         9.533E-2      -0.27         0.8094        -0.64          
2.0999        0.04767       179.47        9.516E-2      -0.50         9.534E-2      -0.37         0.80945       -0.84          
2.6999        0.04773       179.66        9.519E-2      -0.62         9.537E-2      -0.52         0.80958       -1.00          
3.2999        0.04773       179.97        9.522E-2      -0.73         9.534E-2      -0.69         0.8096        -1.18          
3.8998        0.04783       -179.85       9.522E-2      -0.88         9.533E-2      -0.83         0.80954       -1.36          
4.4998        0.04782       -179.66       9.521E-2      -1.05         9.537E-2      -0.94         0.80964       -1.52          
5.0998        0.04792       -179.40       9.518E-2      -1.13         9.534E-2      -1.09         0.80959       -1.70          
5.6997        0.04792       -179.15       9.52E-2       -1.28         9.539E-2      -1.24         0.80973       -1.88          
6.2997        0.04796       -179.03       9.52E-2       -1.44         9.539E-2      -1.38         0.80952       -2.07          
6.8997        0.04798       -178.80       9.519E-2      -1.60         9.536E-2      -1.53         0.80976       -2.24          
7.4996        0.04805       -178.53       9.519E-2      -1.69         9.537E-2      -1.64         0.80974       -2.44          
8.0996        0.04808       -178.33       9.517E-2      -1.87         9.537E-2      -1.80         0.80949       -2.62          
8.6996        0.04811       -178.11       9.521E-2      -1.97         9.541E-2      -1.93         0.80974       -2.78          
9.2996        0.04812       -177.87       9.525E-2      -2.14         9.542E-2      -2.10         0.80989       -2.96          
9.8995        0.04817       -177.65       9.522E-2      -2.31         9.541E-2      -2.23         0.80953       -3.13          
10.4995       0.04823       -177.49       9.517E-2      -2.43         9.541E-2      -2.37         0.80989       -3.31          
11.0995       0.04828       -177.26       9.523E-2      -2.57         9.54E-2       -2.49         0.81001       -3.48          
11.6994       0.04828       -177.05       9.523E-2      -2.68         9.54E-2       -2.62         0.81001       -3.67          
12.2994       0.04831       -176.85       9.518E-2      -2.84         9.539E-2      -2.78         0.80996       -3.84          
12.8994       0.04832       -176.62       9.524E-2      -2.91         9.54E-2       -2.92         0.80992       -4.00          
13.4993       0.04836       -176.42       9.534E-2      -3.15         9.539E-2      -3.09         0.81007       -4.20          
14.0993       0.0484        -176.27       9.525E-2      -3.22         9.541E-2      -3.24         0.81009       -4.36          
14.6993       0.04844       -175.98       9.525E-2      -3.42         9.546E-2      -3.36         0.81          -4.53          
15.2993       0.04847       -175.85       9.522E-2      -3.50         9.54E-2       -3.50         0.81015       -4.72          
15.8992       0.04849       -175.66       9.527E-2      -3.64         9.542E-2      -3.67         0.81023       -4.87          
16.4992       0.04853       -175.48       9.528E-2      -3.80         9.546E-2      -3.81         0.81009       -5.06          
17.0992       0.04857       -175.23       9.529E-2      -3.94         9.543E-2      -3.95         0.81028       -5.24          
17.6991       0.04869       -175.03       9.53E-2       -4.08         9.542E-2      -4.10         0.81019       -5.43          
18.2991       0.04868       -174.88       9.528E-2      -4.23         9.546E-2      -4.22         0.8102        -5.57          
18.8991       0.04869       -174.65       9.533E-2      -4.36         9.547E-2      -4.34         0.81055       -5.74          
19.4990       0.04871       -174.44       9.536E-2      -4.52         9.547E-2      -4.51         0.81051       -5.93          
20.0990       0.04876       -174.21       9.533E-2      -4.64         9.55E-2       -4.64         0.81041       -6.11          
20.6990       0.04881       -174.01       9.535E-2      -4.81         9.552E-2      -4.78         0.81046       -6.27          
21.2990       0.04879       -173.79       9.534E-2      -4.96         9.55E-2       -4.91         0.81031       -6.44          
21.8989       0.04886       -173.64       9.538E-2      -5.10         9.551E-2      -5.06         0.81042       -6.63          
22.4989       0.0489        -173.42       9.536E-2      -5.25         9.56E-2       -5.18         0.81046       -6.79          
23.0989       0.04896       -173.32       9.537E-2      -5.36         9.559E-2      -5.35         0.81062       -6.97          
23.6988       0.04896       -173.00       9.542E-2      -5.51         9.557E-2      -5.49         0.81026       -7.14          
24.2988       0.04899       -172.87       9.538E-2      -5.65         9.557E-2      -5.62         0.81027       -7.31          
24.8988       0.04907       -172.66       9.537E-2      -5.80         9.559E-2      -5.79         0.81018       -7.49          
25.4987       0.0491        -172.52       9.543E-2      -5.91         9.556E-2      -5.92         0.81019       -7.66          
26.0987       0.04916       -172.29       9.538E-2      -6.06         9.561E-2      -6.05         0.81007       -7.83          
26.6987       0.04922       -172.09       9.541E-2      -6.20         9.556E-2      -6.18         0.80988       -8.00          
27.2987       0.04922       -171.86       9.548E-2      -6.34         9.56E-2       -6.32         0.80967       -8.18          
27.8986       0.04928       -171.68       9.547E-2      -6.51         9.561E-2      -6.47         0.80948       -8.33          
28.4986       0.04929       -171.47       9.549E-2      -6.64         9.56E-2       -6.61         0.80942       -8.53          
29.0986       0.04937       -171.43       9.545E-2      -6.75         9.562E-2      -6.76         0.80919       -8.68          
29.6985       0.04943       -171.21       9.548E-2      -6.90         9.561E-2      -6.88         0.80907       -8.87          
30.2985       0.04941       -171.01       9.548E-2      -7.05         9.563E-2      -7.05         0.80882       -9.04          
30.8985       0.04944       -170.80       9.552E-2      -7.20         9.562E-2      -7.17         0.8088        -9.22          
31.4984       0.04951       -170.59       9.549E-2      -7.30         9.56E-2       -7.31         0.80872       -9.38          
32.0984       0.04956       -170.49       9.553E-2      -7.47         9.567E-2      -7.46         0.80872       -9.56          
32.6984       0.04958       -170.26       9.555E-2      -7.60         9.568E-2      -7.57         0.80862       -9.73          
33.2984       0.04962       -170.12       9.555E-2      -7.74         9.565E-2      -7.73         0.80851       -9.88          
33.8983       0.04966       -169.96       9.559E-2      -7.87         9.567E-2      -7.85         0.80862       -10.04         
34.4983       0.04972       -169.75       9.559E-2      -8.02         9.572E-2      -7.99         0.80874       -10.20         
35.0983       0.04971       -169.65       9.561E-2      -8.14         9.572E-2      -8.18         0.80879       -10.39         
35.6982       0.04978       -169.43       9.564E-2      -8.27         9.572E-2      -8.29         0.80895       -10.55         
36.2982       0.04983       -169.29       9.566E-2      -8.46         9.571E-2      -8.46         0.80887       -10.74         
36.8982       0.04986       -169.09       9.562E-2      -8.59         9.575E-2      -8.61         0.80878       -10.92         
37.4981       0.0499        -168.95       9.568E-2      -8.72         9.579E-2      -8.72         0.80869       -11.09         
38.0981       0.04993       -168.75       9.57E-2       -8.84         9.576E-2      -8.88         0.80874       -11.28         
38.6981       0.04999       -168.59       9.571E-2      -8.98         9.576E-2      -9.02         0.80864       -11.46         
39.2981       0.05003       -168.42       9.57E-2       -9.13         9.574E-2      -9.16         0.80864       -11.64         
39.8980       0.05004       -168.29       9.573E-2      -9.30         9.58E-2       -9.34         0.80847       -11.83         
40.4980       0.05007       -168.07       9.576E-2      -9.43         9.579E-2      -9.44         0.80847       -11.99         
41.0980       0.05014       -167.88       9.577E-2      -9.58         9.585E-2      -9.61         0.8082        -12.18         
41.6979       0.05016       -167.80       9.577E-2      -9.73         9.586E-2      -9.73         0.80842       -12.37         
42.2979       0.05024       -167.65       9.578E-2      -9.85         9.59E-2       -9.89         0.80828       -12.57         
42.8979       0.05026       -167.48       9.578E-2      -10.02        9.586E-2      -10.00        0.80835       -12.75         
43.4978       0.05026       -167.35       9.578E-2      -10.14        9.591E-2      -10.17        0.80842       -12.94         
44.0978       0.05036       -167.18       9.579E-2      -10.31        9.589E-2      -10.31        0.80832       -13.14         
44.6978       0.0504        -167.08       9.581E-2      -10.46        9.595E-2      -10.47        0.80847       -13.34         
45.2978       0.05046       -166.90       9.585E-2      -10.59        9.592E-2      -10.58        0.80831       -13.53         
45.8977       0.05052       -166.73       9.587E-2      -10.74        9.596E-2      -10.75        0.80843       -13.71         
46.4977       0.05051       -166.59       9.582E-2      -10.90        9.598E-2      -10.88        0.80846       -13.91         
47.0977       0.05054       -166.41       9.589E-2      -11.05        9.60E-2       -11.06        0.80932       -14.09         
47.6976       0.0506        -166.24       9.587E-2      -11.21        9.596E-2      -11.17        0.80939       -14.27         
48.2976       0.05069       -166.15       9.595E-2      -11.36        9.601E-2      -11.30        0.80936       -14.44         
48.8976       0.05071       -165.99       9.589E-2      -11.52        9.60E-2       -11.47        0.80953       -14.63         
49.4975       0.05077       -165.85       9.593E-2      -11.65        9.606E-2      -11.61        0.80941       -14.81         
50.0975       0.05078       -165.69       9.595E-2      -11.79        9.603E-2      -11.79        0.80945       -14.99         
50.6975       0.05082       -165.52       9.594E-2      -11.94        9.608E-2      -11.94        0.80958       -15.19         
51.2975       0.05089       -165.41       9.596E-2      -12.10        9.61E-2       -12.11        0.80959       -15.38         
51.8974       0.05099       -165.31       9.595E-2      -12.23        9.615E-2      -12.25        0.80953       -15.56         
52.4974       0.05172       -165.39       9.592E-2      -12.34        9.688E-2      -12.60        0.80751       -15.75         
53.0974       0.051         -164.93       9.607E-2      -12.53        9.608E-2      -12.51        0.80703       -15.85         
53.6973       0.05107       -164.82       9.597E-2      -12.69        9.616E-2      -12.70        0.81004       -16.12         
54.2973       0.05112       -164.72       9.601E-2      -12.84        9.616E-2      -12.86        0.80999       -16.30         
54.8973       0.05116       -164.56       9.60E-2       -13.02        9.616E-2      -13.00        0.81          -16.47         
55.4972       0.05121       -164.44       9.603E-2      -13.14        9.619E-2      -13.13        0.8101        -16.64         
56.0972       0.05124       -164.29       9.605E-2      -13.29        9.619E-2      -13.30        0.80994       -16.83         
56.6972       0.0513        -164.10       9.604E-2      -13.45        9.619E-2      -13.41        0.80994       -16.99         
57.2972       0.05141       -163.97       9.605E-2      -13.61        9.618E-2      -13.58        0.80994       -17.18         
57.8971       0.05137       -163.82       9.605E-2      -13.75        9.62E-2       -13.75        0.80994       -17.35         
58.4971       0.05144       -163.73       9.611E-2      -13.90        9.625E-2      -13.92        0.81019       -17.54         
59.0971       0.05148       -163.60       9.608E-2      -14.06        9.621E-2      -14.07        0.81018       -17.71         
59.6970       0.0515        -163.43       9.608E-2      -14.23        9.625E-2      -14.24        0.81038       -17.89         
60.2970       0.05153       -163.28       9.603E-2      -14.37        9.621E-2      -14.40        0.81047       -18.06         
60.8970       0.05158       -163.10       9.604E-2      -14.54        9.622E-2      -14.58        0.81066       -18.25         
61.4969       0.05158       -163.02       9.597E-2      -14.71        9.615E-2      -14.74        0.81057       -18.44         
62.0969       0.05163       -162.88       9.596E-2      -14.85        9.608E-2      -14.85        0.81051       -18.61         
62.6969       0.05162       -162.76       9.593E-2      -14.98        9.60E-2       -15.00        0.81058       -18.80         
63.2969       0.05166       -162.54       9.586E-2      -15.10        9.596E-2      -15.10        0.81077       -19.01         
63.8968       0.0517        -162.39       9.581E-2      -15.19        9.596E-2      -15.20        0.81071       -19.18         
64.4968       0.05176       -162.11       9.585E-2      -15.28        9.596E-2      -15.29        0.81073       -19.39         
65.0968       0.05185       -161.93       9.585E-2      -15.35        9.604E-2      -15.38        0.81058       -19.56         
65.6967       0.05196       -161.75       9.595E-2      -15.47        9.614E-2      -15.49        0.81046       -19.75         
66.2967       0.05201       -161.64       9.606E-2      -15.58        9.614E-2      -15.63        0.81028       -19.94         
66.8967       0.05206       -161.53       9.609E-2      -15.73        9.626E-2      -15.75        0.81004       -20.13         
67.4966       0.05217       -161.35       9.615E-2      -15.89        9.634E-2      -15.91        0.80996       -20.32         
68.0966       0.05223       -161.23       9.62E-2       -16.03        9.638E-2      -16.06        0.80987       -20.49         
68.6966       0.05232       -161.11       9.627E-2      -16.17        9.644E-2      -16.20        0.80982       -20.65         
69.2966       0.05243       -160.97       9.63E-2       -16.37        9.65E-2       -16.35        0.80971       -20.86         
69.8965       0.05249       -160.85       9.638E-2      -16.55        9.651E-2      -16.53        0.80973       -21.04         
70.4965       0.05251       -160.77       9.637E-2      -16.68        9.65E-2       -16.68        0.80984       -21.22         
71.0965       0.05256       -160.63       9.635E-2      -16.84        9.655E-2      -16.85        0.80984       -21.39         
71.6964       0.05267       -160.46       9.636E-2      -17.01        9.655E-2      -17.02        0.80978       -21.57         
72.2964       0.0527        -160.41       9.641E-2      -17.16        9.653E-2      -17.15        0.80977       -21.75         
72.8964       0.05282       -160.32       9.644E-2      -17.31        9.655E-2      -17.29        0.80972       -21.96         
73.4963       0.0529        -160.11       9.643E-2      -17.47        9.658E-2      -17.44        0.80974       -22.13         
74.0963       0.05293       -160.02       9.65E-2       -17.59        9.665E-2      -17.57        0.80983       -22.32         
74.6963       0.053         -159.98       9.65E-2       -17.76        9.669E-2      -17.73        0.80954       -22.49         
75.2963       0.05309       -159.79       9.653E-2      -17.91        9.67E-2       -17.88        0.80958       -22.68         
75.8962       0.05319       -159.71       9.658E-2      -18.07        9.675E-2      -18.05        0.80963       -22.85         
76.4962       0.05325       -159.50       9.661E-2      -18.21        9.677E-2      -18.21        0.80978       -23.04         
77.0962       0.05332       -159.46       9.664E-2      -18.37        9.679E-2      -18.35        0.8098        -23.21         
77.6961       0.05337       -159.36       9.667E-2      -18.54        9.684E-2      -18.53        0.80999       -23.39         
78.2961       0.0535        -159.20       9.668E-2      -18.65        9.685E-2      -18.66        0.80995       -23.57         
78.8961       0.05354       -159.12       9.67E-2       -18.84        9.689E-2      -18.81        0.81009       -23.74         
79.4960       0.05362       -158.99       9.674E-2      -19.00        9.693E-2      -18.98        0.81028       -23.92         
80.0960       0.05366       -158.90       9.675E-2      -19.17        9.695E-2      -19.13        0.81026       -24.10         
80.6960       0.05373       -158.80       9.681E-2      -19.31        9.695E-2      -19.28        0.81033       -24.27         
81.2960       0.05381       -158.69       9.685E-2      -19.49        9.701E-2      -19.45        0.8105        -24.45         
81.8959       0.05388       -158.59       9.683E-2      -19.63        9.704E-2      -19.60        0.81065       -24.62         
82.4959       0.05397       -158.44       9.687E-2      -19.80        9.707E-2      -19.76        0.81084       -24.81         
83.0959       0.05406       -158.34       9.69E-2       -19.96        9.707E-2      -19.92        0.81094       -24.97         
83.6958       0.05414       -158.23       9.692E-2      -20.12        9.708E-2      -20.12        0.81104       -25.15         
84.2958       0.05421       -158.09       9.696E-2      -20.31        9.709E-2      -20.25        0.81114       -25.32         
84.8958       0.05425       -158.00       9.697E-2      -20.46        9.71E-2       -20.45        0.8111        -25.50         
85.4957       0.05438       -157.96       9.702E-2      -20.62        9.712E-2      -20.62        0.81142       -25.68         
86.0957       0.05442       -157.83       9.703E-2      -20.79        9.713E-2      -20.80        0.8113        -25.87         
86.6957       0.05447       -157.65       9.701E-2      -20.97        9.718E-2      -20.97        0.81148       -26.04         
87.2957       0.05455       -157.61       9.704E-2      -21.15        9.716E-2      -21.14        0.81171       -26.23         
87.8956       0.05459       -157.53       9.704E-2      -21.32        9.716E-2      -21.30        0.81172       -26.39         
88.4956       0.05473       -157.42       9.705E-2      -21.48        9.715E-2      -21.48        0.81181       -26.56         
89.0956       0.05482       -157.31       9.707E-2      -21.65        9.714E-2      -21.64        0.81193       -26.73         
89.6955       0.05486       -157.21       9.712E-2      -21.83        9.716E-2      -21.82        0.81218       -26.90         
90.2955       0.05493       -157.14       9.712E-2      -22.00        9.718E-2      -22.01        0.81246       -27.08         
90.8955       0.05501       -157.08       9.712E-2      -22.19        9.713E-2      -22.18        0.81253       -27.25         
91.4954       0.05506       -156.98       9.708E-2      -22.39        9.711E-2      -22.38        0.81274       -27.44         
92.0954       0.05511       -156.92       9.702E-2      -22.60        9.706E-2      -22.56        0.81282       -27.60         
