!    8/6/2020   02:33:24 
! Ref Plane: 0.000 mm
# MHZ S MA R  50
!
0.3000        0.04743       178.68        9.891E-2      -1.04         9.654E-2      -0.77         0.81549       -0.32          
0.9000        0.04762       179.03        9.495E-2      -0.48         9.535E-2      -0.18         0.81003       -0.45          
1.4999        0.04774       179.24        9.515E-2      -0.30         9.537E-2      -0.29         0.80942       -0.62          
2.0999        0.04771       179.46        9.515E-2      -0.47         9.535E-2      -0.36         0.80949       -0.83          
2.6999        0.04777       179.66        9.517E-2      -0.56         9.534E-2      -0.49         0.80933       -0.99          
3.2999        0.04775       179.97        9.521E-2      -0.65         9.537E-2      -0.64         0.80959       -1.18          
3.8998        0.04784       -179.84       9.516E-2      -0.80         9.536E-2      -0.76         0.8095        -1.37          
4.4998        0.04781       -179.61       9.516E-2      -0.91         9.538E-2      -0.87         0.80956       -1.53          
5.0998        0.04792       -179.32       9.518E-2      -1.00         9.536E-2      -0.97         0.80951       -1.71          
5.6997        0.0479        -179.04       9.517E-2      -1.14         9.538E-2      -1.12         0.80967       -1.89          
6.2997        0.04792       -178.92       9.515E-2      -1.28         9.537E-2      -1.23         0.80947       -2.09          
6.8997        0.04797       -178.64       9.516E-2      -1.43         9.535E-2      -1.37         0.80967       -2.27          
7.4996        0.04802       -178.35       9.516E-2      -1.50         9.536E-2      -1.47         0.80963       -2.47          
8.0996        0.04805       -178.18       9.515E-2      -1.64         9.536E-2      -1.60         0.80942       -2.65          
8.6996        0.04808       -177.94       9.517E-2      -1.74         9.54E-2       -1.69         0.80967       -2.82          
9.2996        0.04808       -177.68       9.522E-2      -1.87         9.539E-2      -1.85         0.80978       -3.01          
9.8995        0.04811       -177.42       9.519E-2      -2.03         9.54E-2       -1.98         0.80944       -3.18          
10.4995       0.04815       -177.23       9.518E-2      -2.13         9.542E-2      -2.10         0.80982       -3.36          
11.0995       0.0482        -177.01       9.52E-2       -2.25         9.54E-2       -2.21         0.80989       -3.55          
11.6994       0.04822       -176.75       9.52E-2       -2.35         9.54E-2       -2.33         0.80995       -3.73          
12.2994       0.04821       -176.52       9.517E-2      -2.49         9.535E-2      -2.44         0.80979       -3.91          
12.8994       0.04826       -176.27       9.523E-2      -2.55         9.539E-2      -2.57         0.80984       -4.08          
13.4993       0.04826       -176.06       9.526E-2      -2.73         9.539E-2      -2.72         0.80997       -4.28          
14.0993       0.04834       -175.88       9.524E-2      -2.83         9.536E-2      -2.84         0.80999       -4.44          
14.6993       0.04836       -175.59       9.518E-2      -2.99         9.54E-2       -2.96         0.80988       -4.62          
15.2993       0.04838       -175.42       9.518E-2      -3.04         9.538E-2      -3.08         0.81001       -4.80          
15.8992       0.0484        -175.19       9.521E-2      -3.16         9.538E-2      -3.22         0.81006       -4.97          
16.4992       0.04844       -175.00       9.52E-2       -3.32         9.542E-2      -3.35         0.80995       -5.16          
17.0992       0.04848       -174.74       9.524E-2      -3.41         9.54E-2       -3.45         0.81012       -5.34          
17.6991       0.04858       -174.50       9.521E-2      -3.55         9.537E-2      -3.58         0.81003       -5.53          
18.2991       0.04856       -174.33       9.52E-2       -3.68         9.539E-2      -3.68         0.81003       -5.69          
18.8991       0.0486        -174.08       9.525E-2      -3.79         9.543E-2      -3.80         0.81034       -5.86          
19.4990       0.04859       -173.85       9.527E-2      -3.92         9.542E-2      -3.93         0.81032       -6.05          
20.0990       0.04865       -173.60       9.522E-2      -4.06         9.541E-2      -4.05         0.81019       -6.23          
20.6990       0.04871       -173.41       9.527E-2      -4.18         9.544E-2      -4.17         0.8102        -6.40          
21.2990       0.04868       -173.14       9.523E-2      -4.30         9.542E-2      -4.30         0.81008       -6.57          
21.8989       0.04875       -173.02       9.526E-2      -4.42         9.543E-2      -4.42         0.81018       -6.76          
22.4989       0.04876       -172.75       9.524E-2      -4.58         9.55E-2       -4.53         0.81024       -6.94          
23.0989       0.04885       -172.58       9.524E-2      -4.66         9.548E-2      -4.67         0.81037       -7.12          
23.6988       0.04883       -172.31       9.53E-2       -4.76         9.547E-2      -4.78         0.80997       -7.30          
24.2988       0.04889       -172.12       9.524E-2      -4.89         9.543E-2      -4.89         0.80999       -7.46          
24.8988       0.04895       -171.91       9.525E-2      -5.03         9.546E-2      -5.06         0.80989       -7.65          
25.4987       0.04898       -171.71       9.531E-2      -5.11         9.543E-2      -5.17         0.80985       -7.82          
26.0987       0.04902       -171.45       9.522E-2      -5.27         9.545E-2      -5.26         0.80974       -8.00          
26.6987       0.04909       -171.26       9.524E-2      -5.36         9.544E-2      -5.38         0.80956       -8.17          
27.2987       0.04909       -171.02       9.532E-2      -5.48         9.543E-2      -5.51         0.80934       -8.36          
27.8986       0.04911       -170.85       9.527E-2      -5.63         9.544E-2      -5.63         0.80914       -8.52          
28.4986       0.04916       -170.58       9.533E-2      -5.72         9.545E-2      -5.75         0.80909       -8.71          
29.0986       0.04917       -170.49       9.528E-2      -5.86         9.546E-2      -5.88         0.80883       -8.87          
29.6985       0.04927       -170.27       9.529E-2      -5.97         9.544E-2      -5.97         0.80867       -9.06          
30.2985       0.04925       -170.07       9.528E-2      -6.11         9.542E-2      -6.13         0.80839       -9.24          
30.8985       0.04931       -169.81       9.529E-2      -6.23         9.54E-2       -6.22         0.8084        -9.43          
31.4984       0.04934       -169.63       9.526E-2      -6.32         9.538E-2      -6.35         0.80831       -9.59          
32.0984       0.0494        -169.49       9.529E-2      -6.48         9.546E-2      -6.46         0.80827       -9.77          
32.6984       0.04941       -169.24       9.528E-2      -6.57         9.543E-2      -6.57         0.80814       -9.94          
33.2984       0.04945       -169.08       9.529E-2      -6.70         9.542E-2      -6.70         0.80801       -10.10         
33.8983       0.04946       -168.91       9.535E-2      -6.80         9.544E-2      -6.82         0.80815       -10.27         
34.4983       0.04952       -168.66       9.53E-2       -6.92         9.544E-2      -6.92         0.80824       -10.43         
35.0983       0.04952       -168.49       9.536E-2      -7.04         9.546E-2      -7.08         0.80828       -10.62         
35.6982       0.04957       -168.31       9.535E-2      -7.16         9.545E-2      -7.17         0.80841       -10.78         
36.2982       0.04964       -168.10       9.536E-2      -7.28         9.544E-2      -7.31         0.80833       -10.98         
36.8982       0.04966       -167.89       9.532E-2      -7.41         9.545E-2      -7.44         0.80825       -11.16         
37.4981       0.04972       -167.75       9.536E-2      -7.53         9.546E-2      -7.56         0.80812       -11.34         
38.0981       0.04974       -167.57       9.537E-2      -7.63         9.547E-2      -7.68         0.80814       -11.54         
38.6981       0.04977       -167.37       9.538E-2      -7.74         9.544E-2      -7.81         0.80802       -11.72         
39.2981       0.04981       -167.19       9.537E-2      -7.87         9.542E-2      -7.92         0.80801       -11.90         
39.8980       0.04982       -167.00       9.538E-2      -8.00         9.544E-2      -8.10         0.80783       -12.09         
40.4980       0.04984       -166.77       9.538E-2      -8.14         9.544E-2      -8.16         0.80783       -12.26         
41.0980       0.04994       -166.55       9.539E-2      -8.25         9.547E-2      -8.30         0.80753       -12.46         
41.6979       0.04997       -166.42       9.537E-2      -8.35         9.547E-2      -8.41         0.80773       -12.65         
42.2979       0.05          -166.28       9.535E-2      -8.48         9.551E-2      -8.55         0.80756       -12.85         
42.8979       0.05003       -166.08       9.539E-2      -8.62         9.544E-2      -8.66         0.80765       -13.04         
43.4978       0.05003       -165.93       9.538E-2      -8.71         9.547E-2      -8.78         0.80763       -13.24         
44.0978       0.0501        -165.74       9.536E-2      -8.86         9.547E-2      -8.90         0.80753       -13.44         
44.6978       0.05018       -165.65       9.534E-2      -8.98         9.547E-2      -9.04         0.80765       -13.64         
45.2978       0.0502        -165.46       9.541E-2      -9.11         9.548E-2      -9.14         0.80754       -13.83         
45.8977       0.05027       -165.22       9.537E-2      -9.24         9.547E-2      -9.27         0.80763       -14.02         
46.4977       0.05027       -165.07       9.533E-2      -9.39         9.548E-2      -9.38         0.80759       -14.22         
47.0977       0.05027       -164.87       9.54E-2       -9.50         9.553E-2      -9.51         0.80845       -14.40         
47.6976       0.05033       -164.69       9.537E-2      -9.64         9.541E-2      -9.64         0.80849       -14.59         
48.2976       0.05041       -164.55       9.541E-2      -9.77         9.545E-2      -9.74         0.80843       -14.76         
48.8976       0.05044       -164.36       9.537E-2      -9.89         9.546E-2      -9.88         0.80856       -14.96         
49.4975       0.05051       -164.19       9.533E-2      -10.02        9.554E-2      -9.99         0.80846       -15.14         
50.0975       0.05051       -164.05       9.532E-2      -10.12        9.548E-2      -10.13        0.80842       -15.33         
50.6975       0.05054       -163.80       9.537E-2      -10.26        9.549E-2      -10.26        0.80859       -15.53         
51.2975       0.05059       -163.68       9.532E-2      -10.37        9.55E-2       -10.41        0.8085        -15.73         
51.8974       0.0507        -163.53       9.529E-2      -10.48        9.555E-2      -10.53        0.80845       -15.90         
52.4974       0.05142       -163.67       9.527E-2      -10.56        9.627E-2      -10.86        0.80638       -16.10         
53.0974       0.05073       -163.14       9.542E-2      -10.72        9.544E-2      -10.73        0.80593       -16.21         
53.6973       0.05076       -162.99       9.533E-2      -10.85        9.549E-2      -10.89        0.80889       -16.48         
54.2973       0.05083       -162.87       9.534E-2      -10.98        9.553E-2      -11.04        0.80877       -16.67         
54.8973       0.05086       -162.69       9.536E-2      -11.12        9.547E-2      -11.14        0.80873       -16.84         
55.4972       0.05089       -162.54       9.533E-2      -11.22        9.552E-2      -11.26        0.80882       -17.02         
56.0972       0.05094       -162.34       9.536E-2      -11.36        9.551E-2      -11.37        0.80862       -17.21         
56.6972       0.05099       -162.16       9.534E-2      -11.46        9.547E-2      -11.49        0.80857       -17.38         
57.2972       0.05107       -161.98       9.533E-2      -11.59        9.551E-2      -11.59        0.80855       -17.57         
57.8971       0.05106       -161.78       9.533E-2      -11.71        9.548E-2      -11.73        0.8085        -17.75         
58.4971       0.05116       -161.64       9.536E-2      -11.84        9.549E-2      -11.89        0.80866       -17.94         
59.0971       0.05116       -161.49       9.537E-2      -11.95        9.552E-2      -11.98        0.80856       -18.12         
59.6970       0.05123       -161.27       9.54E-2       -12.07        9.554E-2      -12.13        0.8087        -18.31         
60.2970       0.05125       -161.12       9.535E-2      -12.20        9.55E-2       -12.23        0.80865       -18.48         
60.8970       0.05133       -160.94       9.539E-2      -12.34        9.555E-2      -12.40        0.80869       -18.67         
61.4969       0.05133       -160.81       9.535E-2      -12.46        9.553E-2      -12.50        0.80854       -18.86         
62.0969       0.05139       -160.60       9.538E-2      -12.59        9.553E-2      -12.63        0.80842       -19.04         
62.6969       0.05142       -160.51       9.539E-2      -12.70        9.548E-2      -12.76        0.8083        -19.23         
63.2969       0.05151       -160.33       9.538E-2      -12.82        9.553E-2      -12.87        0.80831       -19.42         
63.8968       0.05154       -160.17       9.535E-2      -12.94        9.55E-2       -13.00        0.80821       -19.59         
64.4968       0.05161       -159.99       9.538E-2      -13.08        9.553E-2      -13.11        0.80824       -19.78         
65.0968       0.05167       -159.81       9.536E-2      -13.19        9.554E-2      -13.26        0.8082        -19.96         
65.6967       0.05174       -159.65       9.535E-2      -13.32        9.556E-2      -13.38        0.80817       -20.14         
66.2967       0.05175       -159.52       9.536E-2      -13.43        9.55E-2       -13.51        0.80811       -20.33         
66.8967       0.05177       -159.37       9.537E-2      -13.58        9.551E-2      -13.62        0.80791       -20.52         
67.4966       0.05182       -159.17       9.531E-2      -13.69        9.554E-2      -13.75        0.80782       -20.72         
68.0966       0.05184       -159.04       9.534E-2      -13.80        9.554E-2      -13.84        0.80781       -20.90         
68.6966       0.05195       -158.85       9.536E-2      -13.92        9.553E-2      -14.00        0.80781       -21.07         
69.2966       0.05202       -158.69       9.535E-2      -14.08        9.555E-2      -14.09        0.80765       -21.28         
69.8965       0.05206       -158.53       9.535E-2      -14.20        9.552E-2      -14.23        0.80768       -21.46         
70.4965       0.0521        -158.41       9.534E-2      -14.30        9.552E-2      -14.36        0.80771       -21.65         
71.0965       0.05214       -158.23       9.533E-2      -14.45        9.554E-2      -14.47        0.80772       -21.83         
71.6964       0.05224       -158.04       9.53E-2       -14.58        9.553E-2      -14.60        0.80758       -22.01         
72.2964       0.05227       -157.97       9.535E-2      -14.69        9.545E-2      -14.72        0.8075        -22.19         
72.8964       0.05237       -157.85       9.535E-2      -14.83        9.55E-2       -14.84        0.80746       -22.40         
73.4963       0.05244       -157.64       9.532E-2      -14.96        9.547E-2      -14.98        0.80748       -22.58         
74.0963       0.05243       -157.52       9.534E-2      -15.09        9.551E-2      -15.11        0.80752       -22.77         
74.6963       0.05251       -157.40       9.533E-2      -15.21        9.548E-2      -15.20        0.80723       -22.94         
75.2963       0.05256       -157.22       9.529E-2      -15.34        9.548E-2      -15.36        0.80727       -23.14         
75.8962       0.05261       -157.06       9.532E-2      -15.47        9.547E-2      -15.51        0.80728       -23.32         
76.4962       0.05268       -156.86       9.532E-2      -15.58        9.549E-2      -15.61        0.8074        -23.51         
77.0962       0.05274       -156.77       9.53E-2       -15.71        9.549E-2      -15.71        0.8074        -23.69         
77.6961       0.05282       -156.62       9.525E-2      -15.83        9.55E-2       -15.85        0.80759       -23.88         
78.2961       0.05289       -156.44       9.531E-2      -15.93        9.546E-2      -15.95        0.80746       -24.06         
78.8961       0.05293       -156.31       9.525E-2      -16.08        9.55E-2       -16.08        0.80754       -24.24         
79.4960       0.05301       -156.13       9.527E-2      -16.20        9.547E-2      -16.22        0.80772       -24.41         
80.0960       0.05303       -156.01       9.529E-2      -16.33        9.548E-2      -16.32        0.80759       -24.61         
80.6960       0.05309       -155.89       9.527E-2      -16.43        9.546E-2      -16.43        0.80767       -24.78         
81.2960       0.05316       -155.76       9.529E-2      -16.57        9.547E-2      -16.57        0.80778       -24.97         
81.8959       0.05323       -155.61       9.526E-2      -16.68        9.549E-2      -16.69        0.80788       -25.14         
82.4959       0.05331       -155.45       9.528E-2      -16.81        9.547E-2      -16.80        0.80803       -25.34         
83.0959       0.05338       -155.27       9.529E-2      -16.91        9.547E-2      -16.93        0.80803       -25.50         
83.6958       0.05342       -155.13       9.527E-2      -17.05        9.546E-2      -17.06        0.8081        -25.70         
84.2958       0.05349       -154.94       9.529E-2      -17.18        9.542E-2      -17.18        0.80811       -25.87         
84.8958       0.05353       -154.82       9.529E-2      -17.30        9.542E-2      -17.32        0.80801       -26.05         
85.4957       0.05363       -154.71       9.528E-2      -17.43        9.543E-2      -17.46        0.8082        -26.24         
86.0957       0.05367       -154.53       9.53E-2       -17.56        9.543E-2      -17.58        0.80803       -26.44         
86.6957       0.05372       -154.32       9.525E-2      -17.69        9.542E-2      -17.71        0.80813       -26.62         
87.2957       0.05379       -154.25       9.53E-2       -17.81        9.542E-2      -17.83        0.80825       -26.81         
87.8956       0.05383       -154.09       9.526E-2      -17.92        9.54E-2       -17.93        0.80819       -26.98         
88.4956       0.05397       -153.89       9.524E-2      -18.02        9.538E-2      -18.07        0.80814       -27.15         
89.0956       0.05401       -153.72       9.524E-2      -18.16        9.537E-2      -18.19        0.80819       -27.32         
89.6955       0.05407       -153.59       9.529E-2      -18.28        9.534E-2      -18.31        0.8083        -27.51         
90.2955       0.05417       -153.42       9.527E-2      -18.39        9.536E-2      -18.42        0.80839       -27.70         
90.8955       0.0542        -153.34       9.53E-2       -18.52        9.534E-2      -18.53        0.80833       -27.87         
91.4954       0.05428       -153.12       9.53E-2       -18.65        9.531E-2      -18.67        0.8084        -28.06         
92.0954       0.05436       -152.98       9.528E-2      -18.80        9.531E-2      -18.78        0.80825       -28.23         
