!    8/6/2020   02:31:10 
! Ref Plane: 0.000 mm
# MHZ S MA R  50
!
0.3000        0.04763       178.67        9.886E-2      -1.07         9.655E-2      -0.84         0.81512       -0.37          
0.9000        0.04772       179.11        9.494E-2      -0.53         9.531E-2      -0.27         0.80967       -0.51          
1.4999        0.04779       179.17        9.514E-2      -0.35         9.537E-2      -0.32         0.80929       -0.67          
2.0999        0.04774       179.40        9.516E-2      -0.49         9.532E-2      -0.40         0.8094        -0.88          
2.6999        0.04778       179.61        9.52E-2       -0.61         9.533E-2      -0.54         0.80935       -1.04          
3.2999        0.04777       179.90        9.52E-2       -0.69         9.533E-2      -0.69         0.80956       -1.23          
3.8998        0.04787       -179.89       9.518E-2      -0.82         9.533E-2      -0.81         0.80948       -1.42          
4.4998        0.04785       -179.70       9.515E-2      -0.93         9.535E-2      -0.91         0.80953       -1.58          
5.0998        0.04792       -179.35       9.516E-2      -1.04         9.535E-2      -1.00         0.80952       -1.76          
5.6997        0.04788       -179.16       9.516E-2      -1.16         9.538E-2      -1.16         0.80968       -1.95          
6.2997        0.04793       -179.01       9.514E-2      -1.30         9.536E-2      -1.26         0.80946       -2.14          
6.8997        0.04797       -178.72       9.516E-2      -1.45         9.532E-2      -1.38         0.80973       -2.32          
7.4996        0.04801       -178.45       9.514E-2      -1.51         9.532E-2      -1.49         0.80974       -2.52          
8.0996        0.04806       -178.27       9.512E-2      -1.65         9.531E-2      -1.62         0.8095        -2.71          
8.6996        0.04805       -178.00       9.516E-2      -1.73         9.532E-2      -1.72         0.80968       -2.88          
9.2996        0.04806       -177.77       9.523E-2      -1.89         9.535E-2      -1.88         0.80989       -3.07          
9.8995        0.0481        -177.52       9.515E-2      -2.02         9.531E-2      -1.97         0.80955       -3.24          
10.4995       0.04814       -177.31       9.514E-2      -2.13         9.536E-2      -2.11         0.80997       -3.42          
11.0995       0.04819       -177.09       9.515E-2      -2.24         9.533E-2      -2.22         0.81          -3.60          
11.6994       0.0482        -176.84       9.517E-2      -2.34         9.533E-2      -2.30         0.81013       -3.79          
12.2994       0.04821       -176.59       9.51E-2       -2.48         9.529E-2      -2.43         0.81004       -3.97          
12.8994       0.04824       -176.37       9.518E-2      -2.53         9.532E-2      -2.56         0.80999       -4.14          
13.4993       0.04824       -176.14       9.52E-2       -2.71         9.53E-2       -2.70         0.81017       -4.34          
14.0993       0.04832       -175.95       9.517E-2      -2.79         9.53E-2       -2.82         0.81022       -4.49          
14.6993       0.04832       -175.68       9.511E-2      -2.96         9.534E-2      -2.93         0.81017       -4.67          
15.2993       0.04836       -175.50       9.511E-2      -3.00         9.526E-2      -3.03         0.81033       -4.85          
15.8992       0.04837       -175.29       9.511E-2      -3.11         9.528E-2      -3.18         0.8104        -5.02          
16.4992       0.04841       -175.09       9.512E-2      -3.26         9.529E-2      -3.30         0.81029       -5.21          
17.0992       0.04845       -174.84       9.513E-2      -3.35         9.529E-2      -3.39         0.81053       -5.39          
17.6991       0.04854       -174.59       9.513E-2      -3.48         9.527E-2      -3.55         0.81045       -5.58          
18.2991       0.04854       -174.43       9.509E-2      -3.61         9.528E-2      -3.62         0.81047       -5.73          
18.8991       0.04856       -174.21       9.511E-2      -3.73         9.528E-2      -3.74         0.81076       -5.90          
19.4990       0.04857       -173.97       9.515E-2      -3.85         9.527E-2      -3.87         0.81083       -6.08          
20.0990       0.04862       -173.71       9.511E-2      -3.96         9.527E-2      -3.99         0.81071       -6.26          
20.6990       0.04867       -173.55       9.514E-2      -4.10         9.529E-2      -4.10         0.81079       -6.43          
21.2990       0.04865       -173.23       9.51E-2       -4.22         9.526E-2      -4.19         0.81068       -6.59          
21.8989       0.04872       -173.14       9.512E-2      -4.33         9.527E-2      -4.31         0.81084       -6.79          
22.4989       0.04876       -172.87       9.509E-2      -4.46         9.533E-2      -4.42         0.81088       -6.95          
23.0989       0.04881       -172.69       9.507E-2      -4.54         9.531E-2      -4.56         0.8111        -7.13          
23.6988       0.0488        -172.41       9.512E-2      -4.65         9.527E-2      -4.67         0.81076       -7.31          
24.2988       0.04884       -172.24       9.507E-2      -4.75         9.525E-2      -4.80         0.81081       -7.47          
24.8988       0.0489        -172.04       9.507E-2      -4.89         9.527E-2      -4.92         0.81069       -7.64          
25.4987       0.04894       -171.85       9.511E-2      -4.97         9.521E-2      -5.03         0.81076       -7.82          
26.0987       0.04897       -171.60       9.502E-2      -5.11         9.525E-2      -5.11         0.81068       -7.99          
26.6987       0.04906       -171.41       9.503E-2      -5.21         9.521E-2      -5.23         0.81052       -8.15          
27.2987       0.04904       -171.15       9.509E-2      -5.32         9.524E-2      -5.35         0.81037       -8.33          
27.8986       0.04909       -170.99       9.505E-2      -5.46         9.518E-2      -5.46         0.81018       -8.49          
28.4986       0.04911       -170.75       9.509E-2      -5.57         9.523E-2      -5.59         0.81016       -8.68          
29.0986       0.04914       -170.64       9.505E-2      -5.66         9.517E-2      -5.71         0.80998       -8.83          
29.6985       0.04924       -170.42       9.504E-2      -5.78         9.516E-2      -5.79         0.80989       -9.01          
30.2985       0.0492        -170.20       9.501E-2      -5.90         9.516E-2      -5.95         0.80966       -9.18          
30.8985       0.04927       -169.94       9.502E-2      -6.03         9.514E-2      -6.02         0.80969       -9.36          
31.4984       0.04932       -169.80       9.501E-2      -6.11         9.509E-2      -6.14         0.80959       -9.51          
32.0984       0.04936       -169.66       9.499E-2      -6.25         9.516E-2      -6.26         0.80963       -9.69          
32.6984       0.04937       -169.42       9.498E-2      -6.35         9.513E-2      -6.36         0.80958       -9.85          
33.2984       0.04939       -169.27       9.501E-2      -6.46         9.512E-2      -6.48         0.80953       -10.00         
33.8983       0.04942       -169.08       9.505E-2      -6.56         9.512E-2      -6.59         0.80967       -10.16         
34.4983       0.0495        -168.85       9.50E-2       -6.67         9.513E-2      -6.68         0.8099        -10.31         
35.0983       0.04949       -168.68       9.503E-2      -6.78         9.513E-2      -6.83         0.80996       -10.49         
35.6982       0.04954       -168.51       9.504E-2      -6.87         9.511E-2      -6.92         0.81015       -10.65         
36.2982       0.04958       -168.29       9.502E-2      -7.00         9.511E-2      -7.07         0.81013       -10.83         
36.8982       0.0496        -168.09       9.501E-2      -7.13         9.509E-2      -7.16         0.81005       -11.00         
37.4981       0.04966       -167.93       9.502E-2      -7.21         9.51E-2       -7.26         0.81001       -11.17         
38.0981       0.04969       -167.75       9.504E-2      -7.33         9.508E-2      -7.39         0.81008       -11.35         
38.6981       0.04972       -167.55       9.50E-2       -7.41         9.507E-2      -7.50         0.81004       -11.53         
39.2981       0.04975       -167.41       9.497E-2      -7.53         9.503E-2      -7.61         0.8101        -11.70         
39.8980       0.04981       -167.23       9.497E-2      -7.68         9.505E-2      -7.75         0.80995       -11.88         
40.4980       0.04978       -167.00       9.497E-2      -7.79         9.505E-2      -7.82         0.81006       -12.03         
41.0980       0.04988       -166.75       9.50E-2       -7.89         9.507E-2      -7.94         0.8098        -12.21         
41.6979       0.04992       -166.63       9.497E-2      -7.99         9.506E-2      -8.07         0.81          -12.39         
42.2979       0.04994       -166.53       9.494E-2      -8.11         9.507E-2      -8.18         0.80995       -12.58         
42.8979       0.04999       -166.35       9.496E-2      -8.23         9.503E-2      -8.27         0.81008       -12.75         
43.4978       0.04997       -166.15       9.493E-2      -8.33         9.505E-2      -8.39         0.81018       -12.94         
44.0978       0.05004       -166.00       9.492E-2      -8.46         9.503E-2      -8.51         0.81012       -13.12         
44.6978       0.05011       -165.90       9.491E-2      -8.58         9.501E-2      -8.63         0.81032       -13.31         
45.2978       0.05015       -165.70       9.494E-2      -8.67         9.503E-2      -8.71         0.81025       -13.49         
45.8977       0.05021       -165.48       9.49E-2       -8.80         9.503E-2      -8.82         0.81043       -13.66         
46.4977       0.05022       -165.34       9.488E-2      -8.93         9.499E-2      -8.93         0.81045       -13.85         
47.0977       0.05023       -165.13       9.495E-2      -9.03         9.507E-2      -9.06         0.81142       -14.01         
47.6976       0.05028       -164.93       9.49E-2       -9.15         9.494E-2      -9.16         0.81151       -14.19         
48.2976       0.05034       -164.82       9.491E-2      -9.27         9.498E-2      -9.28         0.81153       -14.34         
48.8976       0.05036       -164.64       9.487E-2      -9.37         9.496E-2      -9.39         0.81177       -14.53         
49.4975       0.05044       -164.49       9.487E-2      -9.51         9.502E-2      -9.50         0.81171       -14.69         
50.0975       0.05044       -164.31       9.482E-2      -9.59         9.494E-2      -9.62         0.81185       -14.86         
50.6975       0.05048       -164.11       9.485E-2      -9.71         9.498E-2      -9.73         0.812         -15.04         
51.2975       0.05052       -163.98       9.483E-2      -9.81         9.498E-2      -9.87         0.81206       -15.22         
51.8974       0.05061       -163.84       9.48E-2       -9.92         9.501E-2      -9.98         0.81202       -15.38         
52.4974       0.05133       -163.93       9.476E-2      -9.99         9.571E-2      -10.30        0.81001       -15.56         
53.0974       0.05066       -163.46       9.493E-2      -10.14        9.482E-2      -10.15        0.80961       -15.65         
53.6973       0.05069       -163.28       9.481E-2      -10.26        9.498E-2      -10.30        0.81266       -15.91         
54.2973       0.05075       -163.17       9.481E-2      -10.37        9.496E-2      -10.43        0.81267       -16.08         
54.8973       0.05078       -163.01       9.481E-2      -10.49        9.494E-2      -10.53        0.81279       -16.23         
55.4972       0.05082       -162.86       9.481E-2      -10.58        9.50E-2       -10.63        0.81289       -16.39         
56.0972       0.05086       -162.68       9.481E-2      -10.70        9.497E-2      -10.74        0.81279       -16.56         
56.6972       0.05089       -162.47       9.481E-2      -10.80        9.491E-2      -10.82        0.81288       -16.71         
57.2972       0.05098       -162.31       9.48E-2       -10.92        9.495E-2      -10.92        0.81293       -16.88         
57.8971       0.05098       -162.14       9.478E-2      -11.02        9.494E-2      -11.05        0.81292       -17.04         
58.4971       0.05103       -162.00       9.482E-2      -11.13        9.498E-2      -11.21        0.81317       -17.22         
59.0971       0.05108       -161.85       9.482E-2      -11.23        9.495E-2      -11.26        0.81317       -17.37         
59.6970       0.05113       -161.63       9.483E-2      -11.34        9.498E-2      -11.39        0.81336       -17.54         
60.2970       0.05116       -161.48       9.477E-2      -11.44        9.494E-2      -11.50        0.81345       -17.69         
60.8970       0.05123       -161.29       9.483E-2      -11.59        9.498E-2      -11.63        0.8136        -17.86         
61.4969       0.05122       -161.15       9.479E-2      -11.69        9.495E-2      -11.75        0.81351       -18.03         
62.0969       0.05129       -160.97       9.479E-2      -11.81        9.499E-2      -11.83        0.81347       -18.19         
62.6969       0.05132       -160.89       9.481E-2      -11.90        9.494E-2      -11.98        0.81345       -18.36         
63.2969       0.05139       -160.66       9.48E-2       -12.00        9.493E-2      -12.06        0.81355       -18.53         
63.8968       0.05145       -160.57       9.48E-2       -12.12        9.495E-2      -12.20        0.81354       -18.67         
64.4968       0.05151       -160.35       9.482E-2      -12.24        9.495E-2      -12.31        0.81371       -18.85         
65.0968       0.05155       -160.21       9.483E-2      -12.36        9.494E-2      -12.41        0.81368       -19.00         
65.6967       0.05162       -160.04       9.484E-2      -12.47        9.497E-2      -12.52        0.8138        -19.17         
66.2967       0.05167       -159.91       9.48E-2       -12.56        9.491E-2      -12.64        0.81381       -19.33         
66.8967       0.05164       -159.77       9.48E-2       -12.68        9.493E-2      -12.73        0.81365       -19.51         
67.4966       0.05169       -159.57       9.477E-2      -12.78        9.496E-2      -12.87        0.81372       -19.68         
68.0966       0.0517        -159.44       9.479E-2      -12.89        9.496E-2      -12.96        0.81381       -19.83         
68.6966       0.0518        -159.26       9.478E-2      -13.00        9.495E-2      -13.06        0.81388       -19.98         
69.2966       0.05188       -159.07       9.478E-2      -13.12        9.50E-2       -13.18        0.81388       -20.17         
69.8965       0.05194       -158.93       9.48E-2       -13.25        9.496E-2      -13.27        0.81399       -20.34         
70.4965       0.05196       -158.82       9.483E-2      -13.35        9.493E-2      -13.39        0.8141        -20.50         
71.0965       0.05199       -158.67       9.478E-2      -13.46        9.496E-2      -13.49        0.8142        -20.66         
71.6964       0.05209       -158.44       9.477E-2      -13.58        9.496E-2      -13.62        0.81416       -20.82         
72.2964       0.05209       -158.37       9.478E-2      -13.69        9.49E-2       -13.73        0.81422       -20.98         
72.8964       0.0522        -158.27       9.48E-2       -13.82        9.492E-2      -13.83        0.81425       -21.16         
73.4963       0.05229       -158.04       9.48E-2       -13.95        9.493E-2      -13.96        0.81436       -21.32         
74.0963       0.05227       -157.90       9.48E-2       -14.03        9.495E-2      -14.06        0.81451       -21.50         
74.6963       0.05231       -157.82       9.478E-2      -14.16        9.494E-2      -14.16        0.81434       -21.65         
75.2963       0.05236       -157.62       9.478E-2      -14.27        9.494E-2      -14.25        0.81447       -21.82         
75.8962       0.05244       -157.49       9.478E-2      -14.39        9.497E-2      -14.41        0.81456       -21.98         
76.4962       0.05251       -157.27       9.479E-2      -14.47        9.495E-2      -14.51        0.8148        -22.15         
77.0962       0.05256       -157.18       9.479E-2      -14.59        9.497E-2      -14.59        0.81485       -22.31         
77.6961       0.05262       -157.05       9.477E-2      -14.71        9.498E-2      -14.74        0.81515       -22.48         
78.2961       0.05268       -156.85       9.476E-2      -14.79        9.495E-2      -14.81        0.81514       -22.64         
78.8961       0.05273       -156.73       9.477E-2      -14.92        9.499E-2      -14.92        0.8153        -22.79         
79.4960       0.05279       -156.55       9.478E-2      -15.02        9.502E-2      -15.06        0.8156        -22.95         
80.0960       0.0528        -156.45       9.478E-2      -15.15        9.499E-2      -15.16        0.8156        -23.13         
80.6960       0.05286       -156.32       9.481E-2      -15.25        9.498E-2      -15.26        0.81573       -23.28         
81.2960       0.05293       -156.20       9.481E-2      -15.36        9.50E-2       -15.38        0.81593       -23.44         
81.8959       0.05299       -156.05       9.479E-2      -15.45        9.501E-2      -15.48        0.81612       -23.60         
82.4959       0.05309       -155.85       9.48E-2       -15.57        9.501E-2      -15.59        0.81634       -23.77         
83.0959       0.05314       -155.70       9.482E-2      -15.69        9.502E-2      -15.68        0.81639       -23.92         
83.6958       0.05317       -155.56       9.481E-2      -15.78        9.499E-2      -15.81        0.81664       -24.09         
84.2958       0.05326       -155.38       9.486E-2      -15.93        9.499E-2      -15.90        0.81674       -24.25         
84.8958       0.0533        -155.26       9.484E-2      -16.02        9.499E-2      -16.06        0.81676       -24.41         
85.4957       0.05336       -155.13       9.489E-2      -16.16        9.50E-2       -16.16        0.81701       -24.58         
86.0957       0.0534        -154.95       9.488E-2      -16.25        9.50E-2       -16.29        0.81689       -24.76         
86.6957       0.05346       -154.74       9.485E-2      -16.38        9.50E-2       -16.39        0.81712       -24.91         
87.2957       0.05354       -154.68       9.487E-2      -16.49        9.501E-2      -16.52        0.81731       -25.08         
87.8956       0.05356       -154.51       9.487E-2      -16.60        9.497E-2      -16.60        0.81734       -25.24         
88.4956       0.05368       -154.35       9.486E-2      -16.69        9.50E-2       -16.73        0.81738       -25.39         
89.0956       0.05375       -154.15       9.487E-2      -16.79        9.50E-2       -16.85        0.81753       -25.55         
89.6955       0.05379       -154.01       9.492E-2      -16.92        9.498E-2      -16.95        0.81771       -25.71         
90.2955       0.05387       -153.87       9.492E-2      -17.01        9.501E-2      -17.04        0.81792       -25.88         
90.8955       0.05394       -153.76       9.494E-2      -17.14        9.50E-2       -17.16        0.81792       -26.04         
91.4954       0.05398       -153.55       9.494E-2      -17.25        9.499E-2      -17.28        0.81805       -26.21         
92.0954       0.05404       -153.41       9.492E-2      -17.36        9.501E-2      -17.39        0.81801       -26.36         
