!    8/6/2020   02:32:31 
! Ref Plane: 0.000 mm
# MHZ S MA R  50
!
0.3000        0.0471        178.78        9.884E-2      -1.03         9.649E-2      -0.76         0.81565       -0.37          
0.9000        0.04753       179.18        9.495E-2      -0.47         9.531E-2      -0.12         0.81018       -0.49          
1.4999        0.04767       179.31        9.509E-2      -0.32         9.531E-2      -0.23         0.80947       -0.65          
2.0999        0.04767       179.52        9.514E-2      -0.48         9.531E-2      -0.32         0.80956       -0.85          
2.6999        0.04772       179.73        9.517E-2      -0.57         9.531E-2      -0.46         0.80945       -1.02          
3.2999        0.04774       -179.98       9.518E-2      -0.66         9.531E-2      -0.60         0.80969       -1.20          
3.8998        0.0478        -179.80       9.514E-2      -0.80         9.531E-2      -0.73         0.80961       -1.39          
4.4998        0.0478        -179.57       9.514E-2      -0.94         9.531E-2      -0.84         0.80972       -1.55          
5.0998        0.04791       -179.24       9.514E-2      -1.05         9.529E-2      -0.96         0.80965       -1.73          
5.6997        0.04789       -179.01       9.515E-2      -1.17         9.53E-2       -1.10         0.80981       -1.91          
6.2997        0.04793       -178.85       9.514E-2      -1.32         9.532E-2      -1.22         0.80963       -2.10          
6.8997        0.048         -178.61       9.516E-2      -1.46         9.528E-2      -1.35         0.80983       -2.28          
7.4996        0.048         -178.33       9.515E-2      -1.54         9.529E-2      -1.46         0.80982       -2.48          
8.0996        0.04805       -178.12       9.514E-2      -1.68         9.532E-2      -1.61         0.80962       -2.66          
8.6996        0.04809       -177.88       9.515E-2      -1.79         9.532E-2      -1.70         0.80978       -2.84          
9.2996        0.0481        -177.64       9.52E-2       -1.94         9.534E-2      -1.86         0.81          -3.02          
9.8995        0.04812       -177.42       9.515E-2      -2.08         9.531E-2      -1.99         0.80961       -3.19          
10.4995       0.04818       -177.23       9.513E-2      -2.21         9.534E-2      -2.10         0.81          -3.37          
11.0995       0.04824       -176.94       9.517E-2      -2.31         9.533E-2      -2.23         0.81008       -3.55          
11.6994       0.04825       -176.75       9.516E-2      -2.43         9.532E-2      -2.34         0.8102        -3.74          
12.2994       0.04828       -176.50       9.511E-2      -2.55         9.53E-2       -2.46         0.8101        -3.91          
12.8994       0.04831       -176.27       9.517E-2      -2.62         9.532E-2      -2.59         0.81008       -4.08          
13.4993       0.04832       -176.06       9.524E-2      -2.82         9.53E-2       -2.74         0.81024       -4.28          
14.0993       0.0484        -175.89       9.517E-2      -2.91         9.53E-2       -2.87         0.81026       -4.44          
14.6993       0.0484        -175.60       9.514E-2      -3.09         9.533E-2      -2.99         0.81017       -4.61          
15.2993       0.04843       -175.42       9.514E-2      -3.14         9.53E-2       -3.12         0.81029       -4.80          
15.8992       0.04846       -175.24       9.517E-2      -3.24         9.529E-2      -3.26         0.81038       -4.96          
16.4992       0.0485        -175.03       9.515E-2      -3.40         9.53E-2       -3.39         0.81024       -5.15          
17.0992       0.04856       -174.78       9.519E-2      -3.52         9.529E-2      -3.50         0.81045       -5.33          
17.6991       0.04863       -174.52       9.515E-2      -3.66         9.53E-2       -3.64         0.81036       -5.52          
18.2991       0.04864       -174.36       9.513E-2      -3.79         9.53E-2       -3.74         0.81036       -5.67          
18.8991       0.04866       -174.13       9.518E-2      -3.91         9.534E-2      -3.86         0.81069       -5.84          
19.4990       0.04868       -173.91       9.522E-2      -4.06         9.531E-2      -4.00         0.8106        -6.03          
20.0990       0.04872       -173.65       9.517E-2      -4.15         9.532E-2      -4.13         0.81055       -6.21          
20.6990       0.04876       -173.48       9.521E-2      -4.31         9.535E-2      -4.25         0.81065       -6.37          
21.2990       0.04875       -173.22       9.519E-2      -4.43         9.534E-2      -4.37         0.8105        -6.54          
21.8989       0.04881       -173.09       9.52E-2       -4.56         9.534E-2      -4.49         0.81063       -6.73          
22.4989       0.04886       -172.83       9.517E-2      -4.69         9.541E-2      -4.61         0.81067       -6.90          
23.0989       0.04892       -172.65       9.518E-2      -4.78         9.539E-2      -4.75         0.81085       -7.09          
23.6988       0.04891       -172.37       9.519E-2      -4.89         9.537E-2      -4.87         0.81045       -7.26          
24.2988       0.04895       -172.22       9.521E-2      -5.01         9.535E-2      -5.00         0.81051       -7.43          
24.8988       0.04902       -172.00       9.517E-2      -5.18         9.536E-2      -5.13         0.81033       -7.60          
25.4987       0.04907       -171.80       9.522E-2      -5.28         9.531E-2      -5.26         0.81038       -7.78          
26.0987       0.04913       -171.56       9.516E-2      -5.40         9.537E-2      -5.35         0.81029       -7.95          
26.6987       0.04917       -171.37       9.517E-2      -5.51         9.533E-2      -5.49         0.81011       -8.11          
27.2987       0.04918       -171.10       9.524E-2      -5.64         9.534E-2      -5.60         0.8099        -8.30          
27.8986       0.04922       -170.95       9.521E-2      -5.78         9.531E-2      -5.72         0.8097        -8.46          
28.4986       0.04925       -170.71       9.521E-2      -5.90         9.532E-2      -5.86         0.80967       -8.65          
29.0986       0.04928       -170.63       9.522E-2      -6.00         9.533E-2      -5.99         0.80945       -8.81          
29.6985       0.0494        -170.38       9.521E-2      -6.13         9.53E-2       -6.08         0.80933       -8.99          
30.2985       0.04935       -170.20       9.519E-2      -6.27         9.531E-2      -6.24         0.80904       -9.17          
30.8985       0.0494        -169.94       9.519E-2      -6.41         9.529E-2      -6.34         0.8091        -9.35          
31.4984       0.04946       -169.75       9.518E-2      -6.49         9.524E-2      -6.46         0.80898       -9.51          
32.0984       0.04949       -169.63       9.518E-2      -6.66         9.534E-2      -6.60         0.80902       -9.69          
32.6984       0.04951       -169.40       9.518E-2      -6.76         9.53E-2       -6.70         0.80888       -9.86          
33.2984       0.04956       -169.22       9.519E-2      -6.87         9.529E-2      -6.83         0.80879       -10.01         
33.8983       0.04958       -169.03       9.523E-2      -6.98         9.529E-2      -6.96         0.80893       -10.17         
34.4983       0.04967       -168.84       9.519E-2      -7.11         9.532E-2      -7.05         0.80908       -10.33         
35.0983       0.04966       -168.65       9.524E-2      -7.22         9.533E-2      -7.20         0.80911       -10.51         
35.6982       0.04969       -168.48       9.523E-2      -7.34         9.531E-2      -7.32         0.80924       -10.67         
36.2982       0.04974       -168.26       9.526E-2      -7.49         9.53E-2       -7.47         0.80917       -10.87         
36.8982       0.04979       -168.05       9.522E-2      -7.61         9.532E-2      -7.58         0.80909       -11.04         
37.4981       0.04982       -167.92       9.525E-2      -7.71         9.534E-2      -7.69         0.80904       -11.21         
38.0981       0.04988       -167.73       9.527E-2      -7.83         9.532E-2      -7.83         0.80904       -11.41         
38.6981       0.04991       -167.53       9.525E-2      -7.93         9.532E-2      -7.95         0.80895       -11.58         
39.2981       0.04993       -167.36       9.522E-2      -8.07         9.527E-2      -8.09         0.80897       -11.76         
39.8980       0.04997       -167.18       9.524E-2      -8.22         9.532E-2      -8.24         0.8088        -11.94         
40.4980       0.04998       -166.94       9.526E-2      -8.34         9.531E-2      -8.31         0.8088        -12.11         
41.0980       0.05005       -166.76       9.528E-2      -8.45         9.533E-2      -8.46         0.80855       -12.30         
41.6979       0.05008       -166.63       9.527E-2      -8.57         9.531E-2      -8.58         0.80876       -12.48         
42.2979       0.05013       -166.48       9.524E-2      -8.69         9.534E-2      -8.70         0.80866       -12.68         
42.8979       0.05018       -166.28       9.524E-2      -8.84         9.53E-2       -8.79         0.80874       -12.86         
43.4978       0.05016       -166.14       9.523E-2      -8.95         9.533E-2      -8.93         0.80879       -13.05         
44.0978       0.05024       -165.97       9.524E-2      -9.07         9.532E-2      -9.06         0.8087        -13.25         
44.6978       0.05031       -165.88       9.523E-2      -9.19         9.532E-2      -9.21         0.80883       -13.44         
45.2978       0.05035       -165.67       9.526E-2      -9.35         9.53E-2       -9.29         0.80875       -13.63         
45.8977       0.05041       -165.45       9.525E-2      -9.46         9.533E-2      -9.42         0.80888       -13.81         
46.4977       0.05042       -165.30       9.519E-2      -9.58         9.531E-2      -9.56         0.80884       -14.00         
47.0977       0.05042       -165.13       9.525E-2      -9.73         9.534E-2      -9.68         0.80974       -14.18         
47.6976       0.05049       -164.93       9.522E-2      -9.85         9.529E-2      -9.81         0.80984       -14.36         
48.2976       0.05056       -164.81       9.526E-2      -9.99         9.532E-2      -9.92         0.80978       -14.53         
48.8976       0.05058       -164.64       9.522E-2      -10.12        9.53E-2       -10.06        0.80998       -14.72         
49.4975       0.05065       -164.47       9.52E-2       -10.25        9.536E-2      -10.16        0.80983       -14.89         
50.0975       0.05063       -164.30       9.521E-2      -10.36        9.526E-2      -10.29        0.8099        -15.07         
50.6975       0.05072       -164.09       9.521E-2      -10.49        9.534E-2      -10.44        0.81002       -15.26         
51.2975       0.05077       -163.94       9.518E-2      -10.61        9.533E-2      -10.59        0.81005       -15.46         
51.8974       0.05084       -163.82       9.518E-2      -10.73        9.538E-2      -10.71        0.81002       -15.62         
52.4974       0.05157       -163.89       9.516E-2      -10.79        9.609E-2      -11.03        0.80792       -15.81         
53.0974       0.05087       -163.44       9.533E-2      -10.97        9.521E-2      -10.92        0.80748       -15.91         
53.6973       0.05094       -163.26       9.519E-2      -11.09        9.533E-2      -11.06        0.81053       -16.18         
54.2973       0.05098       -163.16       9.518E-2      -11.21        9.532E-2      -11.21        0.81042       -16.35         
54.8973       0.05099       -163.00       9.519E-2      -11.34        9.534E-2      -11.32        0.81044       -16.52         
55.4972       0.05105       -162.88       9.521E-2      -11.45        9.536E-2      -11.44        0.81053       -16.69         
56.0972       0.05111       -162.66       9.52E-2       -11.60        9.534E-2      -11.55        0.81039       -16.87         
56.6972       0.05115       -162.46       9.519E-2      -11.70        9.532E-2      -11.66        0.81037       -17.03         
57.2972       0.05124       -162.29       9.52E-2       -11.84        9.533E-2      -11.78        0.81036       -17.21         
57.8971       0.05123       -162.13       9.516E-2      -11.95        9.531E-2      -11.91        0.81033       -17.38         
58.4971       0.05131       -162.00       9.523E-2      -12.07        9.534E-2      -12.06        0.81059       -17.57         
59.0971       0.05131       -161.85       9.522E-2      -12.19        9.535E-2      -12.16        0.81049       -17.73         
59.6970       0.05139       -161.66       9.522E-2      -12.30        9.536E-2      -12.31        0.81072       -17.91         
60.2970       0.05141       -161.47       9.519E-2      -12.45        9.531E-2      -12.42        0.81069       -18.08         
60.8970       0.05148       -161.28       9.524E-2      -12.58        9.538E-2      -12.57        0.81082       -18.26         
61.4969       0.05149       -161.19       9.519E-2      -12.68        9.535E-2      -12.70        0.81065       -18.43         
62.0969       0.05155       -160.99       9.523E-2      -12.82        9.537E-2      -12.81        0.81052       -18.61         
62.6969       0.05156       -160.91       9.522E-2      -12.93        9.532E-2      -12.94        0.81052       -18.79         
63.2969       0.05166       -160.70       9.522E-2      -13.07        9.536E-2      -13.05        0.81059       -18.97         
63.8968       0.05169       -160.58       9.522E-2      -13.19        9.535E-2      -13.19        0.81054       -19.12         
64.4968       0.05177       -160.40       9.522E-2      -13.32        9.533E-2      -13.32        0.81059       -19.31         
65.0968       0.0518        -160.22       9.521E-2      -13.43        9.537E-2      -13.44        0.81058       -19.47         
65.6967       0.05189       -160.05       9.522E-2      -13.54        9.537E-2      -13.55        0.81059       -19.64         
66.2967       0.05188       -159.92       9.52E-2       -13.66        9.535E-2      -13.69        0.81061       -19.82         
66.8967       0.05192       -159.77       9.519E-2      -13.80        9.535E-2      -13.80        0.81043       -20.01         
67.4966       0.05197       -159.62       9.515E-2      -13.93        9.534E-2      -13.93        0.8104        -20.19         
68.0966       0.05199       -159.48       9.52E-2       -14.03        9.537E-2      -14.02        0.81042       -20.36         
68.6966       0.05211       -159.28       9.52E-2       -14.15        9.539E-2      -14.16        0.81047       -20.52         
69.2966       0.05218       -159.10       9.521E-2      -14.30        9.538E-2      -14.26        0.81035       -20.72         
69.8965       0.05225       -158.95       9.521E-2      -14.41        9.538E-2      -14.39        0.81041       -20.90         
70.4965       0.05227       -158.87       9.521E-2      -14.53        9.535E-2      -14.51        0.81053       -21.07         
71.0965       0.05228       -158.71       9.521E-2      -14.68        9.538E-2      -14.62        0.81061       -21.24         
71.6964       0.05239       -158.54       9.519E-2      -14.80        9.537E-2      -14.76        0.81049       -21.40         
72.2964       0.0524        -158.43       9.523E-2      -14.92        9.53E-2       -14.89        0.81047       -21.57         
72.8964       0.05251       -158.31       9.522E-2      -15.07        9.536E-2      -15.02        0.81047       -21.77         
73.4963       0.0526        -158.16       9.52E-2       -15.20        9.533E-2      -15.13        0.81051       -21.94         
74.0963       0.0526        -157.98       9.522E-2      -15.30        9.534E-2      -15.27        0.81062       -22.12         
74.6963       0.05264       -157.95       9.52E-2       -15.43        9.535E-2      -15.38        0.8104        -22.28         
75.2963       0.05272       -157.74       9.517E-2      -15.56        9.532E-2      -15.51        0.81049       -22.46         
75.8962       0.05277       -157.57       9.522E-2      -15.68        9.535E-2      -15.66        0.81057       -22.63         
76.4962       0.05285       -157.37       9.521E-2      -15.78        9.537E-2      -15.76        0.81074       -22.81         
77.0962       0.05293       -157.31       9.521E-2      -15.91        9.539E-2      -15.87        0.81078       -22.98         
77.6961       0.05295       -157.17       9.518E-2      -16.04        9.539E-2      -16.01        0.81101       -23.15         
78.2961       0.05307       -156.98       9.521E-2      -16.14        9.537E-2      -16.10        0.81093       -23.33         
78.8961       0.05309       -156.89       9.521E-2      -16.29        9.54E-2       -16.23        0.81111       -23.49         
79.4960       0.05316       -156.71       9.52E-2       -16.41        9.541E-2      -16.36        0.81131       -23.66         
80.0960       0.05318       -156.59       9.52E-2       -16.54        9.539E-2      -16.48        0.8113        -23.84         
80.6960       0.05325       -156.48       9.521E-2      -16.63        9.54E-2       -16.60        0.81142       -24.00         
81.2960       0.05333       -156.34       9.526E-2      -16.77        9.542E-2      -16.71        0.81155       -24.17         
81.8959       0.05338       -156.20       9.524E-2      -16.89        9.543E-2      -16.83        0.8117        -24.34         
82.4959       0.05346       -156.03       9.523E-2      -17.00        9.544E-2      -16.95        0.81188       -24.51         
83.0959       0.05352       -155.88       9.523E-2      -17.11        9.544E-2      -17.07        0.81196       -24.67         
83.6958       0.05361       -155.75       9.524E-2      -17.25        9.541E-2      -17.21        0.81214       -24.85         
84.2958       0.05366       -155.56       9.526E-2      -17.37        9.539E-2      -17.31        0.81222       -25.01         
84.8958       0.05371       -155.47       9.526E-2      -17.50        9.54E-2       -17.48        0.81212       -25.18         
85.4957       0.05377       -155.34       9.531E-2      -17.62        9.543E-2      -17.59        0.8124        -25.36         
86.0957       0.05382       -155.17       9.532E-2      -17.75        9.539E-2      -17.72        0.81226       -25.54         
86.6957       0.05391       -155.00       9.525E-2      -17.89        9.543E-2      -17.83        0.81244       -25.70         
87.2957       0.05395       -154.88       9.532E-2      -18.01        9.542E-2      -17.98        0.81263       -25.88         
87.8956       0.05401       -154.77       9.528E-2      -18.11        9.54E-2       -18.09        0.81258       -26.04         
88.4956       0.05414       -154.59       9.528E-2      -18.22        9.539E-2      -18.21        0.81267       -26.20         
89.0956       0.05419       -154.41       9.528E-2      -18.36        9.538E-2      -18.34        0.81279       -26.36         
89.6955       0.05425       -154.26       9.532E-2      -18.47        9.538E-2      -18.46        0.81296       -26.52         
90.2955       0.05434       -154.15       9.531E-2      -18.59        9.542E-2      -18.57        0.81314       -26.70         
90.8955       0.05439       -154.06       9.534E-2      -18.71        9.538E-2      -18.68        0.81317       -26.87         
91.4954       0.05445       -153.87       9.537E-2      -18.84        9.536E-2      -18.81        0.81326       -27.05         
92.0954       0.05454       -153.71       9.535E-2      -19.00        9.539E-2      -18.92        0.81325       -27.20         
