!    8/10/2020   01:45:52 
! Ref Plane: 0.000 mm
# MHZ S MA R  50
!
0.3000        0.82078       0.20          8.774E-5      -56.91        3.812E-5      61.78         0.99666       -0.34          
0.9000        0.81895       0.24          7.569E-5      -117.12       5.441E-5      -77.51        0.9972        -0.29          
1.4999        0.82012       0.21          3.164E-5      179.51        5.426E-5      38.78         0.9985        -0.26          
2.0999        0.81994       0.19          5.955E-5      -102.71       1.885E-5      110.72        0.99885       -0.21          
2.6999        0.81983       0.14          7.39E-5       -90.02        1.288E-5      -119.47       0.99907       -0.17          
3.2999        0.81973       0.09          1.877E-5      -36.25        6.324E-6      64.31         0.99896       -0.14          
3.8998        0.81969       0.06          2.588E-5      -96.57        4.491E-5      -85.36        0.99911       -0.12          
4.4998        0.81955       0.01          4.134E-5      -118.33       2.327E-5      3.28          0.9991        -0.11          
5.0998        0.81946       -0.04         2.619E-5      166.96        1.805E-5      172.73        0.99905       -0.10          
5.6997        0.81944       -0.08         4.601E-5      115.66        3.423E-5      -67.45        0.99914       -0.09          
6.2997        0.8194        -0.12         4.989E-5      117.06        1.949E-5      -1.45         0.99913       -0.09          
6.8997        0.81933       -0.16         6.061E-5      -77.51        1.24E-5       -83.49        0.99914       -0.08          
7.4996        0.81931       -0.20         3.554E-5      89.80         4.255E-5      123.39        0.9992        -0.08          
8.0996        0.81941       -0.24         4.332E-5      -109.96       1.573E-5      -108.76       0.9992        -0.08          
8.6996        0.81929       -0.29         3.45E-5       111.34        1.431E-5      111.06        0.99919       -0.07          
9.2996        0.8192        -0.33         7.679E-5      -17.78        3.538E-5      42.43         0.99923       -0.07          
9.8995        0.8193        -0.37         5.381E-5      -83.21        2.706E-5      54.25         0.99923       -0.07          
10.4995       0.81915       -0.41         2.459E-5      89.64         2.666E-5      -108.14       0.99928       -0.07          
11.0995       0.81914       -0.45         3.376E-5      -63.11        2.247E-5      5.56          0.99922       -0.07          
11.6994       0.81906       -0.49         1.604E-5      19.93         3.839E-5      24.13         0.99919       -0.07          
12.2994       0.81909       -0.54         7.026E-5      -147.08       4.414E-5      72.73         0.99923       -0.07          
12.8994       0.8191        -0.57         5.634E-5      75.38         3.82E-5       80.14         0.99924       -0.06          
13.4993       0.81904       -0.61         7.142E-5      -24.75        2.974E-5      -118.30       0.99928       -0.06          
14.0993       0.81907       -0.66         2.186E-5      44.35         4.501E-5      -84.62        0.99931       -0.06          
14.6993       0.81901       -0.70         1.005E-4      -142.55       1.21E-5       133.14        0.99924       -0.07          
15.2993       0.8189        -0.73         7.249E-5      124.64        5.302E-5      81.33         0.99928       -0.06          
15.8992       0.81887       -0.79         4.902E-5      62.50         2.163E-5      140.21        0.99937       -0.06          
16.4992       0.81893       -0.82         3.159E-5      147.53        3.676E-5      -31.65        0.99936       -0.06          
17.0992       0.81881       -0.85         5.214E-5      56.52         4.327E-6      -169.14       0.99937       -0.07          
17.6991       0.81889       -0.88         4.128E-5      96.61         9.662E-7      133.19        0.99933       -0.06          
18.2991       0.81881       -0.93         4.235E-5      149.86        9.25E-6       -168.14       0.99929       -0.06          
18.8991       0.81864       -0.98         1.004E-5      -130.82       2.16E-5       148.90        0.99936       -0.06          
19.4990       0.81879       -1.02         3.809E-5      -31.71        2.513E-5      8.30          0.99943       -0.06          
20.0990       0.81875       -1.06         2.875E-5      23.81         1.717E-5      127.42        0.99935       -0.07          
20.6990       0.81875       -1.10         5.412E-5      -33.36        3.229E-5      114.76        0.99937       -0.06          
21.2990       0.81876       -1.14         3.95E-5       -113.65       1.699E-5      56.71         0.99939       -0.07          
21.8989       0.81867       -1.18         2.529E-5      -62.14        3.787E-5      37.39         0.99945       -0.07          
22.4989       0.81868       -1.22         8.414E-5      -128.58       1.186E-5      -5.48         0.99944       -0.07          
23.0989       0.81852       -1.26         4.837E-5      132.10        1.70E-5       -8.16         0.99942       -0.08          
23.6988       0.81865       -1.30         1.77E-5       -46.69        2.694E-5      0.54          0.99943       -0.07          
24.2988       0.81861       -1.34         1.479E-5      72.15         2.561E-5      -91.40        0.99944       -0.08          
24.8988       0.81862       -1.38         2.298E-5      -51.48        2.115E-5      94.26         0.99946       -0.07          
25.4987       0.8186        -1.41         4.196E-5      19.73         1.743E-5      -79.21        0.99945       -0.08          
26.0987       0.81864       -1.45         6.55E-5       145.27        4.821E-5      65.43         0.99947       -0.07          
26.6987       0.81862       -1.50         3.838E-5      -155.97       1.381E-5      121.63        0.99943       -0.08          
27.2987       0.81855       -1.53         6.954E-5      25.28         4.431E-5      67.10         0.99946       -0.08          
27.8986       0.81856       -1.57         1.582E-5      -88.43        2.557E-5      2.56          0.99939       -0.08          
28.4986       0.81851       -1.61         2.39E-5       15.13         5.812E-6      164.97        0.99949       -0.09          
29.0986       0.81854       -1.65         1.823E-5      18.46         4.494E-5      -17.66        0.99956       -0.09          
29.6985       0.81839       -1.69         1.936E-5      67.27         1.815E-5      -111.46       0.99946       -0.09          
30.2985       0.81846       -1.72         2.442E-5      132.78        5.954E-6      -154.75       0.99947       -0.09          
30.8985       0.81849       -1.76         4.482E-5      -51.08        2.742E-5      102.72        0.9995        -0.09          
31.4984       0.8184        -1.80         7.648E-5      81.29         4.451E-5      -138.96       0.99943       -0.09          
32.0984       0.81843       -1.84         4.891E-5      -120.34       2.841E-5      82.94         0.99951       -0.09          
32.6984       0.81841       -1.88         1.597E-5      163.94        2.367E-5      12.15         0.99943       -0.09          
33.2984       0.81854       -1.92         2.423E-5      -102.69       3.005E-5      119.53        0.99948       -0.10          
33.8983       0.81846       -1.95         6.148E-5      -33.99        3.24E-5       -35.59        0.99949       -0.10          
34.4983       0.81825       -1.99         4.418E-6      -54.95        1.525E-5      72.59         0.99948       -0.09          
35.0983       0.81837       -2.02         2.594E-5      -94.64        4.053E-5      -22.23        0.99952       -0.10          
35.6982       0.81824       -2.06         4.187E-5      -98.13        2.115E-5      157.64        0.99947       -0.10          
36.2982       0.81833       -2.08         3.693E-5      -118.37       1.379E-5      -76.04        0.99954       -0.10          
36.8982       0.81834       -2.13         5.888E-5      -126.26       3.054E-5      11.84         0.99945       -0.10          
37.4981       0.81836       -2.16         3.385E-5      167.36        2.049E-5      62.42         0.99943       -0.10          
38.0981       0.81837       -2.20         9.261E-6      43.87         2.536E-6      160.24        0.9995        -0.11          
38.6981       0.81829       -2.23         6.414E-5      16.59         3.158E-5      106.05        0.99946       -0.11          
39.2981       0.81827       -2.28         4.608E-5      159.82        1.941E-5      -165.23       0.99949       -0.11          
39.8980       0.81838       -2.30         2.861E-5      -104.93       4.767E-5      -64.67        0.99946       -0.12          
40.4980       0.8183        -2.35         2.822E-5      -58.87        3.444E-5      68.06         0.99954       -0.12          
41.0980       0.81831       -2.40         4.47E-5       -97.05        1.047E-5      65.40         0.99948       -0.12          
41.6979       0.81828       -2.42         2.995E-5      38.49         1.177E-5      38.85         0.99958       -0.12          
42.2979       0.81833       -2.46         4.333E-5      114.43        8.519E-6      15.52         0.99953       -0.12          
42.8979       0.81827       -2.50         3.866E-5      -169.28       4.674E-5      150.53        0.99957       -0.12          
43.4978       0.81824       -2.53         4.941E-5      112.66        1.384E-5      76.90         0.99956       -0.12          
44.0978       0.81829       -2.57         4.304E-5      -93.17        1.867E-5      -77.08        0.99956       -0.12          
44.6978       0.81813       -2.59         1.692E-5      -139.72       2.138E-5      27.73         0.99957       -0.13          
45.2978       0.8183        -2.64         3.81E-5       13.12         7.245E-6      26.98         0.99956       -0.12          
45.8977       0.81828       -2.68         3.657E-5      122.15        2.667E-5      -69.78        0.99957       -0.13          
46.4977       0.81815       -2.71         3.648E-5      135.10        1.948E-5      111.47        0.99952       -0.13          
47.0977       0.8182        -2.73         7.745E-5      67.17         6.669E-6      63.01         0.99962       -0.13          
47.6976       0.81806       -2.77         4.854E-5      96.99         6.071E-5      157.94        0.99963       -0.14          
48.2976       0.81812       -2.81         4.014E-5      -0.03         2.683E-5      150.66        0.99967       -0.14          
48.8976       0.81802       -2.84         4.175E-5      104.25        5.222E-5      -165.13       0.99961       -0.14          
49.4975       0.81804       -2.87         2.575E-5      -22.31        5.831E-5      79.77         0.9996        -0.14          
50.0975       0.81805       -2.92         2.356E-5      117.05        8.99E-6       142.28        0.9996        -0.14          
50.6975       0.81804       -2.95         1.501E-5      59.24         1.865E-5      -113.60       0.99955       -0.14          
51.2975       0.81803       -2.98         2.49E-5       -16.62        2.523E-5      -29.81        0.99962       -0.15          
51.8974       0.81816       -3.02         5.235E-5      32.84         2.68E-5       137.92        0.99962       -0.15          
52.4974       0.82041       -3.04         3.939E-5      42.81         2.379E-5      35.60         0.99963       -0.15          
53.0974       0.81797       -3.10         7.777E-6      -114.74       4.305E-5      -163.47       0.99967       -0.15          
53.6973       0.81802       -3.11         4.822E-5      76.97         1.132E-5      121.84        0.99967       -0.15          
54.2973       0.818         -3.15         2.817E-5      132.22        1.726E-5      -19.34        0.99962       -0.16          
54.8973       0.81798       -3.19         3.977E-5      -177.42       3.468E-5      -43.65        0.99963       -0.15          
55.4972       0.81799       -3.22         3.655E-5      79.76         1.275E-5      106.59        0.99961       -0.16          
56.0972       0.8181        -3.25         6.778E-5      49.82         1.435E-5      85.43         0.99962       -0.16          
56.6972       0.81808       -3.30         6.081E-5      -22.16        2.276E-5      166.44        0.99966       -0.16          
57.2972       0.81801       -3.34         3.136E-5      -63.71        1.687E-5      -101.26       0.99968       -0.16          
57.8971       0.81803       -3.37         3.013E-5      16.76         1.753E-5      69.86         0.99962       -0.17          
58.4971       0.8179        -3.40         3.605E-5      -58.15        1.594E-5      50.83         0.99961       -0.17          
59.0971       0.81797       -3.45         3.146E-5      10.99         1.825E-5      93.17         0.99965       -0.17          
59.6970       0.81793       -3.48         1.474E-5      131.78        3.97E-5       23.58         0.99962       -0.17          
60.2970       0.81786       -3.52         2.691E-5      141.90        2.594E-5      -116.73       0.99966       -0.17          
60.8970       0.81779       -3.54         4.605E-5      -140.60       3.538E-5      45.04         0.99963       -0.17          
61.4969       0.8178        -3.57         1.792E-5      -170.65       1.593E-5      -79.54        0.99964       -0.18          
62.0969       0.81784       -3.61         9.704E-6      28.21         1.125E-5      63.36         0.99964       -0.18          
62.6969       0.81782       -3.66         2.854E-5      -69.32        3.263E-5      -56.71        0.99963       -0.18          
63.2969       0.81779       -3.69         3.955E-5      149.83        7.808E-6      73.71         0.99966       -0.18          
63.8968       0.81759       -3.72         4.731E-5      121.50        5.137E-6      -10.84        0.99961       -0.18          
64.4968       0.81761       -3.76         4.794E-5      -29.82        2.041E-5      132.23        0.99965       -0.19          
65.0968       0.81752       -3.79         3.561E-5      172.35        4.024E-5      104.31        0.9997        -0.19          
65.6967       0.81756       -3.82         6.232E-5      -59.78        1.477E-5      39.78         0.99965       -0.19          
66.2967       0.81753       -3.86         5.685E-5      -64.08        1.034E-5      45.50         0.99965       -0.19          
66.8967       0.81758       -3.89         2.572E-5      -178.59       4.671E-5      -41.90        0.99968       -0.19          
67.4966       0.81768       -3.92         3.80E-5       96.02         7.212E-6      104.01        0.99965       -0.19          
68.0966       0.81772       -3.95         1.144E-5      23.26         3.158E-5      18.19         0.99961       -0.19          
68.6966       0.81765       -4.01         4.864E-5      9.06          1.469E-5      -154.87       0.9996        -0.19          
69.2966       0.81755       -4.03         9.058E-6      39.68         3.014E-5      172.10        0.99969       -0.20          
69.8965       0.81754       -4.07         1.724E-5      -116.07       1.718E-5      34.56         0.99969       -0.20          
70.4965       0.81754       -4.11         1.943E-5      -19.42        1.097E-5      -171.59       0.99965       -0.20          
71.0965       0.81745       -4.15         1.867E-5      166.51        3.065E-5      127.84        0.99964       -0.20          
71.6964       0.81747       -4.19         1.243E-5      112.88        1.709E-5      -154.21       0.99967       -0.20          
72.2964       0.81741       -4.22         3.141E-5      88.68         2.927E-5      -40.15        0.99968       -0.21          
72.8964       0.81737       -4.26         3.277E-5      -137.64       3.667E-5      96.31         0.99971       -0.21          
73.4963       0.81735       -4.29         1.938E-5      -91.14        3.031E-5      -14.93        0.99964       -0.21          
74.0963       0.81739       -4.33         6.844E-5      -118.02       3.984E-5      34.92         0.99967       -0.21          
74.6963       0.81739       -4.38         1.947E-5      -140.91       2.502E-5      -26.60        0.99968       -0.21          
75.2963       0.81739       -4.41         2.099E-5      143.55        1.212E-5      -45.31        0.99966       -0.21          
75.8962       0.81729       -4.45         2.953E-5      -157.45       2.598E-5      156.03        0.99971       -0.21          
76.4962       0.81721       -4.48         3.034E-5      -49.61        1.932E-5      143.50        0.99966       -0.21          
77.0962       0.81719       -4.52         1.381E-5      132.06        2.28E-5       149.01        0.99967       -0.21          
77.6961       0.81712       -4.55         2.22E-5       133.46        1.753E-5      48.37         0.99965       -0.21          
78.2961       0.81721       -4.59         5.78E-5       -24.15        6.665E-6      -163.93       0.99972       -0.21          
78.8961       0.81705       -4.63         5.608E-5      56.93         3.136E-5      -125.17       0.99963       -0.21          
79.4960       0.81698       -4.66         6.828E-5      -140.47       7.473E-6      1.18          0.99965       -0.21          
80.0960       0.81705       -4.69         2.36E-5       115.04        1.055E-5      -44.84        0.99964       -0.21          
80.6960       0.81707       -4.73         3.564E-5      -146.13       3.349E-5      -77.29        0.99964       -0.21          
81.2960       0.81695       -4.78         1.311E-5      -145.01       2.134E-5      57.95         0.99968       -0.21          
81.8959       0.81694       -4.81         3.951E-5      24.82         2.419E-5      57.82         0.99968       -0.21          
82.4959       0.81702       -4.84         7.441E-6      -42.80        4.338E-5      141.86        0.99967       -0.21          
83.0959       0.81691       -4.88         1.164E-5      6.85          4.502E-5      158.84        0.99964       -0.22          
83.6958       0.8168        -4.91         4.35E-5       138.05        1.466E-6      -118.94       0.99959       -0.22          
84.2958       0.81681       -4.96         3.428E-5      -175.26       1.887E-5      -179.87       0.99962       -0.22          
84.8958       0.81681       -4.99         4.177E-5      -38.27        1.502E-5      -147.97       0.99966       -0.22          
85.4957       0.81672       -5.03         1.646E-5      170.92        3.749E-5      79.54         0.99968       -0.22          
86.0957       0.81685       -5.06         3.942E-5      -65.61        2.024E-5      121.19        0.99959       -0.22          
86.6957       0.81673       -5.10         2.097E-5      2.99          8.927E-6      -136.10       0.99955       -0.22          
87.2957       0.81669       -5.13         5.567E-5      121.22        1.821E-5      153.31        0.99967       -0.22          
87.8956       0.81674       -5.18         9.391E-6      -5.08         1.651E-5      -87.33        0.99965       -0.23          
88.4956       0.81671       -5.22         2.831E-5      59.09         3.72E-5       142.16        0.99968       -0.23          
89.0956       0.81668       -5.25         8.202E-5      130.46        5.841E-5      -77.66        0.99964       -0.23          
89.6955       0.81661       -5.30         4.124E-5      113.14        1.696E-5      28.37         0.9996        -0.23          
90.2955       0.81661       -5.33         1.548E-5      -112.23       1.969E-5      136.85        0.99959       -0.23          
90.8955       0.81649       -5.37         5.089E-5      -120.72       3.598E-5      -134.73       0.99964       -0.24          
91.4954       0.81647       -5.41         6.018E-5      -88.29        1.691E-5      -106.94       0.99965       -0.23          
92.0954       0.81652       -5.44         4.299E-5      173.82        3.536E-5      162.74        0.99959       -0.23          
