!    8/6/2020   01:16:05 
! Ref Plane: 0.000 mm
# MHZ S MA R  50
!
0.3000        0.0482        178.21        9.879E-2      -1.07         9.654E-2      -0.98         0.81585       -0.32          
0.9000        0.04774       178.85        9.486E-2      -0.50         9.54E-2       -0.43         0.80989       -0.51          
1.4999        0.04781       179.08        9.51E-2       -0.34         9.541E-2      -0.54         0.80939       -0.66          
2.0999        0.04778       179.27        9.518E-2      -0.52         9.538E-2      -0.64         0.80955       -0.87          
2.6999        0.04778       179.46        9.523E-2      -0.65         9.535E-2      -0.80         0.80943       -1.04          
3.2999        0.04778       179.78        9.522E-2      -0.78         9.535E-2      -0.95         0.80965       -1.23          
3.8998        0.04785       179.96        9.518E-2      -0.93         9.538E-2      -1.11         0.80963       -1.42          
4.4998        0.04785       -179.85       9.521E-2      -1.10         9.537E-2      -1.22         0.8097        -1.59          
5.0998        0.04795       -179.56       9.518E-2      -1.21         9.534E-2      -1.34         0.80964       -1.77          
5.6997        0.04788       -179.33       9.519E-2      -1.35         9.54E-2       -1.49         0.80988       -1.96          
6.2997        0.04794       -179.19       9.518E-2      -1.51         9.538E-2      -1.64         0.80964       -2.15          
6.8997        0.04797       -178.95       9.517E-2      -1.71         9.534E-2      -1.76         0.80988       -2.33          
7.4996        0.048         -178.67       9.516E-2      -1.80         9.536E-2      -1.89         0.80991       -2.54          
8.0996        0.04802       -178.50       9.515E-2      -1.95         9.538E-2      -2.05         0.80965       -2.72          
8.6996        0.04806       -178.25       9.518E-2      -2.08         9.537E-2      -2.17         0.80988       -2.89          
9.2996        0.04805       -178.01       9.52E-2       -2.23         9.537E-2      -2.34         0.81006       -3.08          
9.8995        0.04808       -177.80       9.519E-2      -2.41         9.537E-2      -2.47         0.80976       -3.25          
10.4995       0.04811       -177.62       9.515E-2      -2.55         9.538E-2      -2.62         0.81014       -3.43          
11.0995       0.04818       -177.36       9.515E-2      -2.67         9.539E-2      -2.73         0.81024       -3.62          
11.6994       0.04821       -177.13       9.518E-2      -2.80         9.538E-2      -2.88         0.81038       -3.80          
12.2994       0.0482        -176.89       9.512E-2      -2.94         9.536E-2      -3.00         0.8103        -3.98          
12.8994       0.04822       -176.68       9.517E-2      -3.02         9.535E-2      -3.16         0.81035       -4.14          
13.4993       0.04824       -176.45       9.525E-2      -3.25         9.532E-2      -3.32         0.81051       -4.35          
14.0993       0.0483        -176.31       9.518E-2      -3.34         9.534E-2      -3.47         0.81051       -4.51          
14.6993       0.04833       -176.06       9.516E-2      -3.53         9.539E-2      -3.60         0.81048       -4.68          
15.2993       0.04836       -175.88       9.513E-2      -3.62         9.532E-2      -3.74         0.81066       -4.87          
15.8992       0.04838       -175.67       9.516E-2      -3.74         9.535E-2      -3.90         0.81082       -5.03          
16.4992       0.04842       -175.50       9.517E-2      -3.90         9.536E-2      -4.05         0.81071       -5.22          
17.0992       0.04843       -175.26       9.519E-2      -4.01         9.533E-2      -4.17         0.81093       -5.40          
17.6991       0.04854       -175.04       9.517E-2      -4.18         9.534E-2      -4.31         0.81092       -5.58          
18.2991       0.04855       -174.86       9.514E-2      -4.32         9.536E-2      -4.45         0.81097       -5.74          
18.8991       0.04858       -174.66       9.519E-2      -4.46         9.533E-2      -4.58         0.81131       -5.90          
19.4990       0.04859       -174.45       9.521E-2      -4.62         9.533E-2      -4.72         0.81137       -6.09          
20.0990       0.04863       -174.21       9.517E-2      -4.74         9.536E-2      -4.87         0.8113        -6.27          
20.6990       0.04869       -174.00       9.517E-2      -4.91         9.539E-2      -5.00         0.81142       -6.43          
21.2990       0.04869       -173.78       9.518E-2      -5.06         9.534E-2      -5.14         0.8113        -6.60          
21.8989       0.04875       -173.67       9.517E-2      -5.17         9.536E-2      -5.27         0.81149       -6.78          
22.4989       0.04879       -173.42       9.515E-2      -5.33         9.539E-2      -5.40         0.8116        -6.95          
23.0989       0.04885       -173.27       9.518E-2      -5.44         9.54E-2       -5.56         0.81183       -7.13          
23.6988       0.04883       -172.98       9.519E-2      -5.58         9.537E-2      -5.69         0.81151       -7.30          
24.2988       0.04888       -172.81       9.518E-2      -5.72         9.534E-2      -5.83         0.81161       -7.46          
24.8988       0.04896       -172.63       9.52E-2       -5.87         9.536E-2      -5.99         0.81151       -7.64          
25.4987       0.04898       -172.47       9.522E-2      -5.99         9.534E-2      -6.12         0.81161       -7.81          
26.0987       0.04904       -172.23       9.513E-2      -6.13         9.538E-2      -6.23         0.81158       -7.98          
26.6987       0.04912       -172.05       9.516E-2      -6.26         9.532E-2      -6.38         0.81147       -8.13          
27.2987       0.0491        -171.83       9.523E-2      -6.39         9.535E-2      -6.52         0.81139       -8.31          
27.8986       0.04915       -171.66       9.52E-2       -6.56         9.536E-2      -6.65         0.81121       -8.47          
28.4986       0.0492        -171.42       9.52E-2       -6.69         9.533E-2      -6.80         0.81125       -8.66          
29.0986       0.04924       -171.33       9.521E-2      -6.81         9.536E-2      -6.93         0.81111       -8.81          
29.6985       0.04932       -171.13       9.518E-2      -6.96         9.533E-2      -7.03         0.81106       -8.99          
30.2985       0.04928       -170.95       9.518E-2      -7.11         9.533E-2      -7.22         0.81086       -9.15          
30.8985       0.04938       -170.71       9.518E-2      -7.25         9.528E-2      -7.32         0.81096       -9.33          
31.4984       0.0494        -170.55       9.514E-2      -7.35         9.525E-2      -7.47         0.81091       -9.48          
32.0984       0.04947       -170.42       9.518E-2      -7.52         9.532E-2      -7.60         0.81101       -9.65          
32.6984       0.04948       -170.19       9.518E-2      -7.62         9.532E-2      -7.73         0.81099       -9.81          
33.2984       0.04952       -170.07       9.517E-2      -7.77         9.53E-2       -7.87         0.81099       -9.96          
33.8983       0.04958       -169.89       9.524E-2      -7.89         9.529E-2      -8.00         0.81119       -10.11         
34.4983       0.04964       -169.68       9.518E-2      -8.02         9.531E-2      -8.12         0.81147       -10.26         
35.0983       0.04965       -169.55       9.523E-2      -8.15         9.531E-2      -8.29         0.81156       -10.43         
35.6982       0.04968       -169.37       9.523E-2      -8.30         9.531E-2      -8.42         0.81179       -10.59         
36.2982       0.04974       -169.20       9.526E-2      -8.45         9.531E-2      -8.57         0.81184       -10.77         
36.8982       0.04975       -169.00       9.521E-2      -8.58         9.533E-2      -8.70         0.81183       -10.94         
37.4981       0.04983       -168.87       9.524E-2      -8.70         9.533E-2      -8.83         0.81188       -11.10         
38.0981       0.04988       -168.71       9.529E-2      -8.81         9.533E-2      -8.98         0.81199       -11.28         
38.6981       0.04991       -168.51       9.528E-2      -8.94         9.531E-2      -9.10         0.81201       -11.45         
39.2981       0.04996       -168.38       9.526E-2      -9.07         9.526E-2      -9.23         0.81209       -11.62         
39.8980       0.05          -168.20       9.525E-2      -9.26         9.532E-2      -9.42         0.81208       -11.79         
40.4980       0.05004       -168.00       9.528E-2      -9.39         9.533E-2      -9.50         0.81218       -11.94         
41.0980       0.0501        -167.83       9.53E-2       -9.53         9.534E-2      -9.66         0.81201       -12.12         
41.6979       0.05012       -167.71       9.527E-2      -9.66         9.535E-2      -9.79         0.81233       -12.29         
42.2979       0.0502        -167.56       9.527E-2      -9.77         9.538E-2      -9.94         0.81231       -12.48         
42.8979       0.05023       -167.42       9.526E-2      -9.95         9.534E-2      -10.05        0.8125        -12.65         
43.4978       0.05024       -167.29       9.527E-2      -10.05        9.535E-2      -10.19        0.81264       -12.83         
44.0978       0.05032       -167.12       9.53E-2       -10.19        9.535E-2      -10.32        0.81271       -13.01         
44.6978       0.0504        -167.00       9.528E-2      -10.34        9.536E-2      -10.50        0.81295       -13.19         
45.2978       0.05044       -166.85       9.531E-2      -10.50        9.535E-2      -10.59        0.81298       -13.36         
45.8977       0.05053       -166.65       9.528E-2      -10.63        9.541E-2      -10.74        0.81324       -13.53         
46.4977       0.05053       -166.54       9.526E-2      -10.77        9.54E-2       -10.87        0.81333       -13.71         
47.0977       0.05053       -166.34       9.532E-2      -10.90        9.544E-2      -11.01        0.81438       -13.87         
47.6976       0.05058       -166.17       9.533E-2      -11.06        9.536E-2      -11.16        0.81452       -14.04         
48.2976       0.0507        -166.09       9.536E-2      -11.21        9.538E-2      -11.27        0.81466       -14.19         
48.8976       0.05072       -165.93       9.534E-2      -11.34        9.541E-2      -11.44        0.81497       -14.37         
49.4975       0.05079       -165.78       9.531E-2      -11.48        9.546E-2      -11.56        0.81498       -14.53         
50.0975       0.0508        -165.62       9.533E-2      -11.62        9.542E-2      -11.71        0.81516       -14.69         
50.6975       0.05084       -165.46       9.534E-2      -11.76        9.546E-2      -11.87        0.81539       -14.86         
51.2975       0.05093       -165.33       9.53E-2       -11.88        9.546E-2      -12.03        0.81559       -15.04         
51.8974       0.05102       -165.24       9.529E-2      -11.99        9.555E-2      -12.18        0.8156        -15.19         
52.4974       0.05178       -165.32       9.526E-2      -12.08        9.629E-2      -12.56        0.8137        -15.36         
53.0974       0.0511        -164.81       9.50E-2       -12.11        9.546E-2      -12.42        0.8134        -15.45         
53.6973       0.05112       -164.74       9.535E-2      -12.44        9.549E-2      -12.57        0.81653       -15.70         
54.2973       0.05117       -164.66       9.537E-2      -12.58        9.549E-2      -12.71        0.81661       -15.86         
54.8973       0.05122       -164.50       9.535E-2      -12.75        9.55E-2       -12.85        0.8168        -16.01         
55.4972       0.05129       -164.38       9.539E-2      -12.84        9.554E-2      -12.97        0.81706       -16.16         
56.0972       0.05135       -164.24       9.54E-2       -13.01        9.552E-2      -13.11        0.81702       -16.33         
56.6972       0.0514        -164.06       9.54E-2       -13.14        9.55E-2       -13.23        0.8172        -16.47         
57.2972       0.05145       -163.86       9.54E-2       -13.28        9.552E-2      -13.36        0.8173        -16.63         
57.8971       0.0515        -163.73       9.54E-2       -13.42        9.553E-2      -13.52        0.81751       -16.78         
58.4971       0.05155       -163.63       9.547E-2      -13.53        9.556E-2      -13.67        0.81778       -16.95         
59.0971       0.05162       -163.48       9.546E-2      -13.68        9.558E-2      -13.80        0.81793       -17.10         
59.6970       0.05164       -163.33       9.548E-2      -13.80        9.561E-2      -13.94        0.81825       -17.26         
60.2970       0.0517        -163.16       9.547E-2      -13.95        9.56E-2       -14.08        0.81839       -17.41         
60.8970       0.05178       -163.00       9.551E-2      -14.09        9.564E-2      -14.24        0.81865       -17.57         
61.4969       0.05181       -162.88       9.547E-2      -14.24        9.56E-2       -14.38        0.81864       -17.73         
62.0969       0.05187       -162.72       9.551E-2      -14.36        9.563E-2      -14.50        0.81868       -17.89         
62.6969       0.05192       -162.67       9.557E-2      -14.49        9.559E-2      -14.66        0.81878       -18.05         
63.2969       0.05201       -162.51       9.556E-2      -14.65        9.566E-2      -14.80        0.81902       -18.21         
63.8968       0.05208       -162.36       9.556E-2      -14.77        9.567E-2      -14.94        0.81912       -18.35         
64.4968       0.05215       -162.21       9.559E-2      -14.93        9.571E-2      -15.07        0.81936       -18.52         
65.0968       0.0522        -162.06       9.559E-2      -15.06        9.572E-2      -15.22        0.81945       -18.67         
65.6967       0.05231       -161.92       9.559E-2      -15.19        9.573E-2      -15.34        0.81966       -18.82         
66.2967       0.05232       -161.79       9.565E-2      -15.33        9.575E-2      -15.50        0.81983       -18.98         
66.8967       0.05234       -161.69       9.563E-2      -15.48        9.575E-2      -15.63        0.8198        -19.15         
67.4966       0.05241       -161.53       9.562E-2      -15.61        9.579E-2      -15.77        0.8199        -19.31         
68.0966       0.05245       -161.43       9.57E-2       -15.75        9.585E-2      -15.89        0.82015       -19.46         
68.6966       0.05257       -161.24       9.571E-2      -15.90        9.587E-2      -16.03        0.82033       -19.60         
69.2966       0.05264       -161.10       9.568E-2      -16.06        9.589E-2      -16.16        0.82038       -19.78         
69.8965       0.05273       -160.97       9.577E-2      -16.21        9.592E-2      -16.31        0.82058       -19.94         
70.4965       0.05275       -160.89       9.579E-2      -16.34        9.591E-2      -16.46        0.82085       -20.09         
71.0965       0.0528        -160.79       9.576E-2      -16.50        9.595E-2      -16.61        0.82107       -20.24         
71.6964       0.0529        -160.61       9.58E-2       -16.64        9.596E-2      -16.77        0.82114       -20.39         
72.2964       0.05294       -160.56       9.586E-2      -16.81        9.595E-2      -16.92        0.82129       -20.55         
72.8964       0.05306       -160.48       9.586E-2      -16.96        9.598E-2      -17.06        0.8215        -20.72         
73.4963       0.05313       -160.29       9.586E-2      -17.13        9.598E-2      -17.21        0.8217        -20.87         
74.0963       0.05318       -160.21       9.59E-2       -17.27        9.602E-2      -17.38        0.82197       -21.04         
74.6963       0.05321       -160.14       9.589E-2      -17.41        9.607E-2      -17.50        0.82194       -21.17         
75.2963       0.0533        -159.96       9.591E-2      -17.57        9.604E-2      -17.67        0.82217       -21.34         
75.8962       0.05338       -159.89       9.594E-2      -17.72        9.612E-2      -17.82        0.82244       -21.49         
76.4962       0.05348       -159.70       9.596E-2      -17.87        9.611E-2      -17.98        0.82276       -21.65         
77.0962       0.05354       -159.62       9.599E-2      -18.01        9.613E-2      -18.09        0.82293       -21.80         
77.6961       0.05359       -159.55       9.601E-2      -18.18        9.617E-2      -18.29        0.82336       -21.96         
78.2961       0.05371       -159.38       9.603E-2      -18.31        9.617E-2      -18.41        0.82353       -22.12         
78.8961       0.05371       -159.32       9.602E-2      -18.47        9.62E-2       -18.56        0.82382       -22.26         
79.4960       0.05379       -159.18       9.607E-2      -18.63        9.624E-2      -18.72        0.8242        -22.41         
80.0960       0.05385       -159.10       9.606E-2      -18.78        9.624E-2      -18.88        0.8244        -22.57         
80.6960       0.05392       -159.01       9.611E-2      -18.94        9.627E-2      -19.02        0.82473       -22.71         
81.2960       0.05397       -158.93       9.615E-2      -19.12        9.631E-2      -19.18        0.82505       -22.87         
81.8959       0.05406       -158.82       9.614E-2      -19.27        9.63E-2       -19.36        0.82544       -23.02         
82.4959       0.05416       -158.72       9.618E-2      -19.43        9.632E-2      -19.52        0.82579       -23.18         
83.0959       0.0542        -158.60       9.618E-2      -19.61        9.632E-2      -19.68        0.82603       -23.31         
83.6958       0.05429       -158.47       9.619E-2      -19.77        9.631E-2      -19.87        0.82649       -23.48         
84.2958       0.05435       -158.35       9.622E-2      -19.95        9.63E-2       -20.01        0.82674       -23.62         
84.8958       0.0544        -158.29       9.621E-2      -20.12        9.633E-2      -20.24        0.82697       -23.78         
85.4957       0.05447       -158.21       9.626E-2      -20.31        9.63E-2       -20.39        0.82747       -23.94         
86.0957       0.0545        -158.13       9.622E-2      -20.47        9.632E-2      -20.58        0.82757       -24.11         
86.6957       0.05455       -157.97       9.622E-2      -20.67        9.628E-2      -20.76        0.82805       -24.25         
87.2957       0.0546        -157.91       9.615E-2      -20.84        9.626E-2      -20.96        0.82851       -24.42         
87.8956       0.05462       -157.84       9.612E-2      -21.03        9.618E-2      -21.13        0.82889       -24.56         
88.4956       0.05471       -157.74       9.605E-2      -21.21        9.613E-2      -21.31        0.82923       -24.71         
89.0956       0.05472       -157.66       9.597E-2      -21.37        9.602E-2      -21.48        0.82964       -24.87         
89.6955       0.05471       -157.55       9.591E-2      -21.57        9.594E-2      -21.66        0.8302        -25.02         
90.2955       0.05471       -157.43       9.579E-2      -21.71        9.585E-2      -21.82        0.83085       -25.20         
90.8955       0.05467       -157.34       9.565E-2      -21.88        9.564E-2      -21.99        0.83122       -25.36         
91.4954       0.0546        -157.18       9.548E-2      -22.02        9.547E-2      -22.13        0.83177       -25.55         
92.0954       0.05457       -157.03       9.526E-2      -22.13        9.527E-2      -22.23        0.83208       -25.72         
