!    8/6/2020   01:14:18 
! Ref Plane: 0.000 mm
# MHZ S MA R  50
!
0.3000        0.04787       178.47        9.88E-2       -0.93         9.657E-2      -0.90         0.81591       -0.31          
0.9000        0.04773       178.93        9.494E-2      -0.44         9.542E-2      -0.35         0.81035       -0.46          
1.4999        0.04778       179.15        9.512E-2      -0.26         9.54E-2       -0.43         0.80945       -0.62          
2.0999        0.04774       179.37        9.515E-2      -0.44         9.536E-2      -0.50         0.80954       -0.85          
2.6999        0.04778       179.61        9.519E-2      -0.56         9.535E-2      -0.63         0.80934       -1.03          
3.2999        0.04777       179.93        9.522E-2      -0.66         9.536E-2      -0.78         0.80954       -1.22          
3.8998        0.04784       -179.89       9.516E-2      -0.81         9.532E-2      -0.90         0.80951       -1.42          
4.4998        0.0478        -179.65       9.518E-2      -0.92         9.536E-2      -1.00         0.80962       -1.59          
5.0998        0.04791       -179.30       9.519E-2      -1.02         9.533E-2      -1.08         0.8096        -1.78          
5.6997        0.04787       -179.08       9.517E-2      -1.15         9.535E-2      -1.26         0.80982       -1.97          
6.2997        0.0479        -178.96       9.515E-2      -1.29         9.535E-2      -1.35         0.80956       -2.17          
6.8997        0.04794       -178.67       9.516E-2      -1.45         9.532E-2      -1.48         0.80978       -2.36          
7.4996        0.04799       -178.39       9.514E-2      -1.54         9.533E-2      -1.58         0.80983       -2.56          
8.0996        0.04801       -178.17       9.515E-2      -1.68         9.534E-2      -1.73         0.80956       -2.75          
8.6996        0.04803       -177.95       9.514E-2      -1.77         9.533E-2      -1.82         0.80981       -2.93          
9.2996        0.04804       -177.67       9.521E-2      -1.92         9.535E-2      -1.98         0.80997       -3.12          
9.8995        0.04809       -177.40       9.517E-2      -2.06         9.535E-2      -2.08         0.80967       -3.30          
10.4995       0.04813       -177.23       9.513E-2      -2.17         9.534E-2      -2.21         0.81011       -3.49          
11.0995       0.04816       -176.98       9.516E-2      -2.30         9.534E-2      -2.32         0.81017       -3.67          
11.6994       0.04817       -176.70       9.515E-2      -2.40         9.532E-2      -2.43         0.81023       -3.87          
12.2994       0.0482        -176.49       9.511E-2      -2.53         9.53E-2       -2.55         0.81017       -4.05          
12.8994       0.04823       -176.24       9.516E-2      -2.60         9.531E-2      -2.68         0.81017       -4.22          
13.4993       0.04824       -175.98       9.522E-2      -2.77         9.53E-2       -2.84         0.81045       -4.43          
14.0993       0.04829       -175.81       9.515E-2      -2.88         9.528E-2      -2.93         0.81044       -4.59          
14.6993       0.04832       -175.54       9.51E-2       -3.04         9.532E-2      -3.06         0.8104        -4.77          
15.2993       0.04837       -175.33       9.512E-2      -3.09         9.528E-2      -3.18         0.81059       -4.96          
15.8992       0.04835       -175.12       9.511E-2      -3.19         9.526E-2      -3.32         0.81066       -5.12          
16.4992       0.04842       -174.93       9.51E-2       -3.35         9.529E-2      -3.45         0.8106        -5.32          
17.0992       0.04846       -174.65       9.514E-2      -3.44         9.527E-2      -3.55         0.81081       -5.50          
17.6991       0.04855       -174.41       9.51E-2       -3.58         9.524E-2      -3.68         0.81077       -5.70          
18.2991       0.04851       -174.19       9.509E-2      -3.71         9.527E-2      -3.78         0.81085       -5.85          
18.8991       0.04856       -173.97       9.512E-2      -3.84         9.526E-2      -3.89         0.81123       -6.02          
19.4990       0.04858       -173.72       9.515E-2      -3.98         9.526E-2      -4.03         0.81122       -6.21          
20.0990       0.04864       -173.51       9.511E-2      -4.08         9.525E-2      -4.15         0.81116       -6.40          
20.6990       0.04867       -173.33       9.514E-2      -4.21         9.527E-2      -4.27         0.81127       -6.57          
21.2990       0.04865       -173.03       9.51E-2       -4.33         9.526E-2      -4.38         0.81116       -6.74          
21.8989       0.0487        -172.87       9.509E-2      -4.45         9.526E-2      -4.49         0.81138       -6.93          
22.4989       0.04874       -172.64       9.506E-2      -4.59         9.532E-2      -4.62         0.81147       -7.10          
23.0989       0.04884       -172.43       9.507E-2      -4.68         9.529E-2      -4.75         0.81171       -7.29          
23.6988       0.04883       -172.15       9.512E-2      -4.78         9.526E-2      -4.87         0.8114        -7.46          
24.2988       0.04884       -171.98       9.506E-2      -4.91         9.522E-2      -4.99         0.81147       -7.63          
24.8988       0.04893       -171.75       9.506E-2      -5.02         9.525E-2      -5.12         0.81136       -7.81          
25.4987       0.04896       -171.58       9.509E-2      -5.13         9.52E-2       -5.25         0.81147       -7.98          
26.0987       0.04903       -171.29       9.503E-2      -5.25         9.522E-2      -5.33         0.81147       -8.16          
26.6987       0.04907       -171.11       9.505E-2      -5.36         9.517E-2      -5.44         0.81138       -8.32          
27.2987       0.04907       -170.83       9.509E-2      -5.48         9.521E-2      -5.56         0.81118       -8.50          
27.8986       0.04911       -170.65       9.506E-2      -5.62         9.516E-2      -5.67         0.81107       -8.66          
28.4986       0.04913       -170.41       9.506E-2      -5.73         9.517E-2      -5.81         0.8111        -8.85          
29.0986       0.04918       -170.31       9.505E-2      -5.83         9.517E-2      -5.94         0.81092       -9.01          
29.6985       0.04929       -170.10       9.502E-2      -5.95         9.515E-2      -6.02         0.81087       -9.19          
30.2985       0.04926       -169.86       9.501E-2      -6.08         9.514E-2      -6.17         0.81068       -9.36          
30.8985       0.0493        -169.62       9.502E-2      -6.21         9.511E-2      -6.25         0.81079       -9.54          
31.4984       0.04935       -169.41       9.499E-2      -6.28         9.506E-2      -6.38         0.81075       -9.70          
32.0984       0.0494        -169.28       9.499E-2      -6.42         9.513E-2      -6.48         0.81084       -9.88          
32.6984       0.04942       -169.03       9.499E-2      -6.52         9.512E-2      -6.59         0.81078       -10.04         
33.2984       0.04947       -168.89       9.499E-2      -6.64         9.508E-2      -6.72         0.81079       -10.19         
33.8983       0.04949       -168.68       9.502E-2      -6.75         9.506E-2      -6.82         0.81099       -10.35         
34.4983       0.04957       -168.45       9.499E-2      -6.85         9.511E-2      -6.91         0.81125       -10.50         
35.0983       0.04953       -168.31       9.503E-2      -6.96         9.509E-2      -7.08         0.81133       -10.68         
35.6982       0.04961       -168.10       9.501E-2      -7.08         9.507E-2      -7.15         0.81157       -10.84         
36.2982       0.04967       -167.89       9.502E-2      -7.21         9.507E-2      -7.31         0.81163       -11.03         
36.8982       0.0497        -167.69       9.499E-2      -7.31         9.505E-2      -7.41         0.81161       -11.20         
37.4981       0.04978       -167.54       9.501E-2      -7.41         9.508E-2      -7.52         0.81163       -11.37         
38.0981       0.04982       -167.33       9.501E-2      -7.53         9.505E-2      -7.65         0.81173       -11.55         
38.6981       0.04982       -167.12       9.501E-2      -7.63         9.503E-2      -7.76         0.81175       -11.73         
39.2981       0.04987       -166.96       9.497E-2      -7.73         9.50E-2       -7.87         0.81185       -11.90         
39.8980       0.04988       -166.81       9.499E-2      -7.88         9.501E-2      -8.04         0.81174       -12.08         
40.4980       0.04991       -166.57       9.496E-2      -8.01         9.502E-2      -8.08         0.81186       -12.23         
41.0980       0.05          -166.33       9.50E-2       -8.12         9.502E-2      -8.21         0.81173       -12.42         
41.6979       0.05003       -166.22       9.495E-2      -8.22         9.503E-2      -8.32         0.81206       -12.60         
42.2979       0.05008       -166.05       9.496E-2      -8.33         9.507E-2      -8.46         0.812         -12.78         
42.8979       0.05012       -165.86       9.495E-2      -8.47         9.501E-2      -8.53         0.81219       -12.96         
43.4978       0.05012       -165.69       9.494E-2      -8.55         9.503E-2      -8.67         0.81234       -13.14         
44.0978       0.05017       -165.50       9.495E-2      -8.68         9.501E-2      -8.79         0.81236       -13.33         
44.6978       0.05025       -165.42       9.493E-2      -8.81         9.499E-2      -8.91         0.81262       -13.52         
45.2978       0.05029       -165.19       9.495E-2      -8.91         9.50E-2       -8.99         0.81259       -13.70         
45.8977       0.05037       -164.98       9.492E-2      -9.04         9.50E-2       -9.11         0.81286       -13.87         
46.4977       0.05038       -164.86       9.486E-2      -9.16         9.497E-2      -9.22         0.81296       -14.05         
47.0977       0.05037       -164.63       9.493E-2      -9.28         9.503E-2      -9.34         0.81396       -14.22         
47.6976       0.05045       -164.43       9.492E-2      -9.39         9.494E-2      -9.46         0.81412       -14.39         
48.2976       0.05054       -164.31       9.497E-2      -9.52         9.499E-2      -9.55         0.81424       -14.55         
48.8976       0.05056       -164.12       9.491E-2      -9.64         9.496E-2      -9.67         0.81449       -14.73         
49.4975       0.05061       -163.94       9.489E-2      -9.77         9.503E-2      -9.76         0.81452       -14.89         
50.0975       0.05065       -163.77       9.489E-2      -9.84         9.494E-2      -9.89         0.81466       -15.06         
50.6975       0.05071       -163.55       9.486E-2      -9.96         9.497E-2      -10.03        0.81488       -15.24         
51.2975       0.05076       -163.45       9.486E-2      -10.07        9.50E-2       -10.18        0.81503       -15.42         
51.8974       0.05082       -163.28       9.48E-2       -10.17        9.505E-2      -10.29        0.8151        -15.58         
52.4974       0.05156       -163.40       9.479E-2      -10.21        9.578E-2      -10.63        0.81313       -15.75         
53.0974       0.05086       -162.88       9.476E-2      -10.31        9.496E-2      -10.50        0.8128        -15.84         
53.6973       0.05089       -162.73       9.485E-2      -10.52        9.499E-2      -10.60        0.81593       -16.10         
54.2973       0.051         -162.59       9.486E-2      -10.63        9.499E-2      -10.75        0.81599       -16.27         
54.8973       0.051         -162.42       9.486E-2      -10.76        9.497E-2      -10.85        0.81613       -16.42         
55.4972       0.05106       -162.26       9.486E-2      -10.85        9.502E-2      -10.94        0.81632       -16.58         
56.0972       0.05112       -162.10       9.488E-2      -10.96        9.499E-2      -11.06        0.81633       -16.75         
56.6972       0.05116       -161.93       9.488E-2      -11.09        9.497E-2      -11.15        0.81645       -16.90         
57.2972       0.05127       -161.68       9.484E-2      -11.19        9.497E-2      -11.27        0.81656       -17.06         
57.8971       0.05127       -161.52       9.485E-2      -11.30        9.498E-2      -11.38        0.81672       -17.22         
58.4971       0.05132       -161.38       9.489E-2      -11.41        9.50E-2       -11.52        0.817         -17.40         
59.0971       0.05137       -161.20       9.488E-2      -11.51        9.499E-2      -11.59        0.81706       -17.55         
59.6970       0.0514        -161.03       9.49E-2       -11.63        9.501E-2      -11.72        0.81734       -17.72         
60.2970       0.05145       -160.85       9.486E-2      -11.75        9.497E-2      -11.84        0.81747       -17.87         
60.8970       0.05154       -160.66       9.49E-2       -11.87        9.501E-2      -11.97        0.8177        -18.04         
61.4969       0.05154       -160.53       9.489E-2      -11.98        9.50E-2       -12.09        0.81766       -18.20         
62.0969       0.05164       -160.33       9.489E-2      -12.10        9.502E-2      -12.20        0.81766       -18.36         
62.6969       0.05164       -160.24       9.491E-2      -12.20        9.497E-2      -12.32        0.81778       -18.53         
63.2969       0.05173       -160.04       9.491E-2      -12.31        9.499E-2      -12.41        0.8179        -18.70         
63.8968       0.05178       -159.88       9.492E-2      -12.41        9.503E-2      -12.54        0.818         -18.84         
64.4968       0.05185       -159.71       9.493E-2      -12.53        9.501E-2      -12.66        0.81816       -19.01         
65.0968       0.05189       -159.54       9.492E-2      -12.64        9.504E-2      -12.78        0.81826       -19.17         
65.6967       0.05197       -159.36       9.495E-2      -12.75        9.504E-2      -12.89        0.81844       -19.32         
66.2967       0.05199       -159.18       9.49E-2       -12.86        9.503E-2      -13.01        0.81854       -19.49         
66.8967       0.05203       -159.08       9.492E-2      -12.99        9.503E-2      -13.13        0.81853       -19.66         
67.4966       0.05208       -158.85       9.491E-2      -13.10        9.503E-2      -13.23        0.81861       -19.84         
68.0966       0.05209       -158.75       9.494E-2      -13.20        9.507E-2      -13.31        0.81881       -19.99         
68.6966       0.05218       -158.53       9.494E-2      -13.31        9.505E-2      -13.44        0.81894       -20.13         
69.2966       0.0523        -158.36       9.492E-2      -13.45        9.509E-2      -13.54        0.81893       -20.32         
69.8965       0.05235       -158.21       9.495E-2      -13.57        9.51E-2       -13.64        0.81913       -20.49         
70.4965       0.05238       -158.10       9.497E-2      -13.67        9.508E-2      -13.76        0.81938       -20.65         
71.0965       0.05239       -157.91       9.497E-2      -13.79        9.51E-2       -13.87        0.81951       -20.80         
71.6964       0.0525        -157.73       9.494E-2      -13.90        9.51E-2       -13.99        0.81953       -20.96         
72.2964       0.05252       -157.63       9.498E-2      -14.01        9.507E-2      -14.11        0.81966       -21.12         
72.8964       0.05266       -157.51       9.499E-2      -14.16        9.51E-2       -14.21        0.81978       -21.30         
73.4963       0.05272       -157.32       9.497E-2      -14.27        9.51E-2       -14.34        0.81994       -21.45         
74.0963       0.05274       -157.17       9.498E-2      -14.36        9.511E-2      -14.46        0.82014       -21.62         
74.6963       0.0528        -157.08       9.498E-2      -14.49        9.51E-2       -14.57        0.82007       -21.77         
75.2963       0.05286       -156.86       9.499E-2      -14.59        9.51E-2       -14.67        0.82028       -21.94         
75.8962       0.05293       -156.74       9.50E-2       -14.72        9.515E-2      -14.81        0.82043       -22.10         
76.4962       0.05297       -156.52       9.504E-2      -14.83        9.513E-2      -14.93        0.82074       -22.27         
77.0962       0.05305       -156.40       9.502E-2      -14.94        9.517E-2      -15.01        0.82084       -22.43         
77.6961       0.05311       -156.29       9.50E-2       -15.07        9.518E-2      -15.16        0.82122       -22.59         
78.2961       0.05321       -156.08       9.501E-2      -15.15        9.518E-2      -15.24        0.82127       -22.75         
78.8961       0.05324       -155.95       9.503E-2      -15.29        9.518E-2      -15.33        0.82154       -22.91         
79.4960       0.05333       -155.78       9.503E-2      -15.39        9.522E-2      -15.47        0.82185       -23.06         
80.0960       0.05332       -155.65       9.504E-2      -15.52        9.52E-2       -15.58        0.82193       -23.23         
80.6960       0.0534        -155.52       9.509E-2      -15.62        9.52E-2       -15.68        0.82214       -23.38         
81.2960       0.05349       -155.41       9.508E-2      -15.74        9.524E-2      -15.79        0.8224        -23.55         
81.8959       0.05356       -155.23       9.506E-2      -15.84        9.526E-2      -15.90        0.82265       -23.70         
82.4959       0.05366       -155.05       9.51E-2       -15.97        9.526E-2      -16.02        0.82291       -23.87         
83.0959       0.05371       -154.90       9.511E-2      -16.08        9.527E-2      -16.12        0.82311       -24.01         
83.6958       0.05378       -154.71       9.513E-2      -16.19        9.526E-2      -16.24        0.82338       -24.19         
84.2958       0.05384       -154.56       9.516E-2      -16.31        9.527E-2      -16.36        0.82351       -24.34         
84.8958       0.05391       -154.44       9.516E-2      -16.42        9.527E-2      -16.50        0.82357       -24.50         
85.4957       0.05399       -154.33       9.52E-2       -16.54        9.529E-2      -16.63        0.82392       -24.67         
86.0957       0.05404       -154.11       9.521E-2      -16.66        9.527E-2      -16.75        0.82388       -24.85         
86.6957       0.05408       -153.92       9.521E-2      -16.79        9.528E-2      -16.86        0.82415       -25.00         
87.2957       0.05418       -153.80       9.523E-2      -16.91        9.532E-2      -16.99        0.82444       -25.17         
87.8956       0.0542        -153.69       9.521E-2      -17.02        9.529E-2      -17.08        0.82451       -25.32         
88.4956       0.05434       -153.49       9.521E-2      -17.12        9.531E-2      -17.20        0.8246        -25.47         
89.0956       0.05439       -153.33       9.524E-2      -17.23        9.531E-2      -17.34        0.82481       -25.63         
89.6955       0.05446       -153.15       9.53E-2       -17.35        9.532E-2      -17.43        0.82507       -25.79         
90.2955       0.05454       -153.01       9.529E-2      -17.45        9.534E-2      -17.53        0.82534       -25.96         
90.8955       0.05461       -152.90       9.532E-2      -17.58        9.534E-2      -17.65        0.82543       -26.12         
91.4954       0.05469       -152.71       9.535E-2      -17.69        9.533E-2      -17.77        0.82566       -26.29         
92.0954       0.05475       -152.56       9.533E-2      -17.81        9.536E-2      -17.90        0.82561       -26.44         
