!    8/6/2020   02:05:32 
! Ref Plane: 0.000 mm
# MHZ S MA R  50
!
0.3000        0.04752       179.25        9.893E-2      -1.05         9.636E-2      -0.86         0.81442       -0.42          
0.9000        0.04768       179.23        9.499E-2      -0.54         9.522E-2      -0.25         0.80894       -0.55          
1.4999        0.04779       179.32        9.517E-2      -0.35         9.531E-2      -0.35         0.80891       -0.71          
2.0999        0.04776       179.50        9.515E-2      -0.48         9.531E-2      -0.44         0.80913       -0.91          
2.6999        0.04778       179.73        9.518E-2      -0.59         9.532E-2      -0.56         0.80908       -1.07          
3.2999        0.04776       179.97        9.521E-2      -0.66         9.535E-2      -0.70         0.80933       -1.25          
3.8998        0.04787       -179.81       9.517E-2      -0.81         9.534E-2      -0.84         0.80929       -1.45          
4.4998        0.04782       -179.60       9.516E-2      -0.94         9.537E-2      -0.93         0.80938       -1.61          
5.0998        0.04792       -179.32       9.515E-2      -1.02         9.534E-2      -1.04         0.80939       -1.79          
5.6997        0.04788       -179.04       9.515E-2      -1.15         9.54E-2       -1.18         0.80953       -1.98          
6.2997        0.04795       -178.91       9.513E-2      -1.29         9.535E-2      -1.29         0.80938       -2.18          
6.8997        0.04799       -178.64       9.515E-2      -1.44         9.534E-2      -1.41         0.80956       -2.36          
7.4996        0.04801       -178.37       9.514E-2      -1.51         9.536E-2      -1.52         0.80959       -2.56          
8.0996        0.04803       -178.15       9.51E-2       -1.65         9.538E-2      -1.67         0.80936       -2.75          
8.6996        0.04808       -177.92       9.513E-2      -1.73         9.537E-2      -1.75         0.80962       -2.92          
9.2996        0.04808       -177.65       9.522E-2      -1.89         9.538E-2      -1.93         0.80972       -3.11          
9.8995        0.04809       -177.42       9.516E-2      -2.05         9.537E-2      -2.02         0.80945       -3.29          
10.4995       0.04814       -177.23       9.513E-2      -2.16         9.536E-2      -2.14         0.80984       -3.47          
11.0995       0.04819       -176.98       9.515E-2      -2.24         9.537E-2      -2.25         0.80995       -3.66          
11.6994       0.0482        -176.72       9.514E-2      -2.37         9.538E-2      -2.36         0.80998       -3.85          
12.2994       0.04822       -176.49       9.509E-2      -2.48         9.532E-2      -2.48         0.80991       -4.04          
12.8994       0.04825       -176.25       9.515E-2      -2.54         9.535E-2      -2.62         0.80994       -4.21          
13.4993       0.04826       -176.04       9.52E-2       -2.73         9.533E-2      -2.75         0.81012       -4.41          
14.0993       0.04832       -175.84       9.512E-2      -2.82         9.532E-2      -2.88         0.81017       -4.58          
14.6993       0.04834       -175.57       9.509E-2      -2.99         9.535E-2      -2.99         0.81007       -4.76          
15.2993       0.04837       -175.38       9.509E-2      -3.04         9.532E-2      -3.11         0.81025       -4.95          
15.8992       0.04841       -175.17       9.51E-2       -3.16         9.53E-2       -3.24         0.81033       -5.11          
16.4992       0.04846       -174.94       9.51E-2       -3.30         9.534E-2      -3.39         0.81018       -5.31          
17.0992       0.04849       -174.66       9.512E-2      -3.39         9.532E-2      -3.47         0.81039       -5.49          
17.6991       0.04856       -174.46       9.511E-2      -3.53         9.53E-2       -3.62         0.81034       -5.68          
18.2991       0.04856       -174.25       9.509E-2      -3.66         9.533E-2      -3.71         0.81042       -5.84          
18.8991       0.0486        -174.05       9.511E-2      -3.78         9.532E-2      -3.83         0.81072       -6.01          
19.4990       0.04861       -173.81       9.514E-2      -3.91         9.529E-2      -3.97         0.81075       -6.20          
20.0990       0.04867       -173.59       9.51E-2       -4.03         9.531E-2      -4.10         0.81061       -6.39          
20.6990       0.04869       -173.38       9.512E-2      -4.16         9.533E-2      -4.18         0.81073       -6.56          
21.2990       0.04868       -173.08       9.509E-2      -4.27         9.531E-2      -4.32         0.81062       -6.73          
21.8989       0.04876       -172.94       9.511E-2      -4.38         9.529E-2      -4.41         0.81079       -6.93          
22.4989       0.04878       -172.70       9.506E-2      -4.54         9.534E-2      -4.54         0.81089       -7.10          
23.0989       0.04886       -172.54       9.51E-2       -4.63         9.533E-2      -4.67         0.81103       -7.29          
23.6988       0.04882       -172.23       9.513E-2      -4.73         9.532E-2      -4.79         0.81073       -7.46          
24.2988       0.04887       -172.08       9.507E-2      -4.84         9.53E-2       -4.90         0.81076       -7.63          
24.8988       0.04895       -171.85       9.504E-2      -4.98         9.53E-2       -5.05         0.81069       -7.81          
25.4987       0.04896       -171.66       9.511E-2      -5.06         9.526E-2      -5.16         0.81072       -7.99          
26.0987       0.04903       -171.39       9.502E-2      -5.20         9.529E-2      -5.24         0.81066       -8.17          
26.6987       0.04908       -171.22       9.504E-2      -5.29         9.525E-2      -5.37         0.81051       -8.33          
27.2987       0.0491        -170.99       9.511E-2      -5.41         9.525E-2      -5.48         0.81032       -8.52          
27.8986       0.04912       -170.80       9.506E-2      -5.56         9.525E-2      -5.61         0.8102        -8.68          
28.4986       0.04916       -170.54       9.509E-2      -5.67         9.523E-2      -5.74         0.81017       -8.87          
29.0986       0.04918       -170.44       9.506E-2      -5.76         9.522E-2      -5.86         0.80994       -9.03          
29.6985       0.04927       -170.23       9.505E-2      -5.88         9.521E-2      -5.94         0.80987       -9.22          
30.2985       0.04926       -170.00       9.502E-2      -6.03         9.521E-2      -6.09         0.80967       -9.39          
30.8985       0.0493        -169.75       9.503E-2      -6.15         9.516E-2      -6.17         0.80968       -9.57          
31.4984       0.04937       -169.55       9.501E-2      -6.22         9.512E-2      -6.31         0.80967       -9.74          
32.0984       0.04939       -169.41       9.502E-2      -6.38         9.522E-2      -6.42         0.8097        -9.91          
32.6984       0.04943       -169.20       9.498E-2      -6.48         9.518E-2      -6.53         0.80961       -10.08         
33.2984       0.04947       -169.03       9.50E-2       -6.58         9.514E-2      -6.66         0.80958       -10.24         
33.8983       0.04947       -168.83       9.504E-2      -6.70         9.516E-2      -6.76         0.80976       -10.40         
34.4983       0.04955       -168.61       9.501E-2      -6.80         9.517E-2      -6.86         0.80989       -10.56         
35.0983       0.04952       -168.45       9.502E-2      -6.92         9.517E-2      -7.00         0.80999       -10.74         
35.6982       0.0496        -168.24       9.502E-2      -7.02         9.514E-2      -7.10         0.81016       -10.90         
36.2982       0.04965       -168.04       9.502E-2      -7.16         9.513E-2      -7.25         0.81016       -11.10         
36.8982       0.04966       -167.83       9.502E-2      -7.26         9.513E-2      -7.34         0.81011       -11.27         
37.4981       0.04973       -167.71       9.501E-2      -7.38         9.514E-2      -7.46         0.81007       -11.44         
38.0981       0.04975       -167.46       9.503E-2      -7.49         9.512E-2      -7.60         0.81012       -11.64         
38.6981       0.04978       -167.28       9.502E-2      -7.57         9.513E-2      -7.71         0.81012       -11.81         
39.2981       0.0498        -167.11       9.499E-2      -7.70         9.507E-2      -7.80         0.81011       -11.99         
39.8980       0.04985       -166.96       9.499E-2      -7.83         9.509E-2      -7.98         0.81003       -12.17         
40.4980       0.04988       -166.72       9.50E-2       -7.96         9.511E-2      -8.04         0.81007       -12.33         
41.0980       0.04995       -166.50       9.501E-2      -8.08         9.511E-2      -8.17         0.80986       -12.52         
41.6979       0.04997       -166.36       9.499E-2      -8.17         9.508E-2      -8.28         0.81013       -12.70         
42.2979       0.05003       -166.22       9.497E-2      -8.29         9.512E-2      -8.41         0.81006       -12.90         
42.8979       0.05006       -166.03       9.497E-2      -8.42         9.508E-2      -8.50         0.81016       -13.08         
43.4978       0.05004       -165.86       9.497E-2      -8.51         9.51E-2       -8.62         0.81027       -13.27         
44.0978       0.05015       -165.68       9.497E-2      -8.65         9.508E-2      -8.75         0.81019       -13.46         
44.6978       0.0502        -165.60       9.494E-2      -8.78         9.508E-2      -8.87         0.81038       -13.65         
45.2978       0.05025       -165.38       9.496E-2      -8.89         9.507E-2      -8.96         0.81037       -13.84         
45.8977       0.05031       -165.15       9.492E-2      -9.01         9.507E-2      -9.08         0.81054       -14.02         
46.4977       0.05032       -165.04       9.488E-2      -9.13         9.505E-2      -9.19         0.8106        -14.21         
47.0977       0.05031       -164.82       9.496E-2      -9.25         9.512E-2      -9.31         0.81151       -14.38         
47.6976       0.05037       -164.61       9.489E-2      -9.38         9.503E-2      -9.42         0.81164       -14.56         
48.2976       0.05044       -164.49       9.493E-2      -9.52         9.503E-2      -9.53         0.81167       -14.73         
48.8976       0.05048       -164.34       9.489E-2      -9.60         9.502E-2      -9.65         0.8119        -14.91         
49.4975       0.05053       -164.13       9.488E-2      -9.75         9.509E-2      -9.75         0.81182       -15.08         
50.0975       0.05052       -163.99       9.486E-2      -9.85         9.501E-2      -9.89         0.81194       -15.26         
50.6975       0.05058       -163.77       9.486E-2      -9.97         9.505E-2      -10.01        0.81208       -15.44         
51.2975       0.05062       -163.60       9.482E-2      -10.06        9.507E-2      -10.15        0.81218       -15.64         
51.8974       0.05073       -163.48       9.48E-2       -10.18        9.508E-2      -10.26        0.81208       -15.80         
52.4974       0.05145       -163.57       9.475E-2      -10.24        9.582E-2      -10.60        0.81016       -15.98         
53.0974       0.05074       -163.09       9.479E-2      -10.32        9.50E-2       -10.49        0.80977       -16.08         
53.6973       0.05079       -162.93       9.483E-2      -10.52        9.505E-2      -10.60        0.81284       -16.34         
54.2973       0.05085       -162.82       9.483E-2      -10.64        9.504E-2      -10.74        0.81281       -16.52         
54.8973       0.05087       -162.64       9.485E-2      -10.78        9.501E-2      -10.83        0.81284       -16.68         
55.4972       0.05094       -162.47       9.485E-2      -10.86        9.504E-2      -10.94        0.81303       -16.84         
56.0972       0.05099       -162.31       9.483E-2      -10.99        9.501E-2      -11.06        0.81289       -17.02         
56.6972       0.05104       -162.12       9.483E-2      -11.10        9.498E-2      -11.14        0.81297       -17.18         
57.2972       0.05113       -161.93       9.483E-2      -11.21        9.502E-2      -11.26        0.81303       -17.36         
57.8971       0.05111       -161.74       9.479E-2      -11.32        9.502E-2      -11.39        0.81308       -17.52         
58.4971       0.05117       -161.61       9.485E-2      -11.44        9.50E-2       -11.51        0.81328       -17.70         
59.0971       0.05118       -161.44       9.484E-2      -11.55        9.503E-2      -11.61        0.8133        -17.87         
59.6970       0.05127       -161.23       9.484E-2      -11.65        9.504E-2      -11.74        0.81353       -18.04         
60.2970       0.05129       -161.07       9.479E-2      -11.77        9.499E-2      -11.87        0.81355       -18.20         
60.8970       0.05137       -160.91       9.483E-2      -11.88        9.503E-2      -12.00        0.81372       -18.38         
61.4969       0.05137       -160.76       9.483E-2      -12.01        9.501E-2      -12.09        0.81364       -18.55         
62.0969       0.05144       -160.56       9.484E-2      -12.12        9.50E-2       -12.20        0.81352       -18.73         
62.6969       0.05146       -160.48       9.483E-2      -12.22        9.497E-2      -12.35        0.81356       -18.90         
63.2969       0.05153       -160.27       9.481E-2      -12.34        9.499E-2      -12.44        0.81366       -19.08         
63.8968       0.05157       -160.15       9.482E-2      -12.45        9.501E-2      -12.58        0.81367       -19.23         
64.4968       0.05166       -159.95       9.481E-2      -12.58        9.501E-2      -12.69        0.81379       -19.41         
65.0968       0.05168       -159.79       9.483E-2      -12.69        9.503E-2      -12.80        0.81382       -19.57         
65.6967       0.05177       -159.61       9.484E-2      -12.82        9.503E-2      -12.92        0.8139        -19.74         
66.2967       0.05179       -159.48       9.483E-2      -12.91        9.499E-2      -13.04        0.81392       -19.92         
66.8967       0.05182       -159.35       9.48E-2       -13.04        9.50E-2       -13.15        0.81383       -20.09         
67.4966       0.05186       -159.15       9.477E-2      -13.15        9.501E-2      -13.27        0.81389       -20.28         
68.0966       0.05188       -159.02       9.48E-2       -13.24        9.501E-2      -13.35        0.8139        -20.44         
68.6966       0.05195       -158.80       9.48E-2       -13.36        9.502E-2      -13.46        0.81399       -20.60         
69.2966       0.05206       -158.64       9.48E-2       -13.50        9.504E-2      -13.58        0.81392       -20.80         
69.8965       0.05209       -158.48       9.48E-2       -13.63        9.501E-2      -13.69        0.81402       -20.97         
70.4965       0.05213       -158.37       9.48E-2       -13.72        9.497E-2      -13.83        0.81417       -21.14         
71.0965       0.05217       -158.21       9.478E-2      -13.85        9.501E-2      -13.93        0.81426       -21.31         
71.6964       0.05224       -158.01       9.475E-2      -13.96        9.502E-2      -14.05        0.8142        -21.47         
72.2964       0.05229       -157.93       9.483E-2      -14.10        9.497E-2      -14.17        0.81422       -21.64         
72.8964       0.05236       -157.81       9.481E-2      -14.22        9.50E-2       -14.29        0.81429       -21.83         
73.4963       0.05247       -157.59       9.478E-2      -14.35        9.497E-2      -14.41        0.8144        -22.00         
74.0963       0.05246       -157.45       9.479E-2      -14.45        9.502E-2      -14.53        0.81454       -22.18         
74.6963       0.05248       -157.36       9.477E-2      -14.56        9.498E-2      -14.62        0.81433       -22.34         
75.2963       0.05259       -157.17       9.478E-2      -14.69        9.495E-2      -14.74        0.81449       -22.52         
75.8962       0.05263       -157.01       9.48E-2       -14.80        9.499E-2      -14.88        0.81456       -22.68         
76.4962       0.05271       -156.79       9.481E-2      -14.90        9.501E-2      -14.98        0.81474       -22.86         
77.0962       0.05275       -156.74       9.481E-2      -15.03        9.502E-2      -15.08        0.81484       -23.03         
77.6961       0.05282       -156.58       9.478E-2      -15.15        9.502E-2      -15.24        0.81513       -23.20         
78.2961       0.05292       -156.37       9.479E-2      -15.24        9.502E-2      -15.30        0.81512       -23.38         
78.8961       0.05293       -156.27       9.475E-2      -15.38        9.502E-2      -15.43        0.81528       -23.54         
79.4960       0.05301       -156.11       9.479E-2      -15.47        9.502E-2      -15.55        0.81553       -23.70         
80.0960       0.05303       -155.96       9.479E-2      -15.60        9.501E-2      -15.66        0.81555       -23.89         
80.6960       0.05308       -155.83       9.48E-2       -15.71        9.501E-2      -15.77        0.81569       -24.04         
81.2960       0.05315       -155.71       9.481E-2      -15.83        9.502E-2      -15.89        0.81588       -24.22         
81.8959       0.05322       -155.54       9.478E-2      -15.93        9.505E-2      -15.98        0.81604       -24.38         
82.4959       0.0533        -155.39       9.48E-2       -16.06        9.504E-2      -16.10        0.81622       -24.56         
83.0959       0.05336       -155.22       9.482E-2      -16.18        9.504E-2      -16.22        0.81636       -24.71         
83.6958       0.05341       -155.05       9.479E-2      -16.28        9.503E-2      -16.35        0.81655       -24.90         
84.2958       0.05349       -154.89       9.482E-2      -16.41        9.50E-2       -16.43        0.8166        -25.06         
84.8958       0.05354       -154.79       9.482E-2      -16.52        9.497E-2      -16.59        0.81663       -25.23         
85.4957       0.05361       -154.63       9.487E-2      -16.64        9.502E-2      -16.71        0.8169        -25.41         
86.0957       0.05366       -154.46       9.486E-2      -16.76        9.499E-2      -16.85        0.8168        -25.60         
86.6957       0.05369       -154.25       9.484E-2      -16.88        9.50E-2       -16.94        0.81696       -25.75         
87.2957       0.05381       -154.16       9.487E-2      -17.00        9.503E-2      -17.07        0.81716       -25.94         
87.8956       0.05381       -154.01       9.483E-2      -17.11        9.497E-2      -17.17        0.81717       -26.09         
88.4956       0.05396       -153.83       9.483E-2      -17.22        9.499E-2      -17.29        0.81724       -26.26         
89.0956       0.054         -153.65       9.484E-2      -17.34        9.497E-2      -17.42        0.81733       -26.42         
89.6955       0.05407       -153.48       9.492E-2      -17.46        9.497E-2      -17.52        0.81754       -26.59         
90.2955       0.05415       -153.35       9.488E-2      -17.55        9.501E-2      -17.63        0.81776       -26.77         
90.8955       0.05421       -153.25       9.492E-2      -17.67        9.498E-2      -17.73        0.81772       -26.94         
91.4954       0.05427       -153.05       9.492E-2      -17.79        9.497E-2      -17.86        0.81786       -27.12         
92.0954       0.05434       -152.90       9.49E-2       -17.93        9.498E-2      -17.99        0.81778       -27.27         
