!    8/6/2020   01:12:14 
! Ref Plane: 0.000 mm
# MHZ S MA R  50
!
0.3000        0.04797       178.46        9.871E-2      -0.98         9.66E-2       -0.88         0.81644       -0.31          
0.9000        0.04768       179.10        9.489E-2      -0.48         9.535E-2      -0.34         0.81003       -0.47          
1.4999        0.04775       179.39        9.509E-2      -0.30         9.535E-2      -0.43         0.80949       -0.62          
2.0999        0.04778       179.72        9.508E-2      -0.47         9.531E-2      -0.53         0.80958       -0.84          
2.6999        0.04782       -179.98       9.517E-2      -0.59         9.534E-2      -0.66         0.80968       -1.01          
3.2999        0.04781       -179.63       9.519E-2      -0.71         9.529E-2      -0.81         0.80969       -1.21          
3.8998        0.04793       -179.37       9.513E-2      -0.86         9.53E-2       -0.94         0.80962       -1.41          
4.4998        0.04792       -179.05       9.514E-2      -1.01         9.529E-2      -1.06         0.80971       -1.58          
5.0998        0.04803       -178.68       9.51E-2       -1.10         9.529E-2      -1.16         0.80974       -1.77          
5.6997        0.04802       -178.37       9.514E-2      -1.25         9.533E-2      -1.32         0.8099        -1.96          
6.2997        0.04809       -178.15       9.51E-2       -1.40         9.531E-2      -1.44         0.80968       -2.16          
6.8997        0.04815       -177.83       9.511E-2      -1.58         9.529E-2      -1.58         0.80987       -2.34          
7.4996        0.0482        -177.49       9.511E-2      -1.66         9.527E-2      -1.70         0.80989       -2.55          
8.0996        0.04825       -177.21       9.509E-2      -1.80         9.53E-2       -1.84         0.80968       -2.74          
8.6996        0.04829       -176.93       9.509E-2      -1.92         9.53E-2       -1.94         0.80988       -2.91          
9.2996        0.04833       -176.63       9.514E-2      -2.05         9.531E-2      -2.10         0.81008       -3.10          
9.8995        0.04837       -176.30       9.508E-2      -2.21         9.529E-2      -2.23         0.80974       -3.28          
10.4995       0.04847       -176.08       9.507E-2      -2.34         9.528E-2      -2.37         0.81011       -3.47          
11.0995       0.04853       -175.79       9.507E-2      -2.47         9.529E-2      -2.46         0.81019       -3.65          
11.6994       0.04859       -175.45       9.507E-2      -2.57         9.528E-2      -2.60         0.81027       -3.85          
12.2994       0.04863       -175.15       9.506E-2      -2.72         9.524E-2      -2.72         0.81021       -4.03          
12.8994       0.04866       -174.91       9.508E-2      -2.79         9.526E-2      -2.87         0.81023       -4.20          
13.4993       0.04869       -174.60       9.515E-2      -3.00         9.524E-2      -3.02         0.8104        -4.40          
14.0993       0.04879       -174.36       9.508E-2      -3.08         9.521E-2      -3.15         0.8104        -4.57          
14.6993       0.04884       -174.07       9.503E-2      -3.26         9.524E-2      -3.26         0.81038       -4.75          
15.2993       0.04889       -173.81       9.506E-2      -3.32         9.523E-2      -3.40         0.81053       -4.94          
15.8992       0.04893       -173.57       9.505E-2      -3.44         9.52E-2       -3.55         0.81061       -5.10          
16.4992       0.04902       -173.30       9.502E-2      -3.60         9.523E-2      -3.69         0.81052       -5.30          
17.0992       0.04905       -173.01       9.506E-2      -3.71         9.52E-2       -3.80         0.8107        -5.48          
17.6991       0.04917       -172.75       9.505E-2      -3.84         9.519E-2      -3.94         0.81068       -5.67          
18.2991       0.04923       -172.49       9.501E-2      -3.98         9.519E-2      -4.04         0.81073       -5.83          
18.8991       0.04925       -172.24       9.506E-2      -4.12         9.521E-2      -4.17         0.81108       -6.00          
19.4990       0.04931       -171.95       9.507E-2      -4.26         9.519E-2      -4.32         0.81109       -6.19          
20.0990       0.04939       -171.68       9.504E-2      -4.38         9.519E-2      -4.44         0.81101       -6.37          
20.6990       0.04944       -171.48       9.507E-2      -4.52         9.522E-2      -4.57         0.81113       -6.54          
21.2990       0.04947       -171.15       9.503E-2      -4.65         9.517E-2      -4.67         0.811         -6.72          
21.8989       0.04953       -170.97       9.502E-2      -4.77         9.518E-2      -4.81         0.81113       -6.91          
22.4989       0.0496        -170.68       9.497E-2      -4.90         9.522E-2      -4.93         0.8112        -7.08          
23.0989       0.04969       -170.47       9.50E-2       -5.02         9.521E-2      -5.07         0.81145       -7.26          
23.6988       0.04971       -170.16       9.502E-2      -5.13         9.518E-2      -5.20         0.81108       -7.44          
24.2988       0.04977       -169.96       9.498E-2      -5.24         9.517E-2      -5.32         0.81111       -7.61          
24.8988       0.04985       -169.72       9.497E-2      -5.40         9.519E-2      -5.48         0.81105       -7.79          
25.4987       0.04992       -169.47       9.502E-2      -5.49         9.513E-2      -5.60         0.81108       -7.96          
26.0987       0.05001       -169.21       9.494E-2      -5.64         9.516E-2      -5.70         0.81102       -8.14          
26.6987       0.05007       -169.01       9.498E-2      -5.75         9.512E-2      -5.83         0.81088       -8.30          
27.2987       0.05011       -168.73       9.503E-2      -5.88         9.513E-2      -5.95         0.81074       -8.49          
27.8986       0.05017       -168.54       9.497E-2      -6.03         9.51E-2       -6.08         0.81055       -8.64          
28.4986       0.05023       -168.25       9.499E-2      -6.14         9.509E-2      -6.22         0.81056       -8.84          
29.0986       0.05025       -168.11       9.497E-2      -6.24         9.512E-2      -6.35         0.81038       -9.00          
29.6985       0.0504        -167.85       9.495E-2      -6.38         9.508E-2      -6.43         0.8103        -9.18          
30.2985       0.05041       -167.62       9.494E-2      -6.52         9.508E-2      -6.60         0.81009       -9.35          
30.8985       0.05049       -167.36       9.495E-2      -6.66         9.503E-2      -6.69         0.81014       -9.53          
31.4984       0.05057       -167.16       9.49E-2       -6.75         9.499E-2      -6.80         0.81009       -9.69          
32.0984       0.05061       -166.98       9.492E-2      -6.89         9.506E-2      -6.94         0.8101        -9.87          
32.6984       0.05068       -166.72       9.49E-2       -7.01         9.503E-2      -7.05         0.81003       -10.04         
33.2984       0.05074       -166.52       9.492E-2      -7.11         9.503E-2      -7.19         0.80998       -10.19         
33.8983       0.05082       -166.30       9.493E-2      -7.25         9.50E-2       -7.31         0.81017       -10.35         
34.4983       0.05093       -166.05       9.492E-2      -7.36         9.505E-2      -7.41         0.8104        -10.50         
35.0983       0.05092       -165.90       9.495E-2      -7.49         9.501E-2      -7.57         0.81045       -10.68         
35.6982       0.05101       -165.64       9.493E-2      -7.59         9.502E-2      -7.68         0.81064       -10.84         
36.2982       0.05108       -165.43       9.493E-2      -7.74         9.502E-2      -7.82         0.81064       -11.03         
36.8982       0.05116       -165.22       9.489E-2      -7.86         9.50E-2       -7.93         0.81059       -11.20         
37.4981       0.05122       -165.03       9.492E-2      -7.96         9.502E-2      -8.06         0.8106        -11.38         
38.0981       0.05129       -164.78       9.494E-2      -8.08         9.499E-2      -8.20         0.81062       -11.56         
38.6981       0.05135       -164.59       9.492E-2      -8.19         9.495E-2      -8.31         0.81062       -11.74         
39.2981       0.05139       -164.37       9.49E-2       -8.31         9.491E-2      -8.43         0.8107        -11.91         
39.8980       0.05144       -164.16       9.491E-2      -8.47         9.494E-2      -8.60         0.81058       -12.10         
40.4980       0.0515        -163.92       9.49E-2       -8.59         9.494E-2      -8.66         0.81064       -12.25         
41.0980       0.05162       -163.70       9.492E-2      -8.72         9.496E-2      -8.80         0.81045       -12.44         
41.6979       0.05166       -163.52       9.489E-2      -8.82         9.493E-2      -8.94         0.81069       -12.62         
42.2979       0.05176       -163.33       9.487E-2      -8.93         9.497E-2      -9.05         0.81059       -12.81         
42.8979       0.05183       -163.16       9.487E-2      -9.09         9.494E-2      -9.15         0.81076       -12.99         
43.4978       0.05183       -162.96       9.489E-2      -9.19         9.495E-2      -9.29         0.81082       -13.17         
44.0978       0.05195       -162.76       9.487E-2      -9.33         9.494E-2      -9.41         0.81085       -13.36         
44.6978       0.05202       -162.62       9.483E-2      -9.45         9.492E-2      -9.55         0.81106       -13.55         
45.2978       0.0521        -162.42       9.487E-2      -9.58         9.493E-2      -9.64         0.81099       -13.73         
45.8977       0.05222       -162.19       9.483E-2      -9.70         9.491E-2      -9.79         0.81122       -13.91         
46.4977       0.05222       -162.00       9.481E-2      -9.83         9.492E-2      -9.90         0.81121       -14.09         
47.0977       0.05229       -161.80       9.484E-2      -9.97         9.494E-2      -10.03        0.81221       -14.26         
47.6976       0.05237       -161.57       9.483E-2      -10.09        9.484E-2      -10.15        0.81231       -14.44         
48.2976       0.05248       -161.45       9.486E-2      -10.23        9.488E-2      -10.24        0.81239       -14.60         
48.8976       0.05254       -161.20       9.48E-2       -10.36        9.487E-2      -10.39        0.8126        -14.78         
49.4975       0.05263       -161.02       9.479E-2      -10.48        9.492E-2      -10.49        0.81254       -14.95         
50.0975       0.05265       -160.89       9.479E-2      -10.59        9.486E-2      -10.62        0.8127        -15.12         
50.6975       0.05274       -160.69       9.477E-2      -10.72        9.489E-2      -10.77        0.81289       -15.30         
51.2975       0.05283       -160.50       9.477E-2      -10.83        9.493E-2      -10.92        0.81296       -15.49         
51.8974       0.05293       -160.31       9.471E-2      -10.95        9.496E-2      -11.03        0.81301       -15.65         
52.4974       0.05369       -160.40       9.469E-2      -10.99        9.568E-2      -11.39        0.81101       -15.83         
53.0974       0.05301       -159.88       9.459E-2      -11.08        9.49E-2       -11.28        0.81062       -15.92         
53.6973       0.05307       -159.77       9.477E-2      -11.31        9.488E-2      -11.38        0.8137        -16.18         
54.2973       0.05316       -159.64       9.474E-2      -11.42        9.489E-2      -11.53        0.81374       -16.35         
54.8973       0.05324       -159.43       9.475E-2      -11.56        9.486E-2      -11.64        0.81379       -16.50         
55.4972       0.0533        -159.28       9.476E-2      -11.65        9.49E-2       -11.73        0.814         -16.67         
56.0972       0.05336       -159.09       9.476E-2      -11.79        9.488E-2      -11.87        0.81392       -16.84         
56.6972       0.05345       -158.85       9.474E-2      -11.90        9.485E-2      -11.96        0.81396       -16.99         
57.2972       0.05356       -158.68       9.476E-2      -12.03        9.487E-2      -12.07        0.81406       -17.16         
57.8971       0.05359       -158.46       9.475E-2      -12.14        9.487E-2      -12.21        0.81412       -17.32         
58.4971       0.05369       -158.32       9.477E-2      -12.26        9.489E-2      -12.35        0.81439       -17.50         
59.0971       0.05372       -158.14       9.478E-2      -12.38        9.489E-2      -12.46        0.81444       -17.65         
59.6970       0.05381       -157.93       9.476E-2      -12.49        9.491E-2      -12.58        0.81466       -17.82         
60.2970       0.05388       -157.75       9.475E-2      -12.61        9.486E-2      -12.71        0.81473       -17.97         
60.8970       0.05401       -157.53       9.478E-2      -12.74        9.491E-2      -12.86        0.81495       -18.15         
61.4969       0.05406       -157.42       9.475E-2      -12.87        9.486E-2      -12.96        0.81492       -18.31         
62.0969       0.05414       -157.19       9.477E-2      -12.98        9.488E-2      -13.08        0.81483       -18.48         
62.6969       0.0542        -157.08       9.479E-2      -13.09        9.485E-2      -13.21        0.81489       -18.64         
63.2969       0.05432       -156.86       9.477E-2      -13.23        9.49E-2       -13.31        0.81504       -18.81         
63.8968       0.05438       -156.73       9.479E-2      -13.35        9.49E-2       -13.45        0.81506       -18.96         
64.4968       0.05448       -156.55       9.476E-2      -13.47        9.49E-2       -13.58        0.81522       -19.14         
65.0968       0.05454       -156.36       9.477E-2      -13.58        9.491E-2      -13.71        0.81525       -19.29         
65.6967       0.05464       -156.19       9.477E-2      -13.71        9.49E-2       -13.81        0.81541       -19.45         
66.2967       0.05467       -156.02       9.479E-2      -13.80        9.488E-2      -13.95        0.81545       -19.62         
66.8967       0.05474       -155.84       9.477E-2      -13.95        9.489E-2      -14.06        0.81541       -19.80         
67.4966       0.05483       -155.65       9.476E-2      -14.07        9.491E-2      -14.18        0.81548       -19.97         
68.0966       0.05491       -155.52       9.479E-2      -14.17        9.493E-2      -14.26        0.81557       -20.12         
68.6966       0.05501       -155.30       9.477E-2      -14.31        9.494E-2      -14.40        0.81573       -20.27         
69.2966       0.05514       -155.14       9.477E-2      -14.44        9.494E-2      -14.51        0.81567       -20.46         
69.8965       0.0552        -154.98       9.48E-2       -14.56        9.494E-2      -14.62        0.81586       -20.63         
70.4965       0.05525       -154.87       9.48E-2       -14.67        9.492E-2      -14.76        0.81605       -20.79         
71.0965       0.0553        -154.70       9.48E-2       -14.80        9.498E-2      -14.86        0.81617       -20.95         
71.6964       0.05541       -154.50       9.48E-2       -14.94        9.495E-2      -15.00        0.81618       -21.10         
72.2964       0.05547       -154.39       9.484E-2      -15.06        9.491E-2      -15.12        0.81627       -21.27         
72.8964       0.0556        -154.27       9.484E-2      -15.17        9.494E-2      -15.24        0.8164        -21.45         
73.4963       0.0557        -154.06       9.481E-2      -15.30        9.495E-2      -15.38        0.81652       -21.61         
74.0963       0.05576       -153.91       9.484E-2      -15.43        9.497E-2      -15.50        0.81674       -21.78         
74.6963       0.05583       -153.83       9.482E-2      -15.54        9.497E-2      -15.61        0.81659       -21.93         
75.2963       0.05592       -153.62       9.481E-2      -15.68        9.497E-2      -15.73        0.81679       -22.10         
75.8962       0.056         -153.48       9.485E-2      -15.79        9.497E-2      -15.87        0.8169        -22.26         
76.4962       0.05611       -153.27       9.488E-2      -15.90        9.501E-2      -15.99        0.81724       -22.42         
77.0962       0.0562        -153.17       9.486E-2      -16.02        9.50E-2       -16.10        0.81734       -22.58         
77.6961       0.05625       -153.02       9.483E-2      -16.17        9.504E-2      -16.23        0.81772       -22.75         
78.2961       0.0564        -152.85       9.487E-2      -16.25        9.502E-2      -16.33        0.81771       -22.91         
78.8961       0.05644       -152.71       9.486E-2      -16.39        9.504E-2      -16.44        0.81795       -23.07         
79.4960       0.05656       -152.52       9.487E-2      -16.52        9.505E-2      -16.58        0.81828       -23.22         
80.0960       0.05661       -152.37       9.489E-2      -16.64        9.504E-2      -16.68        0.81833       -23.39         
80.6960       0.05669       -152.23       9.489E-2      -16.75        9.503E-2      -16.81        0.81856       -23.54         
81.2960       0.05676       -152.08       9.495E-2      -16.89        9.507E-2      -16.92        0.81878       -23.70         
81.8959       0.05687       -151.92       9.493E-2      -17.00        9.509E-2      -17.04        0.8191        -23.86         
82.4959       0.05703       -151.78       9.494E-2      -17.11        9.509E-2      -17.16        0.81935       -24.03         
83.0959       0.05709       -151.59       9.493E-2      -17.23        9.509E-2      -17.29        0.81954       -24.18         
83.6958       0.05719       -151.46       9.495E-2      -17.38        9.51E-2       -17.41        0.81978       -24.35         
84.2958       0.05728       -151.27       9.495E-2      -17.51        9.507E-2      -17.53        0.81993       -24.50         
84.8958       0.05737       -151.14       9.496E-2      -17.63        9.51E-2       -17.67        0.82004       -24.66         
85.4957       0.05747       -151.03       9.503E-2      -17.74        9.511E-2      -17.83        0.82038       -24.83         
86.0957       0.05754       -150.83       9.502E-2      -17.87        9.509E-2      -17.93        0.82039       -25.01         
86.6957       0.05762       -150.60       9.501E-2      -17.99        9.512E-2      -18.05        0.82063       -25.16         
87.2957       0.05774       -150.54       9.503E-2      -18.13        9.513E-2      -18.21        0.8209        -25.33         
87.8956       0.05777       -150.38       9.50E-2       -18.25        9.508E-2      -18.29        0.82103       -25.48         
88.4956       0.05792       -150.20       9.501E-2      -18.34        9.51E-2       -18.41        0.82116       -25.63         
89.0956       0.05804       -150.04       9.50E-2       -18.47        9.509E-2      -18.55        0.82141       -25.79         
89.6955       0.0581        -149.88       9.504E-2      -18.59        9.509E-2      -18.67        0.82166       -25.95         
90.2955       0.05821       -149.71       9.501E-2      -18.70        9.51E-2       -18.77        0.82198       -26.12         
90.8955       0.05829       -149.59       9.507E-2      -18.83        9.507E-2      -18.88        0.82203       -26.28         
91.4954       0.05836       -149.38       9.506E-2      -18.95        9.504E-2      -19.03        0.82229       -26.45         
92.0954       0.05847       -149.24       9.505E-2      -19.08        9.509E-2      -19.11        0.82228       -26.60         
