!    8/10/2020   01:48:35 
! Ref Plane: 0.000 mm
# MHZ S MA R  50
!
0.3000        0.82089       0.21          6.549E-5      -110.09       7.958E-5      98.20         0.99612       -0.37          
0.9000        0.81895       0.26          9.064E-5      -121.67       5.377E-5      -90.52        0.99723       -0.34          
1.4999        0.82012       0.24          5.422E-5      -179.02       5.887E-5      44.21         0.9984        -0.31          
2.0999        0.81993       0.21          7.653E-5      -102.02       5.816E-5      110.73        0.9988        -0.25          
2.6999        0.81983       0.16          5.761E-5      -76.78        5.541E-6      -92.95        0.99902       -0.21          
3.2999        0.8197        0.11          7.849E-6      -115.43       2.898E-5      -11.01        0.99895       -0.18          
3.8998        0.81962       0.07          3.546E-6      -24.62        4.021E-5      -100.68       0.99912       -0.17          
4.4998        0.8195        0.02          3.255E-5      -133.29       5.30E-5       46.57         0.99908       -0.15          
5.0998        0.81947       -0.03         1.285E-5      166.68        9.644E-6      21.91         0.99906       -0.14          
5.6997        0.81939       -0.07         3.69E-5       97.99         1.378E-5      -72.95        0.99913       -0.13          
6.2997        0.81937       -0.11         3.831E-5      137.60        1.401E-5      24.36         0.99909       -0.12          
6.8997        0.81932       -0.16         4.973E-5      -78.44        3.315E-5      -71.24        0.9992        -0.12          
7.4996        0.81927       -0.19         2.931E-5      118.37        4.519E-5      145.89        0.99918       -0.12          
8.0996        0.81935       -0.24         4.875E-5      -140.95       8.386E-6      175.60        0.99919       -0.11          
8.6996        0.81925       -0.29         3.944E-5      117.71        3.523E-5      164.76        0.99917       -0.11          
9.2996        0.81918       -0.33         9.069E-5      -32.89        4.564E-5      8.80          0.99921       -0.11          
9.8995        0.81927       -0.36         5.616E-5      -83.07        3.03E-5       76.38         0.99923       -0.11          
10.4995       0.81915       -0.42         2.648E-5      84.02         1.482E-5      -92.29        0.99932       -0.11          
11.0995       0.81907       -0.45         4.351E-5      -50.98        2.593E-5      43.23         0.99924       -0.11          
11.6994       0.81901       -0.49         1.395E-5      178.54        3.406E-5      -0.27         0.99924       -0.10          
12.2994       0.81902       -0.54         8.455E-5      -170.99       2.896E-5      82.99         0.99923       -0.10          
12.8994       0.81908       -0.58         6.023E-5      81.34         4.245E-5      62.80         0.99924       -0.10          
13.4993       0.81903       -0.62         6.264E-5      -16.32        2.169E-5      17.49         0.9993        -0.10          
14.0993       0.81902       -0.66         3.849E-5      45.23         2.989E-5      -87.32        0.99933       -0.10          
14.6993       0.81899       -0.71         1.002E-4      -137.00       8.688E-6      58.46         0.99925       -0.10          
15.2993       0.81885       -0.74         8.347E-5      110.86        4.881E-5      63.38         0.99929       -0.10          
15.8992       0.81882       -0.80         6.501E-5      49.20         2.35E-5       27.04         0.99939       -0.10          
16.4992       0.81888       -0.83         1.789E-5      -154.84       3.932E-5      -45.45        0.99934       -0.10          
17.0992       0.81873       -0.87         5.428E-5      69.86         5.968E-6      -38.77        0.99938       -0.11          
17.6991       0.81883       -0.90         3.81E-5       111.23        3.027E-5      109.21        0.99937       -0.10          
18.2991       0.81874       -0.95         3.12E-5       148.86        1.599E-5      57.42         0.99933       -0.10          
18.8991       0.81861       -1.00         2.578E-5      -118.45       3.063E-5      122.80        0.99937       -0.10          
19.4990       0.81872       -1.03         4.212E-5      -23.29        2.317E-5      -65.57        0.99944       -0.10          
20.0990       0.81873       -1.08         2.709E-5      -9.63         2.027E-5      -75.91        0.99939       -0.10          
20.6990       0.81871       -1.12         3.374E-5      -16.96        4.404E-5      101.95        0.99939       -0.11          
21.2990       0.81867       -1.16         4.202E-5      -126.62       2.668E-5      2.63          0.99944       -0.10          
21.8989       0.81857       -1.20         4.103E-5      -47.56        5.065E-5      90.28         0.99947       -0.11          
22.4989       0.8186        -1.24         7.565E-5      -126.05       2.113E-5      54.46         0.99942       -0.11          
23.0989       0.81849       -1.28         2.573E-5      97.75         4.323E-5      -17.67        0.99946       -0.11          
23.6988       0.81857       -1.32         1.981E-5      52.53         3.897E-5      20.09         0.99945       -0.11          
24.2988       0.81853       -1.37         1.045E-5      -18.44        2.148E-5      -18.11        0.99943       -0.12          
24.8988       0.81857       -1.41         3.189E-5      32.15         2.355E-5      127.49        0.99947       -0.11          
25.4987       0.81857       -1.44         4.156E-5      30.29         2.695E-6      -44.32        0.99947       -0.11          
26.0987       0.81854       -1.48         7.006E-5      158.27        3.412E-5      42.13         0.99945       -0.11          
26.6987       0.81853       -1.52         3.679E-5      -171.89       2.40E-5       44.76         0.99949       -0.12          
27.2987       0.81846       -1.56         6.46E-5       15.51         4.026E-5      74.95         0.99951       -0.12          
27.8986       0.8185        -1.60         1.985E-5      -68.13        2.377E-5      -42.03        0.99939       -0.12          
28.4986       0.81847       -1.65         1.781E-5      4.14          9.77E-6       -175.30       0.9995        -0.12          
29.0986       0.81852       -1.69         4.764E-5      58.81         4.474E-5      -23.12        0.99959       -0.12          
29.6985       0.8183        -1.72         2.551E-5      80.19         2.076E-5      -155.11       0.99952       -0.12          
30.2985       0.81837       -1.76         1.269E-5      77.03         1.52E-5       -55.24        0.99958       -0.13          
30.8985       0.81838       -1.80         5.798E-5      -51.63        3.377E-5      -165.13       0.99952       -0.13          
31.4984       0.81833       -1.83         6.092E-5      72.14         4.656E-5      -163.33       0.9995        -0.13          
32.0984       0.81839       -1.88         4.505E-5      -102.44       1.666E-5      46.22         0.99953       -0.13          
32.6984       0.81832       -1.92         2.186E-5      -113.40       2.984E-5      28.98         0.9995        -0.13          
33.2984       0.81848       -1.96         2.878E-5      -115.06       2.866E-5      152.79        0.99951       -0.13          
33.8983       0.81839       -1.99         5.177E-5      -54.35        3.088E-5      -45.91        0.9995        -0.14          
34.4983       0.81821       -2.03         1.086E-5      9.52          2.54E-5       17.50         0.99953       -0.13          
35.0983       0.81832       -2.07         3.264E-5      -109.61       3.948E-5      -74.52        0.99953       -0.14          
35.6982       0.81827       -2.11         4.401E-5      -77.41        2.616E-5      79.96         0.99953       -0.14          
36.2982       0.81827       -2.13         3.029E-5      -79.89        1.707E-5      -140.66       0.99958       -0.14          
36.8982       0.81828       -2.18         5.549E-5      -137.76       3.153E-5      3.68          0.99951       -0.14          
37.4981       0.81833       -2.21         2.433E-5      -172.84       2.977E-5      85.83         0.99943       -0.14          
38.0981       0.81825       -2.25         2.776E-5      107.82        2.585E-5      100.74        0.99952       -0.14          
38.6981       0.81823       -2.28         3.672E-5      36.37         1.71E-5       69.14         0.99949       -0.14          
39.2981       0.81823       -2.33         4.429E-5      138.32        9.997E-6      -77.99        0.99945       -0.15          
39.8980       0.81834       -2.35         4.035E-5      -72.50        3.776E-5      -51.71        0.99953       -0.15          
40.4980       0.81821       -2.40         2.936E-5      -91.79        2.81E-5       52.24         0.99955       -0.15          
41.0980       0.81828       -2.45         6.128E-5      -62.31        1.323E-5      15.89         0.99952       -0.15          
41.6979       0.81815       -2.47         4.894E-5      74.21         2.809E-5      6.43          0.99962       -0.16          
42.2979       0.81824       -2.52         5.50E-5       55.01         6.395E-6      36.99         0.99956       -0.16          
42.8979       0.81818       -2.55         4.743E-5      179.11        4.499E-5      167.23        0.99964       -0.16          
43.4978       0.81813       -2.59         4.018E-5      121.11        2.893E-6      130.86        0.99958       -0.16          
44.0978       0.81815       -2.63         3.004E-5      -120.89       1.184E-5      16.19         0.99957       -0.16          
44.6978       0.81805       -2.65         2.733E-5      166.32        4.591E-5      27.30         0.99961       -0.16          
45.2978       0.81821       -2.70         5.62E-5       -4.84         1.134E-5      144.12        0.99961       -0.16          
45.8977       0.81818       -2.74         2.031E-5      132.93        2.825E-5      -64.05        0.99956       -0.16          
46.4977       0.81806       -2.77         4.519E-5      140.27        5.611E-6      48.32         0.99955       -0.17          
47.0977       0.81812       -2.79         6.09E-5       62.04         2.985E-5      -1.56         0.99964       -0.17          
47.6976       0.81796       -2.83         2.999E-5      56.02         4.68E-5       139.62        0.99969       -0.17          
48.2976       0.81803       -2.87         3.731E-5      2.36          2.236E-5      161.29        0.99969       -0.17          
48.8976       0.81791       -2.91         3.421E-5      108.86        2.998E-5      -176.68       0.99965       -0.18          
49.4975       0.81792       -2.94         2.092E-5      -49.33        4.349E-5      51.72         0.99965       -0.18          
50.0975       0.81795       -2.99         2.772E-5      32.74         3.193E-5      -119.20       0.99964       -0.17          
50.6975       0.81797       -3.02         1.775E-5      -172.53       2.141E-5      -122.43       0.99964       -0.18          
51.2975       0.81791       -3.05         2.921E-5      21.87         1.15E-5       -3.23         0.99962       -0.18          
51.8974       0.81805       -3.09         6.487E-5      34.00         2.12E-5       160.81        0.9996        -0.18          
52.4974       0.82027       -3.12         3.638E-5      44.88         3.594E-5      46.92         0.99965       -0.19          
53.0974       0.81783       -3.17         1.173E-5      164.89        3.15E-5       177.78        0.99969       -0.19          
53.6973       0.81793       -3.19         5.417E-5      65.34         1.035E-5      119.99        0.99968       -0.19          
54.2973       0.81787       -3.22         3.177E-5      179.97        1.715E-5      -72.89        0.99965       -0.19          
54.8973       0.81787       -3.27         4.105E-5      -177.93       1.918E-5      -1.73         0.99967       -0.19          
55.4972       0.81787       -3.30         1.503E-5      149.89        1.026E-5      -75.20        0.99967       -0.19          
56.0972       0.81799       -3.33         6.605E-5      48.90         4.393E-5      73.01         0.99966       -0.20          
56.6972       0.81793       -3.38         6.49E-5       -28.96        1.273E-5      159.57        0.99969       -0.20          
57.2972       0.81788       -3.42         1.698E-5      -121.92       4.326E-6      -15.36        0.99969       -0.20          
57.8971       0.8179        -3.45         3.991E-5      5.33          2.013E-5      7.11          0.99968       -0.20          
58.4971       0.81772       -3.48         3.788E-5      -61.29        1.937E-5      67.75         0.99969       -0.20          
59.0971       0.8178        -3.54         3.092E-5      -25.73        2.259E-5      45.97         0.99968       -0.21          
59.6970       0.81779       -3.56         9.532E-6      103.53        1.87E-5       -10.76        0.99967       -0.21          
60.2970       0.81773       -3.60         3.014E-5      117.90        1.473E-5      -143.36       0.9997        -0.21          
60.8970       0.81763       -3.63         4.68E-5       -115.16       2.566E-5      33.06         0.99972       -0.21          
61.4969       0.81764       -3.66         2.621E-5      -159.18       2.109E-5      110.25        0.99968       -0.21          
62.0969       0.8177        -3.70         1.016E-5      179.13        3.18E-5       130.20        0.99971       -0.21          
62.6969       0.81766       -3.74         3.15E-5       -73.05        3.233E-5      -21.57        0.99967       -0.21          
63.2969       0.81763       -3.78         1.304E-5      114.57        1.292E-5      106.04        0.9997        -0.22          
63.8968       0.81743       -3.81         6.859E-5      137.74        2.137E-5      -50.55        0.9997        -0.22          
64.4968       0.81751       -3.85         1.945E-5      -34.07        2.602E-5      153.65        0.99965       -0.22          
65.0968       0.81739       -3.88         3.386E-5      169.43        3.195E-5      86.63         0.9997        -0.22          
65.6967       0.81738       -3.92         5.578E-5      -72.74        2.577E-5      -14.74        0.99971       -0.22          
66.2967       0.81737       -3.96         6.366E-5      -59.40        1.009E-5      176.38        0.99969       -0.23          
66.8967       0.81747       -3.98         1.654E-5      136.44        2.672E-5      -36.06        0.99969       -0.23          
67.4966       0.81758       -4.02         3.665E-5      83.30         1.415E-5      127.58        0.99965       -0.23          
68.0966       0.81756       -4.05         2.997E-5      -21.86        2.238E-5      55.71         0.99967       -0.23          
68.6966       0.81746       -4.11         3.655E-5      -19.64        1.592E-5      -85.03        0.99967       -0.23          
69.2966       0.81743       -4.13         3.62E-6       -77.81        3.679E-5      165.63        0.99971       -0.23          
69.8965       0.81742       -4.17         2.782E-5      -126.69       3.513E-5      68.86         0.9997        -0.24          
70.4965       0.81733       -4.21         3.971E-5      13.48         1.421E-5      -121.24       0.99971       -0.24          
71.0965       0.8173        -4.25         2.769E-5      -164.55       2.769E-5      88.32         0.99968       -0.24          
71.6964       0.81733       -4.29         2.734E-5      85.79         5.839E-6      24.21         0.99969       -0.24          
72.2964       0.81723       -4.32         4.72E-5       115.59        3.687E-6      51.12         0.99972       -0.24          
72.8964       0.81718       -4.36         2.121E-5      -147.81       1.629E-5      137.98        0.99976       -0.24          
73.4963       0.81722       -4.40         3.564E-5      -54.08        2.555E-5      11.64         0.99969       -0.24          
74.0963       0.81721       -4.44         7.776E-5      -112.51       4.397E-5      41.55         0.99971       -0.24          
74.6963       0.81725       -4.49         2.242E-5      164.81        1.984E-5      -117.62       0.99972       -0.24          
75.2963       0.81718       -4.52         3.031E-5      127.39        2.143E-5      -97.97        0.9997        -0.25          
75.8962       0.8171        -4.56         2.438E-5      -168.13       4.323E-5      171.47        0.99975       -0.24          
76.4962       0.81702       -4.59         2.702E-5      -46.88        2.117E-5      122.29        0.99966       -0.24          
77.0962       0.81709       -4.63         1.324E-5      152.40        2.323E-5      126.54        0.99971       -0.24          
77.6961       0.81698       -4.67         3.092E-5      155.08        6.964E-6      100.27        0.99971       -0.24          
78.2961       0.81703       -4.70         5.526E-5      -38.12        1.465E-5      145.45        0.99974       -0.25          
78.8961       0.81684       -4.74         5.226E-5      53.94         2.804E-5      -124.89       0.99966       -0.25          
79.4960       0.81683       -4.78         7.664E-5      -142.79       2.046E-5      103.97        0.99969       -0.25          
80.0960       0.81683       -4.81         9.049E-6      73.68         1.105E-5      164.85        0.99969       -0.25          
80.6960       0.81691       -4.85         4.378E-5      -166.95       2.053E-5      -128.63       0.99968       -0.25          
81.2960       0.81677       -4.90         4.441E-6      -28.13        2.633E-5      127.07        0.9997        -0.25          
81.8959       0.81672       -4.93         2.813E-5      9.49          1.954E-5      171.29        0.99971       -0.25          
82.4959       0.8168        -4.96         2.908E-5      -73.11        3.928E-5      116.69        0.99971       -0.25          
83.0959       0.81674       -5.01         9.709E-6      8.67          3.299E-5      -178.77       0.99968       -0.25          
83.6958       0.81659       -5.03         4.573E-5      122.73        8.766E-6      -122.42       0.99967       -0.25          
84.2958       0.81663       -5.08         4.534E-5      -163.99       9.114E-6      -97.73        0.99967       -0.25          
84.8958       0.81662       -5.12         2.38E-5       17.95         4.776E-6      -94.88        0.99969       -0.26          
85.4957       0.81648       -5.15         3.20E-5       164.80        2.206E-5      75.63         0.99968       -0.26          
86.0957       0.81667       -5.19         3.684E-5      -97.97        1.487E-5      -125.60       0.99963       -0.26          
86.6957       0.81653       -5.23         1.561E-5      -55.45        4.122E-5      -105.29       0.99959       -0.26          
87.2957       0.81648       -5.26         4.306E-5      112.75        2.826E-5      107.78        0.99972       -0.26          
87.8956       0.81649       -5.31         3.992E-5      -51.20        1.923E-5      -111.68       0.99963       -0.27          
88.4956       0.81651       -5.35         2.647E-5      76.05         3.092E-5      -161.65       0.9997        -0.26          
89.0956       0.81644       -5.37         8.068E-5      122.68        3.54E-5       -61.16        0.99963       -0.27          
89.6955       0.81636       -5.43         3.681E-5      101.75        3.005E-5      61.30         0.99964       -0.27          
90.2955       0.81643       -5.46         3.386E-5      -88.40        1.273E-5      91.74         0.99964       -0.27          
90.8955       0.81624       -5.50         6.084E-5      -109.03       1.306E-5      177.15        0.99963       -0.27          
91.4954       0.81621       -5.54         4.08E-5       -119.01       2.912E-5      -95.78        0.99968       -0.27          
92.0954       0.81629       -5.58         2.448E-5      170.92        2.033E-5      -135.28       0.99965       -0.27          
