!    8/6/2020   01:51:14 
! Ref Plane: 0.000 mm
# MHZ S MA R  50
!
0.3000        0.04771       178.59        9.887E-2      -1.05         9.662E-2      -0.87         0.81578       -0.37          
0.9000        0.04776       178.93        9.494E-2      -0.53         9.538E-2      -0.33         0.80994       -0.50          
1.4999        0.04779       179.09        9.515E-2      -0.36         9.538E-2      -0.43         0.80932       -0.65          
2.0999        0.04776       179.31        9.517E-2      -0.55         9.536E-2      -0.54         0.8094        -0.84          
2.6999        0.04781       179.49        9.52E-2       -0.68         9.535E-2      -0.67         0.80932       -1.00          
3.2999        0.04779       179.74        9.523E-2      -0.79         9.537E-2      -0.85         0.80953       -1.19          
3.8998        0.04786       179.95        9.518E-2      -0.93         9.537E-2      -1.00         0.80943       -1.37          
4.4998        0.04782       -179.90       9.521E-2      -1.08         9.538E-2      -1.12         0.80954       -1.53          
5.0998        0.04792       -179.62       9.519E-2      -1.20         9.535E-2      -1.24         0.80953       -1.71          
5.6997        0.04787       -179.36       9.52E-2       -1.35         9.539E-2      -1.41         0.80974       -1.89          
6.2997        0.04791       -179.25       9.517E-2      -1.49         9.536E-2      -1.54         0.80943       -2.08          
6.8997        0.04798       -179.02       9.518E-2      -1.67         9.534E-2      -1.68         0.80965       -2.26          
7.4996        0.04802       -178.78       9.518E-2      -1.77         9.536E-2      -1.80         0.80967       -2.45          
8.0996        0.04803       -178.59       9.518E-2      -1.92         9.538E-2      -1.96         0.80945       -2.64          
8.6996        0.04807       -178.37       9.518E-2      -2.05         9.54E-2       -2.09         0.80966       -2.80          
9.2996        0.04808       -178.15       9.527E-2      -2.20         9.54E-2       -2.25         0.80986       -2.98          
9.8995        0.04809       -177.93       9.522E-2      -2.37         9.541E-2      -2.37         0.80952       -3.15          
10.4995       0.04814       -177.75       9.517E-2      -2.49         9.542E-2      -2.53         0.80989       -3.32          
11.0995       0.04818       -177.53       9.521E-2      -2.63         9.54E-2       -2.64         0.80997       -3.50          
11.6994       0.04821       -177.33       9.522E-2      -2.75         9.539E-2      -2.78         0.81          -3.69          
12.2994       0.0482        -177.08       9.519E-2      -2.90         9.537E-2      -2.92         0.80991       -3.86          
12.8994       0.04825       -176.90       9.522E-2      -2.98         9.54E-2       -3.07         0.80995       -4.03          
13.4993       0.04825       -176.69       9.532E-2      -3.20         9.539E-2      -3.24         0.81004       -4.22          
14.0993       0.04832       -176.55       9.523E-2      -3.29         9.539E-2      -3.39         0.81012       -4.38          
14.6993       0.04834       -176.27       9.521E-2      -3.48         9.543E-2      -3.51         0.81003       -4.55          
15.2993       0.04835       -176.11       9.523E-2      -3.56         9.539E-2      -3.65         0.81023       -4.74          
15.8992       0.04835       -175.90       9.524E-2      -3.70         9.538E-2      -3.81         0.81026       -4.89          
16.4992       0.04842       -175.76       9.523E-2      -3.86         9.538E-2      -3.95         0.81015       -5.07          
17.0992       0.04846       -175.52       9.526E-2      -3.98         9.54E-2       -4.07         0.81037       -5.25          
17.6991       0.04853       -175.33       9.525E-2      -4.14         9.542E-2      -4.23         0.81023       -5.44          
18.2991       0.04855       -175.17       9.521E-2      -4.27         9.542E-2      -4.35         0.81029       -5.59          
18.8991       0.04858       -174.96       9.528E-2      -4.43         9.542E-2      -4.49         0.81062       -5.75          
19.4990       0.04859       -174.74       9.533E-2      -4.58         9.543E-2      -4.64         0.8106        -5.93          
20.0990       0.04862       -174.52       9.528E-2      -4.71         9.544E-2      -4.78         0.81052       -6.12          
20.6990       0.04868       -174.36       9.531E-2      -4.88         9.548E-2      -4.93         0.81058       -6.28          
21.2990       0.04865       -174.12       9.527E-2      -5.01         9.544E-2      -5.05         0.81043       -6.45          
21.8989       0.04872       -173.95       9.53E-2       -5.15         9.545E-2      -5.19         0.81054       -6.63          
22.4989       0.04875       -173.76       9.528E-2      -5.31         9.553E-2      -5.32         0.8106        -6.79          
23.0989       0.04881       -173.64       9.527E-2      -5.42         9.552E-2      -5.48         0.81081       -6.97          
23.6988       0.04879       -173.35       9.533E-2      -5.55         9.552E-2      -5.63         0.81046       -7.14          
24.2988       0.04882       -173.23       9.531E-2      -5.68         9.547E-2      -5.77         0.81045       -7.31          
24.8988       0.04893       -173.01       9.528E-2      -5.85         9.55E-2       -5.92         0.81037       -7.48          
25.4987       0.04896       -172.86       9.534E-2      -5.94         9.546E-2      -6.05         0.81041       -7.65          
26.0987       0.049         -172.63       9.524E-2      -6.10         9.552E-2      -6.17         0.81031       -7.82          
26.6987       0.04905       -172.46       9.527E-2      -6.24         9.549E-2      -6.32         0.81012       -7.98          
27.2987       0.04904       -172.24       9.537E-2      -6.38         9.55E-2       -6.45         0.81          -8.16          
27.8986       0.04909       -172.10       9.534E-2      -6.54         9.55E-2       -6.60         0.80977       -8.31          
28.4986       0.04914       -171.88       9.537E-2      -6.68         9.55E-2       -6.76         0.80975       -8.50          
29.0986       0.04916       -171.81       9.535E-2      -6.79         9.551E-2      -6.90         0.80952       -8.65          
29.6985       0.04924       -171.58       9.534E-2      -6.92         9.547E-2      -7.01         0.8094        -8.84          
30.2985       0.04921       -171.40       9.533E-2      -7.09         9.549E-2      -7.18         0.80915       -9.01          
30.8985       0.04929       -171.17       9.535E-2      -7.23         9.545E-2      -7.30         0.80919       -9.18          
31.4984       0.04931       -171.03       9.531E-2      -7.34         9.542E-2      -7.43         0.80907       -9.34          
32.0984       0.04939       -170.93       9.535E-2      -7.50         9.551E-2      -7.58         0.80908       -9.51          
32.6984       0.0494        -170.70       9.535E-2      -7.64         9.551E-2      -7.71         0.809         -9.68          
33.2984       0.04943       -170.59       9.537E-2      -7.78         9.549E-2      -7.85         0.8089        -9.83          
33.8983       0.04946       -170.41       9.54E-2       -7.91         9.549E-2      -7.97         0.80908       -9.98          
34.4983       0.04952       -170.20       9.54E-2       -8.05         9.554E-2      -8.10         0.80921       -10.13         
35.0983       0.04951       -170.08       9.544E-2      -8.19         9.552E-2      -8.28         0.80924       -10.31         
35.6982       0.04956       -169.90       9.542E-2      -8.31         9.551E-2      -8.42         0.80941       -10.47         
36.2982       0.04962       -169.74       9.546E-2      -8.47         9.552E-2      -8.58         0.8094        -10.66         
36.8982       0.04963       -169.56       9.54E-2       -8.61         9.554E-2      -8.71         0.80929       -10.83         
37.4981       0.04971       -169.43       9.545E-2      -8.74         9.557E-2      -8.83         0.80924       -11.00         
38.0981       0.04972       -169.27       9.545E-2      -8.85         9.556E-2      -8.99         0.80924       -11.19         
38.6981       0.04975       -169.07       9.548E-2      -8.98         9.553E-2      -9.12         0.80925       -11.36         
39.2981       0.0498        -168.93       9.545E-2      -9.14         9.549E-2      -9.28         0.80924       -11.53         
39.8980       0.04984       -168.81       9.545E-2      -9.31         9.555E-2      -9.44         0.80906       -11.71         
40.4980       0.04984       -168.60       9.548E-2      -9.45         9.556E-2      -9.54         0.80908       -11.87         
41.0980       0.04992       -168.42       9.551E-2      -9.58         9.559E-2      -9.71         0.80885       -12.05         
41.6979       0.04994       -168.33       9.548E-2      -9.73         9.559E-2      -9.83         0.80907       -12.23         
42.2979       0.05002       -168.18       9.548E-2      -9.86         9.561E-2      -9.99         0.80895       -12.42         
42.8979       0.05004       -168.05       9.546E-2      -10.02        9.558E-2      -10.10        0.80909       -12.60         
43.4978       0.05003       -167.89       9.547E-2      -10.15        9.56E-2       -10.26        0.80912       -12.79         
44.0978       0.05011       -167.75       9.548E-2      -10.31        9.557E-2      -10.40        0.80903       -12.98         
44.6978       0.05016       -167.68       9.548E-2      -10.45        9.559E-2      -10.57        0.80923       -13.17         
45.2978       0.05021       -167.50       9.551E-2      -10.60        9.558E-2      -10.67        0.80911       -13.35         
45.8977       0.05029       -167.30       9.549E-2      -10.74        9.56E-2       -10.83        0.80925       -13.52         
46.4977       0.05027       -167.23       9.546E-2      -10.89        9.56E-2       -10.96        0.80927       -13.71         
47.0977       0.05029       -167.03       9.552E-2      -11.04        9.566E-2      -11.12        0.81021       -13.88         
47.6976       0.05035       -166.87       9.551E-2      -11.18        9.559E-2      -11.27        0.81025       -14.06         
48.2976       0.05041       -166.80       9.557E-2      -11.33        9.559E-2      -11.39        0.81029       -14.22         
48.8976       0.05048       -166.63       9.55E-2       -11.49        9.561E-2      -11.55        0.81044       -14.41         
49.4975       0.05052       -166.45       9.55E-2       -11.64        9.568E-2      -11.69        0.8104        -14.58         
50.0975       0.05052       -166.34       9.549E-2      -11.76        9.561E-2      -11.82        0.81045       -14.74         
50.6975       0.05058       -166.18       9.548E-2      -11.92        9.563E-2      -12.00        0.81058       -14.93         
51.2975       0.05062       -166.07       9.549E-2      -12.04        9.564E-2      -12.18        0.81069       -15.12         
51.8974       0.0507        -165.95       9.546E-2      -12.20        9.569E-2      -12.30        0.81056       -15.28         
52.4974       0.05146       -166.02       9.545E-2      -12.30        9.639E-2      -12.62        0.8086        -15.46         
53.0974       0.05074       -165.59       9.563E-2      -12.50        9.545E-2      -12.54        0.80814       -15.56         
53.6973       0.05078       -165.48       9.547E-2      -12.63        9.564E-2      -12.70        0.81117       -15.82         
54.2973       0.05085       -165.39       9.548E-2      -12.76        9.566E-2      -12.87        0.81116       -16.00         
54.8973       0.05087       -165.22       9.545E-2      -12.93        9.563E-2      -12.99        0.81118       -16.16         
55.4972       0.05093       -165.11       9.547E-2      -13.02        9.566E-2      -13.12        0.81132       -16.32         
56.0972       0.05096       -164.95       9.548E-2      -13.18        9.562E-2      -13.25        0.81122       -16.50         
56.6972       0.05102       -164.77       9.547E-2      -13.30        9.563E-2      -13.38        0.81117       -16.66         
57.2972       0.05112       -164.60       9.548E-2      -13.45        9.563E-2      -13.51        0.81118       -16.83         
57.8971       0.0511        -164.46       9.548E-2      -13.59        9.562E-2      -13.67        0.81126       -17.00         
58.4971       0.05116       -164.35       9.554E-2      -13.71        9.566E-2      -13.83        0.81141       -17.18         
59.0971       0.0512        -164.21       9.553E-2      -13.84        9.566E-2      -13.93        0.81138       -17.34         
59.6970       0.05127       -164.03       9.556E-2      -13.98        9.57E-2       -14.08        0.81154       -17.52         
60.2970       0.05127       -163.89       9.553E-2      -14.12        9.569E-2      -14.22        0.81151       -17.68         
60.8970       0.05137       -163.72       9.561E-2      -14.27        9.576E-2      -14.40        0.81159       -17.85         
61.4969       0.0514        -163.64       9.557E-2      -14.41        9.575E-2      -14.54        0.81146       -18.02         
62.0969       0.0515        -163.47       9.563E-2      -14.55        9.577E-2      -14.65        0.81133       -18.19         
62.6969       0.05152       -163.38       9.569E-2      -14.69        9.577E-2      -14.80        0.81127       -18.36         
63.2969       0.05161       -163.20       9.57E-2       -14.83        9.583E-2      -14.96        0.81132       -18.54         
63.8968       0.05168       -163.13       9.57E-2       -14.96        9.584E-2      -15.10        0.81125       -18.69         
64.4968       0.05174       -162.94       9.574E-2      -15.14        9.588E-2      -15.25        0.81132       -18.87         
65.0968       0.05181       -162.83       9.573E-2      -15.27        9.592E-2      -15.39        0.81129       -19.03         
65.6967       0.05189       -162.70       9.576E-2      -15.42        9.593E-2      -15.54        0.8113        -19.19         
66.2967       0.0519        -162.60       9.58E-2       -15.57        9.593E-2      -15.70        0.81129       -19.36         
66.8967       0.05195       -162.49       9.579E-2      -15.73        9.596E-2      -15.84        0.81118       -19.54         
67.4966       0.052         -162.34       9.579E-2      -15.88        9.598E-2      -15.99        0.81116       -19.72         
68.0966       0.05203       -162.23       9.583E-2      -16.02        9.602E-2      -16.15        0.81119       -19.88         
68.6966       0.05216       -162.08       9.587E-2      -16.17        9.603E-2      -16.28        0.81126       -20.03         
69.2966       0.05225       -161.97       9.584E-2      -16.35        9.604E-2      -16.46        0.81118       -20.22         
69.8965       0.05227       -161.87       9.588E-2      -16.54        9.606E-2      -16.61        0.81126       -20.39         
70.4965       0.05233       -161.78       9.592E-2      -16.66        9.604E-2      -16.77        0.81143       -20.56         
71.0965       0.05235       -161.68       9.586E-2      -16.82        9.607E-2      -16.92        0.81151       -20.72         
71.6964       0.05245       -161.52       9.587E-2      -16.97        9.606E-2      -17.08        0.81147       -20.88         
72.2964       0.05249       -161.46       9.593E-2      -17.15        9.603E-2      -17.24        0.81146       -21.05         
72.8964       0.05258       -161.37       9.592E-2      -17.31        9.605E-2      -17.39        0.81155       -21.23         
73.4963       0.05267       -161.18       9.592E-2      -17.49        9.607E-2      -17.54        0.81157       -21.39         
74.0963       0.05269       -161.14       9.596E-2      -17.60        9.611E-2      -17.71        0.81168       -21.57         
74.6963       0.05272       -161.08       9.593E-2      -17.79        9.613E-2      -17.86        0.81155       -21.72         
75.2963       0.05283       -160.92       9.595E-2      -17.95        9.613E-2      -18.02        0.81168       -21.90         
75.8962       0.05289       -160.85       9.597E-2      -18.11        9.616E-2      -18.20        0.81176       -22.06         
76.4962       0.053         -160.67       9.599E-2      -18.27        9.617E-2      -18.37        0.81201       -22.23         
77.0962       0.05304       -160.62       9.598E-2      -18.43        9.617E-2      -18.50        0.81209       -22.39         
77.6961       0.05306       -160.56       9.599E-2      -18.60        9.621E-2      -18.70        0.8124        -22.56         
78.2961       0.05318       -160.42       9.602E-2      -18.74        9.618E-2      -18.83        0.81241       -22.73         
78.8961       0.05319       -160.36       9.599E-2      -18.94        9.619E-2      -19.00        0.81262       -22.88         
79.4960       0.05328       -160.22       9.601E-2      -19.11        9.621E-2      -19.17        0.81288       -23.04         
80.0960       0.05329       -160.16       9.60E-2       -19.28        9.62E-2       -19.34        0.81301       -23.21         
80.6960       0.05336       -160.09       9.601E-2      -19.44        9.617E-2      -19.51        0.81319       -23.37         
81.2960       0.05341       -160.03       9.602E-2      -19.64        9.622E-2      -19.70        0.81341       -23.53         
81.8959       0.05346       -159.94       9.60E-2       -19.80        9.62E-2       -19.86        0.81367       -23.69         
82.4959       0.05354       -159.84       9.599E-2      -19.98        9.619E-2      -20.05        0.81398       -23.87         
83.0959       0.05359       -159.76       9.597E-2      -20.17        9.614E-2      -20.22        0.81421       -24.01         
83.6958       0.05362       -159.67       9.594E-2      -20.35        9.611E-2      -20.43        0.81452       -24.18         
84.2958       0.05365       -159.57       9.591E-2      -20.56        9.605E-2      -20.60        0.81476       -24.34         
84.8958       0.05368       -159.52       9.584E-2      -20.73        9.598E-2      -20.82        0.81495       -24.51         
85.4957       0.05373       -159.50       9.584E-2      -20.93        9.593E-2      -21.03        0.81541       -24.68         
86.0957       0.05371       -159.39       9.571E-2      -21.13        9.585E-2      -21.22        0.81553       -24.86         
86.6957       0.05369       -159.26       9.558E-2      -21.34        9.572E-2      -21.41        0.81597       -25.02         
87.2957       0.05368       -159.24       9.544E-2      -21.52        9.555E-2      -21.61        0.8164        -25.21         
87.8956       0.05359       -159.16       9.525E-2      -21.68        9.538E-2      -21.75        0.81678       -25.37         
88.4956       0.05363       -159.01       9.507E-2      -21.81        9.517E-2      -21.92        0.81706       -25.55         
89.0956       0.05354       -158.86       9.485E-2      -21.93        9.494E-2      -22.02        0.81747       -25.73         
89.6955       0.05347       -158.64       9.469E-2      -22.01        9.475E-2      -22.09        0.8178        -25.92         
90.2955       0.05343       -158.43       9.444E-2      -22.03        9.456E-2      -22.12        0.81805       -26.13         
90.8955       0.05339       -158.21       9.434E-2      -22.05        9.439E-2      -22.14        0.81805       -26.33         
91.4954       0.0534        -157.89       9.429E-2      -22.05        9.43E-2       -22.12        0.81798       -26.54         
92.0954       0.05347       -157.58       9.426E-2      -22.04        9.435E-2      -22.10        0.8176        -26.72         
