!    8/6/2020   01:50:24 
! Ref Plane: 0.000 mm
# MHZ S MA R  50
!
0.3000        0.0475        178.64        9.888E-2      -0.99         9.65E-2       -0.85         0.8155        -0.35          
0.9000        0.04771       178.99        9.496E-2      -0.46         9.539E-2      -0.25         0.81003       -0.47          
1.4999        0.04777       179.17        9.519E-2      -0.28         9.538E-2      -0.33         0.80931       -0.63          
2.0999        0.04773       179.41        9.516E-2      -0.44         9.531E-2      -0.42         0.80938       -0.83          
2.6999        0.04777       179.62        9.521E-2      -0.56         9.536E-2      -0.55         0.80926       -1.00          
3.2999        0.04776       179.91        9.524E-2      -0.66         9.535E-2      -0.71         0.80951       -1.18          
3.8998        0.04784       -179.89       9.518E-2      -0.78         9.537E-2      -0.83         0.80945       -1.38          
4.4998        0.04782       -179.70       9.517E-2      -0.91         9.537E-2      -0.93         0.80954       -1.54          
5.0998        0.04791       -179.41       9.518E-2      -1.02         9.535E-2      -1.03         0.80949       -1.72          
5.6997        0.0479        -179.13       9.517E-2      -1.14         9.539E-2      -1.20         0.80968       -1.91          
6.2997        0.04791       -178.98       9.517E-2      -1.27         9.535E-2      -1.29         0.80945       -2.10          
6.8997        0.04799       -178.73       9.519E-2      -1.42         9.533E-2      -1.41         0.80968       -2.28          
7.4996        0.04799       -178.44       9.516E-2      -1.50         9.537E-2      -1.53         0.80972       -2.48          
8.0996        0.04802       -178.25       9.515E-2      -1.64         9.536E-2      -1.67         0.80941       -2.67          
8.6996        0.04805       -178.02       9.516E-2      -1.76         9.537E-2      -1.75         0.8096        -2.84          
9.2996        0.04806       -177.80       9.524E-2      -1.89         9.538E-2      -1.93         0.80981       -3.03          
9.8995        0.04808       -177.52       9.518E-2      -2.04         9.537E-2      -2.04         0.80945       -3.20          
10.4995       0.04813       -177.32       9.517E-2      -2.15         9.54E-2       -2.16         0.80985       -3.38          
11.0995       0.04819       -177.07       9.519E-2      -2.26         9.54E-2       -2.27         0.80991       -3.56          
11.6994       0.04818       -176.85       9.517E-2      -2.37         9.535E-2      -2.37         0.80997       -3.75          
12.2994       0.04822       -176.61       9.515E-2      -2.51         9.535E-2      -2.51         0.8099        -3.93          
12.8994       0.04824       -176.38       9.519E-2      -2.56         9.538E-2      -2.64         0.80989       -4.10          
13.4993       0.04824       -176.16       9.526E-2      -2.75         9.533E-2      -2.77         0.81          -4.30          
14.0993       0.04831       -176.00       9.52E-2       -2.84         9.534E-2      -2.91         0.81007       -4.46          
14.6993       0.04832       -175.72       9.516E-2      -3.01         9.539E-2      -3.02         0.80994       -4.64          
15.2993       0.04834       -175.52       9.516E-2      -3.07         9.535E-2      -3.14         0.81013       -4.82          
15.8992       0.04837       -175.32       9.519E-2      -3.19         9.533E-2      -3.28         0.81019       -4.98          
16.4992       0.04841       -175.12       9.517E-2      -3.33         9.538E-2      -3.41         0.81005       -5.18          
17.0992       0.04844       -174.87       9.522E-2      -3.42         9.535E-2      -3.51         0.81022       -5.35          
17.6991       0.04855       -174.65       9.519E-2      -3.55         9.534E-2      -3.65         0.81016       -5.55          
18.2991       0.04851       -174.45       9.518E-2      -3.68         9.536E-2      -3.74         0.81019       -5.70          
18.8991       0.04856       -174.24       9.52E-2       -3.82         9.535E-2      -3.87         0.81046       -5.87          
19.4990       0.0486        -174.00       9.524E-2      -3.95         9.533E-2      -4.00         0.81046       -6.05          
20.0990       0.04863       -173.74       9.519E-2      -4.07         9.536E-2      -4.13         0.81035       -6.24          
20.6990       0.04866       -173.57       9.523E-2      -4.20         9.538E-2      -4.24         0.81041       -6.41          
21.2990       0.04864       -173.32       9.517E-2      -4.32         9.536E-2      -4.34         0.81029       -6.57          
21.8989       0.04869       -173.16       9.521E-2      -4.44         9.535E-2      -4.47         0.81041       -6.77          
22.4989       0.04873       -172.93       9.518E-2      -4.58         9.542E-2      -4.60         0.81046       -6.93          
23.0989       0.04879       -172.75       9.517E-2      -4.67         9.541E-2      -4.73         0.81063       -7.12          
23.6988       0.04877       -172.46       9.521E-2      -4.78         9.54E-2       -4.85         0.81026       -7.29          
24.2988       0.04882       -172.26       9.518E-2      -4.89         9.535E-2      -4.96         0.81027       -7.46          
24.8988       0.0489        -172.08       9.518E-2      -5.03         9.537E-2      -5.11         0.81015       -7.64          
25.4987       0.04893       -171.85       9.521E-2      -5.13         9.535E-2      -5.23         0.81016       -7.81          
26.0987       0.04898       -171.63       9.513E-2      -5.27         9.536E-2      -5.32         0.81004       -7.99          
26.6987       0.04904       -171.44       9.514E-2      -5.37         9.532E-2      -5.43         0.80985       -8.15          
27.2987       0.04901       -171.21       9.522E-2      -5.49         9.534E-2      -5.57         0.80967       -8.34          
27.8986       0.04906       -171.04       9.52E-2       -5.64         9.533E-2      -5.68         0.80949       -8.49          
28.4986       0.0491        -170.77       9.521E-2      -5.75         9.532E-2      -5.83         0.80944       -8.69          
29.0986       0.04913       -170.71       9.521E-2      -5.83         9.534E-2      -5.95         0.80921       -8.84          
29.6985       0.04923       -170.49       9.519E-2      -5.97         9.531E-2      -6.02         0.80904       -9.03          
30.2985       0.0492        -170.25       9.516E-2      -6.11         9.531E-2      -6.19         0.80879       -9.20          
30.8985       0.04924       -170.00       9.519E-2      -6.23         9.527E-2      -6.29         0.80884       -9.38          
31.4984       0.0493        -169.85       9.514E-2      -6.34         9.525E-2      -6.40         0.8087        -9.54          
32.0984       0.04934       -169.72       9.515E-2      -6.48         9.531E-2      -6.52         0.80873       -9.72          
32.6984       0.04936       -169.44       9.515E-2      -6.58         9.53E-2       -6.63         0.8086        -9.89          
33.2984       0.04942       -169.30       9.515E-2      -6.69         9.528E-2      -6.76         0.80852       -10.05         
33.8983       0.04942       -169.12       9.522E-2      -6.82         9.527E-2      -6.87         0.80862       -10.20         
34.4983       0.04948       -168.89       9.517E-2      -6.90         9.53E-2       -6.98         0.80876       -10.36         
35.0983       0.04949       -168.73       9.52E-2       -7.03         9.529E-2      -7.13         0.80879       -10.55         
35.6982       0.04951       -168.53       9.521E-2      -7.14         9.53E-2       -7.21         0.80889       -10.71         
36.2982       0.0496        -168.37       9.52E-2       -7.28         9.525E-2      -7.37         0.80888       -10.90         
36.8982       0.04961       -168.13       9.518E-2      -7.40         9.526E-2      -7.48         0.80877       -11.07         
37.4981       0.04964       -168.00       9.52E-2       -7.50         9.528E-2      -7.60         0.8087        -11.25         
38.0981       0.0497        -167.79       9.52E-2       -7.62         9.527E-2      -7.73         0.80869       -11.44         
38.6981       0.04973       -167.60       9.52E-2       -7.71         9.528E-2      -7.86         0.80861       -11.62         
39.2981       0.04975       -167.43       9.518E-2      -7.85         9.523E-2      -7.95         0.80858       -11.79         
39.8980       0.04978       -167.25       9.518E-2      -8.00         9.526E-2      -8.13         0.80844       -11.98         
40.4980       0.0498        -167.03       9.518E-2      -8.12         9.523E-2      -8.20         0.80844       -12.14         
41.0980       0.04985       -166.83       9.521E-2      -8.22         9.525E-2      -8.32         0.80815       -12.33         
41.6979       0.04988       -166.70       9.518E-2      -8.32         9.526E-2      -8.44         0.80835       -12.51         
42.2979       0.04994       -166.55       9.516E-2      -8.44         9.528E-2      -8.57         0.80823       -12.70         
42.8979       0.04996       -166.38       9.518E-2      -8.58         9.523E-2      -8.67         0.80828       -12.89         
43.4978       0.04995       -166.19       9.518E-2      -8.68         9.527E-2      -8.80         0.80829       -13.08         
44.0978       0.05003       -166.00       9.515E-2      -8.82         9.528E-2      -8.90         0.80823       -13.27         
44.6978       0.05011       -165.93       9.511E-2      -8.94         9.523E-2      -9.06         0.80838       -13.47         
45.2978       0.05015       -165.74       9.517E-2      -9.05         9.524E-2      -9.14         0.80824       -13.65         
45.8977       0.05024       -165.52       9.513E-2      -9.20         9.525E-2      -9.28         0.80837       -13.83         
46.4977       0.05022       -165.38       9.509E-2      -9.31         9.522E-2      -9.39         0.80838       -14.03         
47.0977       0.05021       -165.17       9.514E-2      -9.45         9.529E-2      -9.52         0.80928       -14.19         
47.6976       0.05028       -164.96       9.51E-2       -9.58         9.518E-2      -9.63         0.80928       -14.37         
48.2976       0.05034       -164.84       9.517E-2      -9.71         9.521E-2      -9.74         0.80925       -14.54         
48.8976       0.05039       -164.69       9.514E-2      -9.82         9.52E-2       -9.86         0.80943       -14.73         
49.4975       0.05045       -164.51       9.51E-2       -9.97         9.527E-2      -9.98         0.80931       -14.90         
50.0975       0.05046       -164.37       9.508E-2      -10.05        9.518E-2      -10.09        0.80931       -15.08         
50.6975       0.05049       -164.15       9.509E-2      -10.20        9.522E-2      -10.24        0.80946       -15.27         
51.2975       0.05055       -163.99       9.508E-2      -10.29        9.522E-2      -10.39        0.80941       -15.46         
51.8974       0.05063       -163.88       9.504E-2      -10.40        9.526E-2      -10.51        0.80934       -15.63         
52.4974       0.05137       -163.96       9.50E-2       -10.47        9.598E-2      -10.81        0.80725       -15.81         
53.0974       0.05066       -163.48       9.514E-2      -10.62        9.516E-2      -10.71        0.8068        -15.91         
53.6973       0.05069       -163.33       9.505E-2      -10.75        9.522E-2      -10.84        0.80975       -16.17         
54.2973       0.05078       -163.21       9.505E-2      -10.88        9.522E-2      -11.00        0.8097        -16.36         
54.8973       0.05077       -163.05       9.506E-2      -11.02        9.52E-2       -11.09        0.80971       -16.51         
55.4972       0.05085       -162.88       9.506E-2      -11.10        9.52E-2       -11.20        0.80985       -16.69         
56.0972       0.05089       -162.74       9.507E-2      -11.23        9.52E-2       -11.34        0.8096        -16.87         
56.6972       0.05091       -162.49       9.506E-2      -11.36        9.516E-2      -11.42        0.8096        -17.02         
57.2972       0.05102       -162.33       9.503E-2      -11.47        9.519E-2      -11.53        0.80957       -17.20         
57.8971       0.05101       -162.15       9.503E-2      -11.59        9.518E-2      -11.65        0.80952       -17.37         
58.4971       0.05107       -162.04       9.507E-2      -11.69        9.518E-2      -11.81        0.80973       -17.55         
59.0971       0.05111       -161.87       9.507E-2      -11.81        9.518E-2      -11.89        0.80961       -17.71         
59.6970       0.05114       -161.68       9.508E-2      -11.93        9.522E-2      -12.04        0.80978       -17.89         
60.2970       0.05117       -161.50       9.502E-2      -12.04        9.516E-2      -12.15        0.8098        -18.06         
60.8970       0.05127       -161.33       9.506E-2      -12.18        9.522E-2      -12.29        0.80989       -18.23         
61.4969       0.05128       -161.22       9.505E-2      -12.30        9.518E-2      -12.40        0.80963       -18.41         
62.0969       0.05133       -161.02       9.506E-2      -12.42        9.52E-2       -12.52        0.80955       -18.58         
62.6969       0.05135       -160.93       9.507E-2      -12.53        9.517E-2      -12.66        0.80947       -18.76         
63.2969       0.05147       -160.74       9.503E-2      -12.65        9.516E-2      -12.75        0.80952       -18.94         
63.8968       0.05149       -160.60       9.504E-2      -12.77        9.517E-2      -12.89        0.80945       -19.09         
64.4968       0.05154       -160.41       9.502E-2      -12.89        9.518E-2      -13.01        0.80944       -19.27         
65.0968       0.05159       -160.26       9.503E-2      -13.01        9.521E-2      -13.13        0.80943       -19.44         
65.6967       0.05166       -160.08       9.505E-2      -13.13        9.519E-2      -13.25        0.80944       -19.60         
66.2967       0.05169       -159.93       9.503E-2      -13.23        9.515E-2      -13.37        0.80938       -19.78         
66.8967       0.05168       -159.79       9.50E-2       -13.36        9.516E-2      -13.49        0.80919       -19.97         
67.4966       0.05175       -159.62       9.499E-2      -13.47        9.517E-2      -13.61        0.8092        -20.15         
68.0966       0.05178       -159.49       9.50E-2       -13.61        9.517E-2      -13.69        0.80917       -20.32         
68.6966       0.05185       -159.29       9.499E-2      -13.71        9.518E-2      -13.83        0.80916       -20.47         
69.2966       0.05193       -159.12       9.498E-2      -13.85        9.52E-2       -13.92        0.80902       -20.67         
69.8965       0.05201       -158.95       9.501E-2      -13.97        9.519E-2      -14.04        0.80906       -20.85         
70.4965       0.05204       -158.85       9.50E-2       -14.08        9.517E-2      -14.17        0.80918       -21.02         
71.0965       0.05206       -158.71       9.498E-2      -14.21        9.519E-2      -14.27        0.80915       -21.18         
71.6964       0.05215       -158.53       9.495E-2      -14.34        9.518E-2      -14.41        0.80904       -21.35         
72.2964       0.05218       -158.42       9.502E-2      -14.45        9.512E-2      -14.54        0.80903       -21.52         
72.8964       0.05228       -158.29       9.502E-2      -14.59        9.516E-2      -14.65        0.80899       -21.71         
73.4963       0.05234       -158.11       9.497E-2      -14.72        9.512E-2      -14.78        0.80903       -21.88         
74.0963       0.05235       -157.95       9.501E-2      -14.82        9.514E-2      -14.90        0.80906       -22.06         
74.6963       0.05238       -157.88       9.497E-2      -14.94        9.515E-2      -15.01        0.80884       -22.22         
75.2963       0.05247       -157.68       9.496E-2      -15.06        9.512E-2      -15.10        0.80887       -22.40         
75.8962       0.0525        -157.55       9.499E-2      -15.19        9.513E-2      -15.26        0.80892       -22.57         
76.4962       0.05261       -157.33       9.501E-2      -15.29        9.513E-2      -15.36        0.8091        -22.75         
77.0962       0.05267       -157.26       9.499E-2      -15.40        9.514E-2      -15.46        0.80902       -22.91         
77.6961       0.05272       -157.12       9.495E-2      -15.53        9.516E-2      -15.62        0.80928       -23.09         
78.2961       0.05281       -156.91       9.496E-2      -15.63        9.515E-2      -15.70        0.80918       -23.26         
78.8961       0.05284       -156.82       9.494E-2      -15.77        9.516E-2      -15.83        0.80929       -23.43         
79.4960       0.0529        -156.63       9.498E-2      -15.87        9.512E-2      -15.94        0.80948       -23.59         
80.0960       0.0529        -156.52       9.497E-2      -16.02        9.514E-2      -16.07        0.80942       -23.77         
80.6960       0.05299       -156.40       9.498E-2      -16.13        9.514E-2      -16.17        0.8095        -23.93         
81.2960       0.05305       -156.27       9.498E-2      -16.26        9.515E-2      -16.29        0.80957       -24.10         
81.8959       0.05311       -156.11       9.495E-2      -16.33        9.514E-2      -16.40        0.80974       -24.27         
82.4959       0.0532        -155.95       9.497E-2      -16.47        9.515E-2      -16.51        0.80988       -24.45         
83.0959       0.05326       -155.80       9.497E-2      -16.57        9.514E-2      -16.62        0.80994       -24.60         
83.6958       0.0533        -155.65       9.497E-2      -16.69        9.515E-2      -16.75        0.81005       -24.78         
84.2958       0.05339       -155.48       9.50E-2       -16.82        9.512E-2      -16.86        0.81008       -24.94         
84.8958       0.05343       -155.35       9.50E-2       -16.93        9.511E-2      -17.01        0.81001       -25.11         
85.4957       0.05352       -155.21       9.502E-2      -17.06        9.513E-2      -17.13        0.81024       -25.29         
86.0957       0.05355       -155.05       9.503E-2      -17.17        9.512E-2      -17.25        0.81009       -25.48         
86.6957       0.05358       -154.84       9.496E-2      -17.31        9.512E-2      -17.37        0.81019       -25.64         
87.2957       0.05367       -154.76       9.502E-2      -17.42        9.513E-2      -17.50        0.81033       -25.81         
87.8956       0.05369       -154.61       9.497E-2      -17.53        9.509E-2      -17.61        0.8103        -25.97         
88.4956       0.05383       -154.44       9.497E-2      -17.64        9.51E-2       -17.72        0.81028       -26.13         
89.0956       0.05388       -154.28       9.50E-2       -17.77        9.508E-2      -17.86        0.81038       -26.29         
89.6955       0.05395       -154.12       9.505E-2      -17.88        9.506E-2      -17.96        0.8105        -26.46         
90.2955       0.05402       -153.99       9.501E-2      -17.99        9.508E-2      -18.06        0.81065       -26.64         
90.8955       0.05408       -153.90       9.504E-2      -18.10        9.506E-2      -18.17        0.81061       -26.80         
91.4954       0.05414       -153.67       9.502E-2      -18.22        9.503E-2      -18.29        0.81067       -26.98         
92.0954       0.0542        -153.55       9.50E-2       -18.36        9.507E-2      -18.41        0.81057       -27.14         
