!    8/6/2020   01:47:57 
! Ref Plane: 0.000 mm
# MHZ S MA R  50
!
0.3000        0.04766       178.50        9.881E-2      -1.06         9.66E-2       -0.74         0.81566       -0.32          
0.9000        0.0477        178.93        9.492E-2      -0.53         9.541E-2      -0.20         0.81016       -0.47          
1.4999        0.04775       179.16        9.51E-2       -0.34         9.536E-2      -0.30         0.80943       -0.63          
2.0999        0.04773       179.37        9.514E-2      -0.51         9.532E-2      -0.39         0.80947       -0.84          
2.6999        0.04777       179.57        9.517E-2      -0.62         9.534E-2      -0.52         0.80935       -1.01          
3.2999        0.04777       179.86        9.522E-2      -0.69         9.532E-2      -0.64         0.80958       -1.20          
3.8998        0.04782       -179.92       9.517E-2      -0.84         9.532E-2      -0.76         0.80947       -1.39          
4.4998        0.04782       -179.71       9.517E-2      -0.95         9.532E-2      -0.86         0.8096        -1.55          
5.0998        0.0479        -179.41       9.518E-2      -1.04         9.533E-2      -0.97         0.8096        -1.73          
5.6997        0.0479        -179.17       9.516E-2      -1.15         9.532E-2      -1.12         0.80978       -1.92          
6.2997        0.04794       -179.03       9.515E-2      -1.30         9.532E-2      -1.22         0.8095        -2.12          
6.8997        0.04798       -178.76       9.515E-2      -1.46         9.529E-2      -1.33         0.80974       -2.30          
7.4996        0.04799       -178.49       9.516E-2      -1.52         9.532E-2      -1.44         0.80978       -2.50          
8.0996        0.04804       -178.28       9.512E-2      -1.65         9.532E-2      -1.59         0.80957       -2.69          
8.6996        0.04804       -178.06       9.515E-2      -1.74         9.534E-2      -1.68         0.80984       -2.86          
9.2996        0.04804       -177.80       9.521E-2      -1.87         9.532E-2      -1.82         0.81002       -3.04          
9.8995        0.0481        -177.57       9.516E-2      -2.02         9.532E-2      -1.93         0.80968       -3.22          
10.4995       0.04812       -177.36       9.513E-2      -2.12         9.53E-2       -2.04         0.81009       -3.40          
11.0995       0.04819       -177.11       9.516E-2      -2.23         9.532E-2      -2.16         0.81019       -3.58          
11.6994       0.04821       -176.91       9.515E-2      -2.33         9.53E-2       -2.27         0.81032       -3.77          
12.2994       0.0482        -176.67       9.511E-2      -2.46         9.526E-2      -2.39         0.81019       -3.95          
12.8994       0.04823       -176.45       9.516E-2      -2.52         9.528E-2      -2.50         0.81023       -4.12          
13.4993       0.04824       -176.19       9.521E-2      -2.71         9.525E-2      -2.65         0.81042       -4.32          
14.0993       0.04831       -176.01       9.515E-2      -2.78         9.526E-2      -2.77         0.81049       -4.48          
14.6993       0.04834       -175.73       9.509E-2      -2.94         9.528E-2      -2.86         0.81045       -4.66          
15.2993       0.04835       -175.55       9.51E-2       -3.00         9.525E-2      -2.99         0.81061       -4.84          
15.8992       0.04835       -175.37       9.508E-2      -3.11         9.522E-2      -3.10         0.81075       -5.00          
16.4992       0.04843       -175.17       9.511E-2      -3.24         9.525E-2      -3.25         0.81065       -5.19          
17.0992       0.04842       -174.90       9.513E-2      -3.35         9.524E-2      -3.33         0.81087       -5.37          
17.6991       0.04854       -174.66       9.51E-2       -3.48         9.52E-2       -3.48         0.81085       -5.56          
18.2991       0.04854       -174.50       9.507E-2      -3.59         9.523E-2      -3.57         0.81093       -5.71          
18.8991       0.04855       -174.26       9.512E-2      -3.71         9.521E-2      -3.67         0.81125       -5.88          
19.4990       0.04858       -174.05       9.514E-2      -3.83         9.52E-2       -3.80         0.81131       -6.06          
20.0990       0.04861       -173.80       9.509E-2      -3.95         9.523E-2      -3.91         0.81122       -6.24          
20.6990       0.04868       -173.62       9.512E-2      -4.08         9.523E-2      -4.03         0.81136       -6.41          
21.2990       0.04866       -173.33       9.506E-2      -4.19         9.52E-2       -4.13         0.81133       -6.57          
21.8989       0.04873       -173.22       9.506E-2      -4.28         9.521E-2      -4.24         0.8115        -6.76          
22.4989       0.04877       -172.94       9.503E-2      -4.43         9.527E-2      -4.34         0.81161       -6.93          
23.0989       0.04882       -172.81       9.504E-2      -4.52         9.526E-2      -4.47         0.81184       -7.11          
23.6988       0.04882       -172.51       9.507E-2      -4.61         9.521E-2      -4.59         0.81156       -7.28          
24.2988       0.04883       -172.35       9.504E-2      -4.72         9.517E-2      -4.70         0.81154       -7.44          
24.8988       0.04892       -172.14       9.501E-2      -4.85         9.519E-2      -4.84         0.81155       -7.62          
25.4987       0.04893       -171.96       9.506E-2      -4.93         9.517E-2      -4.95         0.81168       -7.78          
26.0987       0.04896       -171.67       9.497E-2      -5.07         9.519E-2      -5.03         0.81163       -7.96          
26.6987       0.04902       -171.51       9.498E-2      -5.17         9.516E-2      -5.14         0.81155       -8.11          
27.2987       0.04903       -171.26       9.504E-2      -5.27         9.517E-2      -5.25         0.81142       -8.29          
27.8986       0.04909       -171.10       9.499E-2      -5.42         9.513E-2      -5.36         0.81132       -8.44          
28.4986       0.04911       -170.86       9.504E-2      -5.51         9.516E-2      -5.48         0.81134       -8.63          
29.0986       0.04915       -170.77       9.501E-2      -5.61         9.513E-2      -5.61         0.81117       -8.78          
29.6985       0.04925       -170.56       9.498E-2      -5.72         9.508E-2      -5.68         0.81111       -8.96          
30.2985       0.0492        -170.32       9.498E-2      -5.84         9.507E-2      -5.85         0.81095       -9.13          
30.8985       0.04924       -170.07       9.498E-2      -5.96         9.506E-2      -5.92         0.81104       -9.30          
31.4984       0.0493        -169.92       9.493E-2      -6.04         9.50E-2       -6.03         0.81102       -9.46          
32.0984       0.04935       -169.80       9.492E-2      -6.19         9.506E-2      -6.15         0.81113       -9.63          
32.6984       0.04937       -169.55       9.493E-2      -6.27         9.506E-2      -6.25         0.81112       -9.79          
33.2984       0.0494        -169.40       9.492E-2      -6.38         9.502E-2      -6.35         0.81113       -9.94          
33.8983       0.04942       -169.22       9.498E-2      -6.48         9.504E-2      -6.47         0.81132       -10.09         
34.4983       0.04951       -168.99       9.496E-2      -6.58         9.507E-2      -6.56         0.81156       -10.23         
35.0983       0.04949       -168.84       9.495E-2      -6.69         9.504E-2      -6.71         0.81173       -10.41         
35.6982       0.04951       -168.65       9.496E-2      -6.80         9.501E-2      -6.77         0.81197       -10.56         
36.2982       0.04958       -168.43       9.496E-2      -6.91         9.502E-2      -6.93         0.81203       -10.75         
36.8982       0.04957       -168.25       9.493E-2      -7.02         9.502E-2      -7.02         0.81203       -10.91         
37.4981       0.04965       -168.11       9.493E-2      -7.12         9.501E-2      -7.13         0.81205       -11.07         
38.0981       0.04969       -167.95       9.497E-2      -7.24         9.501E-2      -7.25         0.81221       -11.26         
38.6981       0.04972       -167.73       9.495E-2      -7.30         9.499E-2      -7.35         0.81226       -11.43         
39.2981       0.04974       -167.54       9.492E-2      -7.43         9.496E-2      -7.45         0.81231       -11.59         
39.8980       0.04979       -167.38       9.49E-2       -7.56         9.497E-2      -7.60         0.81227       -11.77         
40.4980       0.04979       -167.14       9.487E-2      -7.68         9.496E-2      -7.66         0.81242       -11.92         
41.0980       0.04985       -166.97       9.493E-2      -7.77         9.497E-2      -7.79         0.81226       -12.10         
41.6979       0.04988       -166.82       9.491E-2      -7.87         9.499E-2      -7.92         0.81261       -12.27         
42.2979       0.04993       -166.68       9.488E-2      -7.97         9.497E-2      -8.01         0.81258       -12.45         
42.8979       0.04997       -166.49       9.49E-2       -8.10         9.495E-2      -8.10         0.81277       -12.62         
43.4978       0.04994       -166.36       9.487E-2      -8.22         9.496E-2      -8.20         0.81291       -12.80         
44.0978       0.05004       -166.18       9.487E-2      -8.32         9.499E-2      -8.33         0.813         -12.98         
44.6978       0.05008       -166.06       9.487E-2      -8.44         9.498E-2      -8.45         0.81325       -13.17         
45.2978       0.05013       -165.87       9.489E-2      -8.55         9.495E-2      -8.54         0.81328       -13.34         
45.8977       0.0502        -165.66       9.486E-2      -8.66         9.495E-2      -8.65         0.81357       -13.50         
46.4977       0.05021       -165.52       9.479E-2      -8.77         9.495E-2      -8.75         0.81365       -13.69         
47.0977       0.05018       -165.34       9.489E-2      -8.87         9.501E-2      -8.88         0.81471       -13.85         
47.6976       0.05023       -165.16       9.485E-2      -8.99         9.487E-2      -8.97         0.81484       -14.01         
48.2976       0.05032       -165.02       9.49E-2       -9.10         9.49E-2       -9.08         0.81498       -14.17         
48.8976       0.05036       -164.86       9.486E-2      -9.21         9.489E-2      -9.18         0.81527       -14.35         
49.4975       0.05041       -164.68       9.481E-2      -9.33         9.497E-2      -9.28         0.81534       -14.50         
50.0975       0.05041       -164.52       9.481E-2      -9.42         9.489E-2      -9.43         0.8155        -14.66         
50.6975       0.05045       -164.31       9.482E-2      -9.53         9.492E-2      -9.53         0.81577       -14.84         
51.2975       0.05049       -164.19       9.481E-2      -9.64         9.492E-2      -9.66         0.81591       -15.02         
51.8974       0.05058       -164.06       9.478E-2      -9.75         9.492E-2      -9.75         0.81595       -15.17         
52.4974       0.0513        -164.14       9.474E-2      -9.83         9.568E-2      -10.05        0.81404       -15.34         
53.0974       0.0506        -163.67       9.495E-2      -10.01        9.464E-2      -9.92         0.81377       -15.43         
53.6973       0.05065       -163.52       9.478E-2      -10.08        9.492E-2      -10.07        0.81689       -15.68         
54.2973       0.05071       -163.41       9.479E-2      -10.16        9.495E-2      -10.20        0.81698       -15.84         
54.8973       0.05072       -163.23       9.479E-2      -10.31        9.49E-2       -10.30        0.81714       -15.98         
55.4972       0.05077       -163.10       9.478E-2      -10.38        9.494E-2      -10.38        0.81737       -16.14         
56.0972       0.05083       -162.91       9.481E-2      -10.49        9.493E-2      -10.51        0.81735       -16.31         
56.6972       0.05086       -162.71       9.481E-2      -10.60        9.49E-2       -10.58        0.81747       -16.45         
57.2972       0.05094       -162.53       9.477E-2      -10.71        9.491E-2      -10.69        0.81766       -16.61         
57.8971       0.05094       -162.33       9.479E-2      -10.80        9.489E-2      -10.79        0.81776       -16.77         
58.4971       0.051         -162.23       9.484E-2      -10.92        9.495E-2      -10.93        0.8181        -16.94         
59.0971       0.05104       -162.07       9.481E-2      -11.03        9.494E-2      -11.02        0.81816       -17.08         
59.6970       0.05109       -161.90       9.485E-2      -11.15        9.497E-2      -11.14        0.81845       -17.25         
60.2970       0.05111       -161.73       9.481E-2      -11.24        9.491E-2      -11.25        0.81858       -17.39         
60.8970       0.05118       -161.55       9.485E-2      -11.38        9.498E-2      -11.36        0.81884       -17.56         
61.4969       0.05121       -161.42       9.485E-2      -11.47        9.494E-2      -11.46        0.8188        -17.72         
62.0969       0.05126       -161.23       9.483E-2      -11.58        9.496E-2      -11.56        0.8189        -17.87         
62.6969       0.05126       -161.13       9.485E-2      -11.68        9.491E-2      -11.70        0.81896       -18.03         
63.2969       0.05134       -160.94       9.482E-2      -11.78        9.496E-2      -11.78        0.81915       -18.20         
63.8968       0.05139       -160.80       9.485E-2      -11.90        9.499E-2      -11.91        0.81931       -18.33         
64.4968       0.05146       -160.64       9.488E-2      -12.01        9.496E-2      -12.01        0.81945       -18.50         
65.0968       0.0515        -160.45       9.487E-2      -12.11        9.498E-2      -12.13        0.81958       -18.65         
65.6967       0.05156       -160.28       9.485E-2      -12.22        9.50E-2       -12.23        0.81977       -18.81         
66.2967       0.05156       -160.16       9.485E-2      -12.31        9.497E-2      -12.35        0.81992       -18.97         
66.8967       0.05157       -160.00       9.486E-2      -12.44        9.498E-2      -12.47        0.81985       -19.14         
67.4966       0.05164       -159.84       9.485E-2      -12.52        9.499E-2      -12.57        0.81998       -19.30         
68.0966       0.05165       -159.69       9.484E-2      -12.65        9.501E-2      -12.66        0.8202        -19.45         
68.6966       0.05176       -159.47       9.487E-2      -12.74        9.503E-2      -12.76        0.82039       -19.60         
69.2966       0.05183       -159.35       9.481E-2      -12.87        9.505E-2      -12.86        0.82038       -19.78         
69.8965       0.05186       -159.19       9.488E-2      -13.00        9.504E-2      -12.96        0.82062       -19.94         
70.4965       0.05191       -159.07       9.489E-2      -13.08        9.502E-2      -13.09        0.82083       -20.10         
71.0965       0.05191       -158.90       9.489E-2      -13.20        9.506E-2      -13.18        0.82103       -20.25         
71.6964       0.05202       -158.74       9.487E-2      -13.31        9.506E-2      -13.29        0.82105       -20.40         
72.2964       0.05202       -158.63       9.491E-2      -13.43        9.50E-2       -13.43        0.82122       -20.55         
72.8964       0.05212       -158.51       9.492E-2      -13.54        9.505E-2      -13.52        0.82137       -20.73         
73.4963       0.05221       -158.32       9.49E-2       -13.67        9.503E-2      -13.63        0.82149       -20.88         
74.0963       0.05221       -158.17       9.492E-2      -13.76        9.506E-2      -13.75        0.82177       -21.05         
74.6963       0.05224       -158.10       9.491E-2      -13.90        9.506E-2      -13.84        0.82164       -21.20         
75.2963       0.05228       -157.88       9.491E-2      -13.99        9.505E-2      -13.95        0.82189       -21.36         
75.8962       0.05234       -157.76       9.491E-2      -14.09        9.508E-2      -14.09        0.8221        -21.52         
76.4962       0.05242       -157.57       9.496E-2      -14.19        9.508E-2      -14.19        0.82236       -21.68         
77.0962       0.05248       -157.46       9.497E-2      -14.30        9.511E-2      -14.27        0.82253       -21.83         
77.6961       0.0525        -157.33       9.491E-2      -14.41        9.512E-2      -14.42        0.82291       -21.99         
78.2961       0.05261       -157.15       9.495E-2      -14.50        9.51E-2       -14.49        0.82298       -22.15         
78.8961       0.05261       -157.00       9.495E-2      -14.63        9.512E-2      -14.60        0.82325       -22.30         
79.4960       0.05269       -156.85       9.499E-2      -14.74        9.515E-2      -14.71        0.82356       -22.45         
80.0960       0.0527        -156.72       9.499E-2      -14.86        9.514E-2      -14.83        0.8237        -22.62         
80.6960       0.05276       -156.62       9.50E-2       -14.96        9.515E-2      -14.91        0.8239        -22.77         
81.2960       0.05282       -156.46       9.50E-2       -15.08        9.518E-2      -15.03        0.82416       -22.92         
81.8959       0.05288       -156.30       9.498E-2      -15.16        9.521E-2      -15.14        0.82445       -23.08         
82.4959       0.05295       -156.15       9.501E-2      -15.29        9.518E-2      -15.25        0.82475       -23.25         
83.0959       0.05301       -156.00       9.504E-2      -15.38        9.521E-2      -15.36        0.82491       -23.38         
83.6958       0.05307       -155.83       9.505E-2      -15.49        9.52E-2       -15.48        0.82518       -23.55         
84.2958       0.05313       -155.67       9.507E-2      -15.63        9.519E-2      -15.56        0.82537       -23.70         
84.8958       0.05317       -155.52       9.508E-2      -15.72        9.521E-2      -15.71        0.82544       -23.86         
85.4957       0.05326       -155.42       9.512E-2      -15.86        9.522E-2      -15.83        0.82582       -24.02         
86.0957       0.05328       -155.25       9.511E-2      -15.96        9.521E-2      -15.94        0.82575       -24.20         
86.6957       0.05333       -155.02       9.51E-2       -16.09        9.523E-2      -16.06        0.82602       -24.35         
87.2957       0.05342       -154.93       9.513E-2      -16.19        9.525E-2      -16.17        0.82628       -24.51         
87.8956       0.05343       -154.81       9.517E-2      -16.30        9.523E-2      -16.27        0.82639       -24.66         
88.4956       0.05357       -154.61       9.513E-2      -16.40        9.526E-2      -16.40        0.82652       -24.81         
89.0956       0.05359       -154.45       9.516E-2      -16.50        9.524E-2      -16.51        0.82674       -24.96         
89.6955       0.05366       -154.31       9.517E-2      -16.62        9.526E-2      -16.61        0.82697       -25.12         
90.2955       0.05374       -154.16       9.52E-2       -16.71        9.528E-2      -16.69        0.82726       -25.28         
90.8955       0.05378       -154.04       9.523E-2      -16.84        9.529E-2      -16.82        0.82733       -25.44         
91.4954       0.05384       -153.86       9.525E-2      -16.94        9.528E-2      -16.93        0.82754       -25.61         
92.0954       0.0539        -153.69       9.523E-2      -17.06        9.528E-2      -17.06        0.82754       -25.75         
