!    8/6/2020   01:48:50 
! Ref Plane: 0.000 mm
# MHZ S MA R  50
!
0.3000        0.0476        178.27        9.878E-2      -1.00         9.66E-2       -0.82         0.81655       -0.32          
0.9000        0.04764       178.98        9.49E-2       -0.43         9.541E-2      -0.23         0.81032       -0.46          
1.4999        0.04771       179.19        9.514E-2      -0.28         9.54E-2       -0.34         0.80954       -0.63          
2.0999        0.04769       179.42        9.516E-2      -0.44         9.533E-2      -0.46         0.80957       -0.84          
2.6999        0.04775       179.61        9.519E-2      -0.56         9.533E-2      -0.57         0.80951       -1.02          
3.2999        0.04773       179.91        9.522E-2      -0.65         9.531E-2      -0.73         0.8097        -1.21          
3.8998        0.04782       -179.89       9.518E-2      -0.80         9.531E-2      -0.84         0.80969       -1.39          
4.4998        0.0478        -179.71       9.517E-2      -0.94         9.533E-2      -0.95         0.80977       -1.56          
5.0998        0.04791       -179.39       9.516E-2      -1.05         9.53E-2       -1.05         0.80977       -1.74          
5.6997        0.04787       -179.13       9.518E-2      -1.17         9.537E-2      -1.21         0.80994       -1.93          
6.2997        0.04794       -179.01       9.514E-2      -1.32         9.532E-2      -1.31         0.80971       -2.13          
6.8997        0.04798       -178.78       9.518E-2      -1.48         9.532E-2      -1.43         0.80992       -2.31          
7.4996        0.04801       -178.47       9.513E-2      -1.56         9.531E-2      -1.55         0.80991       -2.51          
8.0996        0.04802       -178.29       9.512E-2      -1.71         9.532E-2      -1.68         0.8097        -2.69          
8.6996        0.04806       -178.06       9.518E-2      -1.80         9.532E-2      -1.79         0.80992       -2.87          
9.2996        0.04805       -177.80       9.521E-2      -1.96         9.534E-2      -1.95         0.81003       -3.05          
9.8995        0.04808       -177.58       9.516E-2      -2.11         9.533E-2      -2.07         0.80971       -3.22          
10.4995       0.04815       -177.37       9.511E-2      -2.21         9.533E-2      -2.19         0.8101        -3.40          
11.0995       0.04819       -177.13       9.514E-2      -2.33         9.535E-2      -2.29         0.81018       -3.58          
11.6994       0.04821       -176.89       9.516E-2      -2.43         9.531E-2      -2.41         0.81022       -3.78          
12.2994       0.04823       -176.68       9.511E-2      -2.59         9.529E-2      -2.53         0.81012       -3.95          
12.8994       0.04825       -176.45       9.518E-2      -2.63         9.53E-2       -2.68         0.81016       -4.12          
13.4993       0.04825       -176.23       9.523E-2      -2.84         9.529E-2      -2.82         0.81028       -4.32          
14.0993       0.04834       -176.07       9.517E-2      -2.93         9.527E-2      -2.95         0.81029       -4.48          
14.6993       0.04836       -175.76       9.513E-2      -3.11         9.532E-2      -3.05         0.81024       -4.65          
15.2993       0.04839       -175.61       9.513E-2      -3.15         9.528E-2      -3.18         0.81041       -4.84          
15.8992       0.04838       -175.41       9.514E-2      -3.28         9.527E-2      -3.32         0.81051       -5.00          
16.4992       0.04843       -175.24       9.513E-2      -3.42         9.531E-2      -3.46         0.81036       -5.19          
17.0992       0.04848       -174.97       9.517E-2      -3.53         9.53E-2       -3.55         0.81056       -5.37          
17.6991       0.04857       -174.73       9.514E-2      -3.66         9.529E-2      -3.70         0.81051       -5.56          
18.2991       0.04857       -174.59       9.511E-2      -3.78         9.527E-2      -3.80         0.81052       -5.71          
18.8991       0.0486        -174.35       9.516E-2      -3.91         9.529E-2      -3.92         0.81086       -5.88          
19.4990       0.04861       -174.12       9.521E-2      -4.05         9.529E-2      -4.07         0.81083       -6.06          
20.0990       0.04865       -173.89       9.515E-2      -4.17         9.53E-2       -4.17         0.81073       -6.24          
20.6990       0.04868       -173.71       9.517E-2      -4.31         9.529E-2      -4.30         0.81082       -6.41          
21.2990       0.04869       -173.46       9.513E-2      -4.42         9.529E-2      -4.41         0.81073       -6.57          
21.8989       0.04874       -173.28       9.516E-2      -4.54         9.529E-2      -4.53         0.81086       -6.77          
22.4989       0.04879       -173.07       9.514E-2      -4.68         9.534E-2      -4.66         0.81089       -6.93          
23.0989       0.04884       -172.89       9.515E-2      -4.78         9.534E-2      -4.78         0.81105       -7.12          
23.6988       0.04883       -172.61       9.517E-2      -4.91         9.53E-2       -4.91         0.81075       -7.29          
24.2988       0.04886       -172.45       9.513E-2      -5.00         9.531E-2      -5.02         0.81078       -7.45          
24.8988       0.04894       -172.23       9.511E-2      -5.15         9.529E-2      -5.16         0.81066       -7.63          
25.4987       0.04898       -172.06       9.515E-2      -5.24         9.525E-2      -5.29         0.81067       -7.80          
26.0987       0.04902       -171.80       9.51E-2       -5.39         9.53E-2       -5.37         0.81061       -7.97          
26.6987       0.04908       -171.63       9.51E-2       -5.48         9.525E-2      -5.51         0.81048       -8.13          
27.2987       0.04906       -171.40       9.519E-2      -5.61         9.525E-2      -5.62         0.81027       -8.31          
27.8986       0.04911       -171.23       9.514E-2      -5.76         9.526E-2      -5.75         0.8101        -8.47          
28.4986       0.04915       -171.00       9.515E-2      -5.87         9.526E-2      -5.89         0.81006       -8.66          
29.0986       0.04919       -170.91       9.514E-2      -5.97         9.524E-2      -6.02         0.80986       -8.81          
29.6985       0.04926       -170.67       9.511E-2      -6.10         9.521E-2      -6.10         0.80972       -9.00          
30.2985       0.04924       -170.46       9.51E-2       -6.25         9.523E-2      -6.25         0.80948       -9.17          
30.8985       0.04928       -170.20       9.512E-2      -6.38         9.517E-2      -6.35         0.80952       -9.35          
31.4984       0.04935       -170.07       9.508E-2      -6.45         9.517E-2      -6.47         0.80945       -9.51          
32.0984       0.04938       -169.92       9.514E-2      -6.61         9.522E-2      -6.59         0.80944       -9.68          
32.6984       0.04941       -169.68       9.511E-2      -6.71         9.522E-2      -6.69         0.80937       -9.84          
33.2984       0.04945       -169.53       9.511E-2      -6.82         9.519E-2      -6.84         0.8093        -10.00         
33.8983       0.04949       -169.35       9.515E-2      -6.94         9.52E-2       -6.95         0.80944       -10.15         
34.4983       0.04952       -169.13       9.513E-2      -7.05         9.522E-2      -7.04         0.80962       -10.30         
35.0983       0.04951       -168.98       9.515E-2      -7.16         9.521E-2      -7.20         0.80967       -10.49         
35.6982       0.04959       -168.78       9.514E-2      -7.28         9.52E-2       -7.29         0.80985       -10.65         
36.2982       0.04964       -168.56       9.516E-2      -7.42         9.518E-2      -7.45         0.80979       -10.84         
36.8982       0.04967       -168.40       9.512E-2      -7.54         9.518E-2      -7.56         0.80972       -11.00         
37.4981       0.0497        -168.26       9.514E-2      -7.63         9.522E-2      -7.67         0.80962       -11.17         
38.0981       0.04974       -168.05       9.515E-2      -7.74         9.52E-2       -7.82         0.80967       -11.36         
38.6981       0.04978       -167.88       9.515E-2      -7.85         9.517E-2      -7.92         0.80966       -11.53         
39.2981       0.04979       -167.75       9.513E-2      -7.99         9.514E-2      -8.02         0.80964       -11.71         
39.8980       0.04983       -167.55       9.514E-2      -8.14         9.519E-2      -8.21         0.80951       -11.89         
40.4980       0.04984       -167.30       9.515E-2      -8.25         9.516E-2      -8.27         0.80955       -12.04         
41.0980       0.04992       -167.10       9.515E-2      -8.36         9.517E-2      -8.41         0.8093        -12.23         
41.6979       0.04993       -167.01       9.513E-2      -8.47         9.516E-2      -8.53         0.80951       -12.41         
42.2979       0.04999       -166.84       9.512E-2      -8.59         9.521E-2      -8.65         0.80945       -12.60         
42.8979       0.05002       -166.69       9.514E-2      -8.72         9.515E-2      -8.74         0.80957       -12.78         
43.4978       0.05002       -166.54       9.513E-2      -8.83         9.518E-2      -8.88         0.80961       -12.96         
44.0978       0.05011       -166.35       9.511E-2      -8.97         9.517E-2      -9.00         0.80954       -13.15         
44.6978       0.05014       -166.26       9.508E-2      -9.09         9.519E-2      -9.14         0.8097        -13.34         
45.2978       0.0502        -166.06       9.513E-2      -9.21         9.515E-2      -9.23         0.8096        -13.52         
45.8977       0.05026       -165.85       9.51E-2       -9.33         9.515E-2      -9.36         0.80974       -13.70         
46.4977       0.05026       -165.71       9.507E-2      -9.47         9.514E-2      -9.46         0.80975       -13.89         
47.0977       0.05028       -165.54       9.512E-2      -9.59         9.519E-2      -9.60         0.81069       -14.05         
47.6976       0.05034       -165.36       9.507E-2      -9.72         9.509E-2      -9.73         0.81075       -14.23         
48.2976       0.0504        -165.24       9.512E-2      -9.85         9.514E-2      -9.83         0.8108        -14.39         
48.8976       0.05043       -165.05       9.509E-2      -9.98         9.514E-2      -9.96         0.81096       -14.58         
49.4975       0.0505        -164.90       9.508E-2      -10.11        9.517E-2      -10.06        0.81091       -14.74         
50.0975       0.0505        -164.73       9.505E-2      -10.20        9.512E-2      -10.19        0.81097       -14.91         
50.6975       0.05054       -164.52       9.507E-2      -10.34        9.515E-2      -10.31        0.81112       -15.10         
51.2975       0.05058       -164.38       9.504E-2      -10.44        9.518E-2      -10.49        0.81119       -15.29         
51.8974       0.05069       -164.26       9.497E-2      -10.54        9.526E-2      -10.60        0.81112       -15.45         
52.4974       0.0514        -164.35       9.495E-2      -10.58        9.599E-2      -10.96        0.80913       -15.63         
53.0974       0.0507        -163.83       9.467E-2      -10.60        9.514E-2      -10.82        0.80865       -15.72         
53.6973       0.05076       -163.74       9.503E-2      -10.90        9.515E-2      -10.92        0.8117        -15.98         
54.2973       0.05082       -163.64       9.504E-2      -11.04        9.515E-2      -11.07        0.8117        -16.15         
54.8973       0.05081       -163.45       9.506E-2      -11.16        9.515E-2      -11.17        0.81175       -16.31         
55.4972       0.05086       -163.33       9.503E-2      -11.26        9.515E-2      -11.29        0.81181       -16.47         
56.0972       0.05093       -163.17       9.505E-2      -11.40        9.512E-2      -11.41        0.81175       -16.65         
56.6972       0.05098       -162.94       9.503E-2      -11.49        9.512E-2      -11.50        0.81175       -16.80         
57.2972       0.05105       -162.78       9.504E-2      -11.62        9.514E-2      -11.62        0.81179       -16.97         
57.8971       0.05106       -162.60       9.501E-2      -11.75        9.512E-2      -11.75        0.81182       -17.13         
58.4971       0.05109       -162.46       9.508E-2      -11.86        9.514E-2      -11.89        0.81201       -17.31         
59.0971       0.05115       -162.34       9.505E-2      -11.97        9.517E-2      -11.98        0.81202       -17.47         
59.6970       0.05119       -162.15       9.505E-2      -12.07        9.518E-2      -12.12        0.81222       -17.64         
60.2970       0.0512        -161.99       9.503E-2      -12.20        9.512E-2      -12.23        0.8122        -17.79         
60.8970       0.05128       -161.81       9.505E-2      -12.34        9.517E-2      -12.38        0.81237       -17.97         
61.4969       0.0513        -161.71       9.506E-2      -12.47        9.516E-2      -12.50        0.81222       -18.14         
62.0969       0.05138       -161.50       9.506E-2      -12.58        9.516E-2      -12.61        0.81214       -18.31         
62.6969       0.05138       -161.41       9.508E-2      -12.68        9.513E-2      -12.74        0.81215       -18.47         
63.2969       0.05147       -161.22       9.505E-2      -12.81        9.517E-2      -12.83        0.81223       -18.65         
63.8968       0.05151       -161.11       9.505E-2      -12.91        9.515E-2      -12.96        0.81226       -18.79         
64.4968       0.05156       -160.90       9.507E-2      -13.04        9.516E-2      -13.09        0.81233       -18.97         
65.0968       0.05161       -160.75       9.505E-2      -13.16        9.518E-2      -13.22        0.81234       -19.13         
65.6967       0.05167       -160.59       9.507E-2      -13.27        9.52E-2       -13.32        0.81236       -19.29         
66.2967       0.05169       -160.44       9.507E-2      -13.37        9.517E-2      -13.45        0.81241       -19.47         
66.8967       0.05172       -160.33       9.507E-2      -13.52        9.518E-2      -13.56        0.81227       -19.64         
67.4966       0.05176       -160.11       9.503E-2      -13.63        9.517E-2      -13.69        0.81229       -19.82         
68.0966       0.05177       -160.00       9.505E-2      -13.74        9.517E-2      -13.77        0.81235       -19.98         
68.6966       0.05189       -159.82       9.507E-2      -13.85        9.519E-2      -13.91        0.8124        -20.13         
69.2966       0.05196       -159.65       9.507E-2      -13.99        9.523E-2      -14.00        0.81233       -20.32         
69.8965       0.05201       -159.51       9.506E-2      -14.12        9.522E-2      -14.12        0.8124        -20.49         
70.4965       0.05205       -159.41       9.508E-2      -14.21        9.519E-2      -14.25        0.81259       -20.66         
71.0965       0.05207       -159.25       9.508E-2      -14.35        9.522E-2      -14.35        0.81265       -20.81         
71.6964       0.05216       -159.05       9.506E-2      -14.46        9.519E-2      -14.49        0.8126        -20.98         
72.2964       0.0522        -158.99       9.51E-2       -14.60        9.515E-2      -14.61        0.81261       -21.14         
72.8964       0.05229       -158.87       9.511E-2      -14.73        9.52E-2       -14.73        0.81266       -21.32         
73.4963       0.05237       -158.68       9.508E-2      -14.86        9.52E-2       -14.85        0.81275       -21.48         
74.0963       0.05237       -158.57       9.51E-2       -14.96        9.523E-2      -14.97        0.81286       -21.66         
74.6963       0.05242       -158.48       9.509E-2      -15.08        9.52E-2       -15.08        0.81271       -21.81         
75.2963       0.05249       -158.28       9.507E-2      -15.19        9.519E-2      -15.20        0.81281       -21.99         
75.8962       0.05252       -158.14       9.51E-2       -15.33        9.522E-2      -15.33        0.81292       -22.15         
76.4962       0.05258       -157.94       9.512E-2      -15.41        9.525E-2      -15.45        0.81314       -22.32         
77.0962       0.05266       -157.86       9.512E-2      -15.55        9.524E-2      -15.54        0.81319       -22.48         
77.6961       0.05272       -157.73       9.509E-2      -15.66        9.527E-2      -15.70        0.81348       -22.65         
78.2961       0.05279       -157.55       9.514E-2      -15.76        9.527E-2      -15.79        0.81346       -22.81         
78.8961       0.05282       -157.42       9.512E-2      -15.90        9.528E-2      -15.88        0.81362       -22.97         
79.4960       0.05291       -157.30       9.513E-2      -16.02        9.529E-2      -16.01        0.81386       -23.12         
80.0960       0.05293       -157.15       9.514E-2      -16.15        9.527E-2      -16.14        0.81393       -23.30         
80.6960       0.05297       -157.03       9.516E-2      -16.25        9.527E-2      -16.25        0.81404       -23.45         
81.2960       0.05306       -156.92       9.519E-2      -16.39        9.532E-2      -16.38        0.81421       -23.62         
81.8959       0.05311       -156.77       9.518E-2      -16.47        9.532E-2      -16.47        0.81439       -23.78         
82.4959       0.05321       -156.61       9.519E-2      -16.60        9.534E-2      -16.59        0.81462       -23.95         
83.0959       0.05326       -156.46       9.518E-2      -16.70        9.532E-2      -16.69        0.81474       -24.09         
83.6958       0.05332       -156.32       9.519E-2      -16.85        9.532E-2      -16.83        0.81494       -24.27         
84.2958       0.05336       -156.14       9.52E-2       -16.96        9.531E-2      -16.94        0.81501       -24.42         
84.8958       0.05344       -156.02       9.523E-2      -17.09        9.532E-2      -17.09        0.81504       -24.59         
85.4957       0.05351       -155.93       9.526E-2      -17.20        9.536E-2      -17.22        0.81532       -24.76         
86.0957       0.05356       -155.74       9.529E-2      -17.32        9.534E-2      -17.34        0.81528       -24.94         
86.6957       0.0536        -155.56       9.524E-2      -17.46        9.533E-2      -17.46        0.81544       -25.09         
87.2957       0.05368       -155.47       9.53E-2       -17.56        9.536E-2      -17.59        0.8156        -25.26         
87.8956       0.0537        -155.33       9.526E-2      -17.67        9.536E-2      -17.70        0.81572       -25.41         
88.4956       0.05385       -155.15       9.528E-2      -17.78        9.536E-2      -17.81        0.81579       -25.57         
89.0956       0.05385       -155.02       9.529E-2      -17.91        9.534E-2      -17.94        0.81589       -25.72         
89.6955       0.05392       -154.87       9.534E-2      -18.03        9.536E-2      -18.05        0.81608       -25.88         
90.2955       0.05402       -154.73       9.531E-2      -18.15        9.537E-2      -18.17        0.8163        -26.06         
90.8955       0.05405       -154.61       9.537E-2      -18.26        9.534E-2      -18.28        0.81632       -26.21         
91.4954       0.05416       -154.43       9.539E-2      -18.39        9.535E-2      -18.41        0.81653       -26.39         
92.0954       0.05422       -154.31       9.535E-2      -18.53        9.537E-2      -18.52        0.81649       -26.54         
