!    8/10/2020   01:44:55 
! Ref Plane: 0.000 mm
# MHZ S MA R  50
!
0.3000        0.82093       0.21          4.883E-5      -20.77        4.435E-5      21.49         0.99644       -0.36          
0.9000        0.81893       0.26          5.084E-5      -108.27       5.324E-5      -77.79        0.99737       -0.31          
1.4999        0.82008       0.24          6.224E-5      -178.42       6.089E-5      14.76         0.99844       -0.28          
2.0999        0.81995       0.21          6.336E-5      -106.29       4.402E-5      118.75        0.99884       -0.23          
2.6999        0.81978       0.16          4.939E-5      -87.88        1.886E-5      -39.14        0.99903       -0.18          
3.2999        0.8197        0.12          2.899E-5      35.37         1.198E-5      -89.79        0.999         -0.16          
3.8998        0.81966       0.08          1.389E-5      -65.72        3.986E-5      -101.34       0.99913       -0.14          
4.4998        0.81947       0.03          8.65E-6       -135.82       2.701E-5      -31.09        0.99911       -0.13          
5.0998        0.81941       -0.01         3.242E-5      -120.85       5.792E-6      12.03         0.99908       -0.11          
5.6997        0.81934       -0.05         2.304E-5      62.86         3.326E-5      -81.95        0.99921       -0.11          
6.2997        0.81938       -0.09         5.243E-5      111.67        2.438E-5      64.28         0.99911       -0.10          
6.8997        0.8193        -0.13         2.366E-5      -119.50       1.57E-5       -18.59        0.99917       -0.10          
7.4996        0.81927       -0.17         1.091E-5      128.99        4.785E-5      114.10        0.99921       -0.09          
8.0996        0.81935       -0.21         7.159E-5      -120.72       1.649E-5      -91.00        0.99916       -0.09          
8.6996        0.81928       -0.26         2.914E-5      106.62        1.219E-5      117.52        0.99918       -0.09          
9.2996        0.8192        -0.30         7.258E-5      -22.19        3.293E-5      63.73         0.99927       -0.08          
9.8995        0.81927       -0.34         4.497E-5      -77.26        2.191E-5      55.60         0.99923       -0.08          
10.4995       0.81911       -0.39         1.871E-5      142.62        2.695E-5      140.57        0.99928       -0.08          
11.0995       0.81907       -0.43         5.827E-5      -68.37        2.158E-5      40.27         0.99924       -0.08          
11.6994       0.81902       -0.46         1.592E-5      154.81        5.88E-5       19.81         0.99923       -0.08          
12.2994       0.81903       -0.50         8.133E-5      -134.43       3.71E-5       66.24         0.99927       -0.08          
12.8994       0.81906       -0.54         6.517E-5      82.87         3.762E-5      55.23         0.99921       -0.08          
13.4993       0.81903       -0.58         6.379E-5      -30.03        9.437E-6      -89.82        0.99934       -0.08          
14.0993       0.81903       -0.63         1.691E-5      70.41         2.665E-5      -60.09        0.99934       -0.08          
14.6993       0.81898       -0.67         9.975E-5      -129.24       2.552E-5      -4.33         0.99931       -0.08          
15.2993       0.81887       -0.70         6.765E-5      121.08        5.423E-5      93.58         0.99933       -0.08          
15.8992       0.81883       -0.75         4.697E-5      56.74         1.267E-5      -103.11       0.99937       -0.08          
16.4992       0.8189        -0.78         3.79E-5       134.29        5.825E-5      -11.28        0.99942       -0.08          
17.0992       0.81876       -0.82         6.283E-5      58.06         2.492E-5      74.20         0.99941       -0.08          
17.6991       0.81882       -0.85         4.33E-5       126.89        8.433E-6      106.83        0.99939       -0.08          
18.2991       0.81873       -0.90         6.157E-5      151.95        1.514E-5      -82.53        0.99932       -0.08          
18.8991       0.81864       -0.95         4.513E-5      -142.77       1.726E-5      96.55         0.99937       -0.08          
19.4990       0.81876       -0.98         5.209E-5      -51.89        2.514E-5      -24.04        0.99939       -0.08          
20.0990       0.81876       -1.03         1.238E-5      48.22         1.12E-5       7.16          0.99937       -0.08          
20.6990       0.81871       -1.06         6.012E-5      -32.81        1.794E-5      72.51         0.99933       -0.08          
21.2990       0.81868       -1.11         4.711E-5      -131.76       3.835E-5      5.85          0.99942       -0.08          
21.8989       0.81862       -1.14         4.133E-5      -77.43        4.01E-5       103.66        0.99943       -0.08          
22.4989       0.8186        -1.18         8.545E-5      -117.16       1.816E-5      89.09         0.99946       -0.09          
23.0989       0.81849       -1.22         4.996E-5      132.07        2.867E-5      5.29          0.99942       -0.09          
23.6988       0.81861       -1.26         1.413E-5      77.49         5.279E-5      -24.65        0.99948       -0.09          
24.2988       0.81852       -1.30         1.597E-5      67.87         2.815E-5      -3.19         0.99945       -0.09          
24.8988       0.81856       -1.34         2.525E-5      -91.64        2.931E-5      39.47         0.9995        -0.09          
25.4987       0.8186        -1.37         4.246E-5      7.39          3.023E-5      -5.53         0.99947       -0.09          
26.0987       0.81858       -1.41         4.995E-5      145.45        4.434E-5      74.27         0.99945       -0.09          
26.6987       0.81859       -1.46         3.676E-5      -173.00       6.248E-6      -4.31         0.99944       -0.09          
27.2987       0.81849       -1.49         5.843E-5      23.68         3.847E-5      67.18         0.99948       -0.10          
27.8986       0.81852       -1.53         1.914E-5      -123.28       6.515E-6      23.01         0.99943       -0.10          
28.4986       0.81846       -1.57         2.583E-5      -49.55        1.376E-5      -59.07        0.99949       -0.10          
29.0986       0.81848       -1.61         1.815E-5      46.42         4.078E-5      -38.01        0.9996        -0.10          
29.6985       0.81834       -1.65         2.004E-5      86.66         1.417E-5      -147.74       0.99947       -0.10          
30.2985       0.81842       -1.68         1.486E-5      49.14         5.557E-6      -47.49        0.99957       -0.11          
30.8985       0.81846       -1.72         6.014E-5      -40.32        1.167E-5      111.25        0.99951       -0.11          
31.4984       0.81842       -1.75         6.81E-5       83.67         5.964E-5      -139.37       0.99949       -0.11          
32.0984       0.81837       -1.80         2.215E-5      -104.13       4.285E-5      72.66         0.99956       -0.11          
32.6984       0.81837       -1.83         8.809E-6      147.16        2.193E-6      76.42         0.9995        -0.11          
33.2984       0.81851       -1.87         2.079E-5      -147.89       1.781E-5      149.42        0.9995        -0.11          
33.8983       0.81846       -1.91         5.768E-5      -16.74        2.686E-5      -16.03        0.9995        -0.11          
34.4983       0.81823       -1.94         1.097E-5      -116.44       3.846E-5      107.92        0.99958       -0.11          
35.0983       0.81835       -1.98         3.228E-5      -92.85        3.659E-5      -63.97        0.99958       -0.11          
35.6982       0.8182        -2.01         4.012E-5      -75.89        3.111E-5      17.36         0.99954       -0.11          
36.2982       0.81832       -2.04         3.812E-5      -139.32       2.507E-5      -178.22       0.99955       -0.12          
36.8982       0.81834       -2.08         5.498E-5      -129.71       3.197E-5      29.89         0.99952       -0.12          
37.4981       0.81833       -2.11         3.074E-5      -172.04       2.011E-5      66.15         0.9994        -0.12          
38.0981       0.81831       -2.16         2.663E-5      120.82        1.297E-5      146.18        0.99953       -0.12          
38.6981       0.81825       -2.18         4.517E-5      18.35         2.40E-5       125.41        0.99949       -0.12          
39.2981       0.81828       -2.23         4.156E-5      169.36        3.929E-5      -155.47       0.99952       -0.12          
39.8980       0.81833       -2.25         2.946E-5      -112.44       3.105E-5      -45.07        0.99958       -0.13          
40.4980       0.81823       -2.30         3.465E-6      48.35         2.886E-5      75.20         0.99958       -0.13          
41.0980       0.8183        -2.34         5.425E-5      -73.97        2.518E-5      158.26        0.99947       -0.13          
41.6979       0.81821       -2.37         3.322E-5      79.22         2.345E-5      13.57         0.99963       -0.13          
42.2979       0.81827       -2.41         4.857E-5      84.29         3.016E-5      18.40         0.99956       -0.13          
42.8979       0.81821       -2.44         3.866E-5      -169.27       3.39E-5       142.78        0.99961       -0.13          
43.4978       0.81818       -2.48         4.143E-5      145.48        7.881E-6      36.28         0.99963       -0.14          
44.0978       0.81821       -2.52         2.866E-5      -132.00       2.639E-5      -18.92        0.99958       -0.14          
44.6978       0.81806       -2.54         1.694E-5      144.47        1.818E-5      9.50          0.99959       -0.14          
45.2978       0.81821       -2.59         3.111E-5      21.47         6.29E-6       -106.64       0.99961       -0.14          
45.8977       0.8182        -2.62         3.872E-5      153.58        2.973E-5      -40.09        0.99957       -0.14          
46.4977       0.8181        -2.65         4.169E-5      132.64        2.468E-5      89.40         0.99958       -0.15          
47.0977       0.81815       -2.68         8.389E-5      55.70         3.028E-5      -35.48        0.99969       -0.15          
47.6976       0.81798       -2.71         4.205E-5      117.45        3.965E-5      165.41        0.99973       -0.15          
48.2976       0.81807       -2.75         5.036E-5      10.36         2.599E-5      -156.73       0.99969       -0.15          
48.8976       0.81795       -2.78         5.232E-5      87.80         3.621E-5      -167.99       0.99969       -0.15          
49.4975       0.81797       -2.81         2.59E-5       26.87         5.793E-5      97.87         0.99968       -0.16          
50.0975       0.81801       -2.86         2.772E-5      -3.00         4.666E-5      -145.36       0.99965       -0.15          
50.6975       0.81802       -2.89         1.056E-5      38.27         1.272E-5      -85.63        0.9996        -0.15          
51.2975       0.81798       -2.92         2.912E-5      33.95         1.073E-6      -136.80       0.99969       -0.16          
51.8974       0.8181        -2.96         3.988E-5      60.86         4.905E-5      156.83        0.99966       -0.16          
52.4974       0.82034       -2.99         3.90E-5       31.73         3.026E-5      59.17         0.99967       -0.17          
53.0974       0.81789       -3.04         9.401E-6      55.02         2.825E-5      173.37        0.99967       -0.17          
53.6973       0.81801       -3.05         5.184E-5      67.91         1.401E-5      29.44         0.99965       -0.16          
54.2973       0.81794       -3.09         1.139E-5      142.17        9.409E-6      36.66         0.99963       -0.17          
54.8973       0.81794       -3.13         4.247E-5      -139.90       3.067E-5      -8.32         0.99967       -0.17          
55.4972       0.81792       -3.15         2.653E-5      91.76         2.065E-5      -168.06       0.99967       -0.17          
56.0972       0.81803       -3.19         6.963E-5      47.84         8.567E-6      124.62        0.99961       -0.17          
56.6972       0.81803       -3.24         5.312E-5      -42.16        9.768E-6      60.61         0.99971       -0.17          
57.2972       0.81799       -3.27         1.188E-5      -51.61        3.335E-5      -128.25       0.99972       -0.17          
57.8971       0.81796       -3.31         2.30E-5       -6.06         3.38E-5       0.25          0.99966       -0.18          
58.4971       0.81784       -3.33         3.757E-5      -65.10        2.526E-5      56.78         0.99968       -0.18          
59.0971       0.81793       -3.39         3.923E-5      -9.54         4.28E-5       93.89         0.99972       -0.18          
59.6970       0.81788       -3.41         1.931E-5      -173.79       2.269E-5      22.43         0.9997        -0.18          
60.2970       0.81782       -3.46         1.683E-5      147.12        3.137E-5      -107.27       0.9997        -0.18          
60.8970       0.81774       -3.48         2.986E-5      -128.84       2.015E-5      -0.24         0.99967       -0.19          
61.4969       0.81772       -3.51         3.213E-5      -170.13       2.454E-5      27.78         0.99969       -0.19          
62.0969       0.81779       -3.54         1.558E-5      -73.28        3.712E-6      176.14        0.9997        -0.19          
62.6969       0.81779       -3.59         4.841E-5      -66.66        3.262E-5      -9.51         0.99966       -0.19          
63.2969       0.81774       -3.62         2.606E-5      126.24        4.56E-6       -143.25       0.99972       -0.19          
63.8968       0.81753       -3.65         7.039E-5      130.23        7.969E-6      21.56         0.99968       -0.20          
64.4968       0.81755       -3.69         6.242E-5      -20.74        1.304E-5      90.88         0.99969       -0.20          
65.0968       0.81749       -3.72         4.716E-5      -173.90       1.954E-5      77.46         0.99974       -0.20          
65.6967       0.8175        -3.75         3.368E-5      -63.46        1.838E-5      19.25         0.99972       -0.20          
66.2967       0.81746       -3.79         8.597E-5      -65.70        1.812E-5      -137.06       0.99968       -0.20          
66.8967       0.81754       -3.82         2.569E-5      137.96        3.849E-5      -50.31        0.99971       -0.20          
67.4966       0.81764       -3.85         3.948E-5      82.56         3.056E-5      -172.36       0.99969       -0.21          
68.0966       0.81766       -3.89         1.971E-5      -5.07         1.737E-5      44.42         0.99968       -0.21          
68.6966       0.81761       -3.94         3.684E-5      16.48         1.036E-5      95.08         0.9997        -0.21          
69.2966       0.81754       -3.96         2.151E-5      19.55         2.876E-5      178.04        0.9997        -0.21          
69.8965       0.8175        -4.00         4.613E-5      -84.97        1.196E-5      146.93        0.99973       -0.21          
70.4965       0.81749       -4.04         3.47E-5       22.83         3.633E-5      -134.86       0.9997        -0.21          
71.0965       0.81742       -4.08         2.233E-5      -173.93       2.569E-5      85.30         0.99969       -0.21          
71.6964       0.81743       -4.11         2.417E-5      66.89         9.129E-6      -67.69        0.99968       -0.22          
72.2964       0.81735       -4.15         3.603E-5      109.19        1.698E-6      -162.97       0.99973       -0.21          
72.8964       0.81729       -4.18         2.282E-5      -156.10       1.767E-5      36.38         0.99975       -0.22          
73.4963       0.81734       -4.22         1.91E-5       -98.13        2.522E-5      -26.88        0.99971       -0.22          
74.0963       0.81735       -4.26         5.637E-5      -120.60       5.035E-5      34.34         0.99972       -0.22          
74.6963       0.81737       -4.31         1.204E-5      -116.22       1.651E-5      -67.31        0.99975       -0.22          
75.2963       0.81732       -4.34         4.545E-5      146.07        2.672E-5      -75.85        0.9997        -0.22          
75.8962       0.81722       -4.38         3.721E-5      -139.84       3.042E-5      152.74        0.99973       -0.22          
76.4962       0.81715       -4.41         1.26E-5       -19.25        1.393E-5      67.12         0.99968       -0.22          
77.0962       0.81716       -4.44         3.587E-5      129.32        1.881E-5      68.72         0.99973       -0.22          
77.6961       0.81709       -4.48         3.581E-5      110.71        3.023E-5      48.64         0.99969       -0.22          
78.2961       0.81715       -4.51         2.312E-5      -18.99        1.392E-5      151.61        0.99975       -0.22          
78.8961       0.81698       -4.55         3.769E-5      42.83         2.342E-5      -163.32       0.99969       -0.22          
79.4960       0.81694       -4.58         5.475E-5      -140.61       7.162E-6      87.30         0.99972       -0.22          
80.0960       0.81704       -4.62         1.886E-5      72.98         7.586E-6      -30.82        0.99972       -0.22          
80.6960       0.81703       -4.65         3.456E-5      172.70        2.603E-5      -52.58        0.99969       -0.22          
81.2960       0.81689       -4.70         1.133E-5      -2.86         3.944E-5      74.09         0.99974       -0.22          
81.8959       0.81686       -4.73         3.293E-5      23.65         2.25E-5       118.08        0.99975       -0.22          
82.4959       0.81694       -4.76         1.173E-5      107.62        1.964E-5      93.55         0.99971       -0.23          
83.0959       0.81688       -4.80         2.244E-5      31.87         3.734E-5      169.86        0.99968       -0.23          
83.6958       0.81677       -4.83         3.897E-5      122.40        3.84E-6       65.76         0.99966       -0.23          
84.2958       0.81678       -4.87         2.585E-5      176.66        1.854E-5      56.34         0.99969       -0.23          
84.8958       0.81679       -4.91         3.42E-5       -47.66        1.08E-5       -166.13       0.99971       -0.23          
85.4957       0.81665       -4.94         3.023E-5      137.34        3.372E-5      97.40         0.99969       -0.23          
86.0957       0.8168        -4.98         2.693E-5      -83.15        2.01E-5       -131.51       0.99967       -0.23          
86.6957       0.81667       -5.02         1.648E-5      -17.99        1.989E-5      -120.27       0.99966       -0.24          
87.2957       0.81663       -5.05         4.892E-5      103.71        1.728E-5      146.23        0.99973       -0.24          
87.8956       0.81667       -5.09         1.746E-5      -48.00        2.739E-5      -55.25        0.99971       -0.24          
88.4956       0.81666       -5.13         4.467E-5      63.71         2.593E-5      130.39        0.99975       -0.24          
89.0956       0.81662       -5.16         8.056E-5      125.09        4.809E-5      -34.74        0.99967       -0.24          
89.6955       0.81653       -5.21         2.738E-5      95.86         2.729E-5      27.75         0.99966       -0.25          
90.2955       0.81659       -5.24         1.535E-5      -75.23        1.924E-5      152.11        0.99968       -0.24          
90.8955       0.81641       -5.28         6.366E-5      -119.46       1.27E-5       -140.50       0.99968       -0.25          
91.4954       0.81641       -5.32         4.489E-5      -106.41       1.316E-5      -40.75        0.99974       -0.25          
92.0954       0.81642       -5.36         2.379E-5      132.28        3.00E-5       -134.05       0.99966       -0.25          
