!    8/6/2020   01:33:37 
! Ref Plane: 0.000 mm
# MHZ S MA R  50
!
0.3000        0.04771       178.48        9.879E-2      -1.06         9.66E-2       -0.85         0.81549       -0.30          
0.9000        0.04766       179.00        9.494E-2      -0.49         9.537E-2      -0.30         0.80986       -0.45          
1.4999        0.04774       179.13        9.513E-2      -0.35         9.54E-2       -0.40         0.8095        -0.61          
2.0999        0.04771       179.33        9.516E-2      -0.54         9.533E-2      -0.49         0.80951       -0.82          
2.6999        0.04776       179.53        9.521E-2      -0.66         9.535E-2      -0.65         0.80951       -1.00          
3.2999        0.04776       179.79        9.522E-2      -0.78         9.537E-2      -0.81         0.80957       -1.18          
3.8998        0.04782       179.96        9.517E-2      -0.93         9.535E-2      -0.97         0.80953       -1.36          
4.4998        0.04782       -179.85       9.519E-2      -1.08         9.535E-2      -1.07         0.80959       -1.53          
5.0998        0.04792       -179.57       9.519E-2      -1.19         9.534E-2      -1.19         0.80957       -1.70          
5.6997        0.04788       -179.35       9.52E-2       -1.34         9.539E-2      -1.37         0.80975       -1.89          
6.2997        0.04794       -179.20       9.516E-2      -1.51         9.538E-2      -1.49         0.80949       -2.07          
6.8997        0.04799       -178.99       9.52E-2       -1.67         9.534E-2      -1.63         0.80971       -2.25          
7.4996        0.04799       -178.69       9.522E-2      -1.78         9.535E-2      -1.79         0.80973       -2.45          
8.0996        0.04805       -178.53       9.52E-2       -1.93         9.535E-2      -1.93         0.8095        -2.63          
8.6996        0.04803       -178.34       9.521E-2      -2.04         9.54E-2       -2.03         0.80973       -2.80          
9.2996        0.04805       -178.08       9.528E-2      -2.21         9.54E-2       -2.22         0.80991       -2.98          
9.8995        0.0481        -177.87       9.522E-2      -2.35         9.536E-2      -2.35         0.80952       -3.15          
10.4995       0.04813       -177.69       9.518E-2      -2.50         9.539E-2      -2.49         0.80992       -3.33          
11.0995       0.04819       -177.46       9.523E-2      -2.62         9.54E-2       -2.61         0.81004       -3.50          
11.6994       0.0482        -177.24       9.521E-2      -2.76         9.539E-2      -2.75         0.81006       -3.69          
12.2994       0.0482        -177.04       9.52E-2       -2.91         9.536E-2      -2.88         0.80996       -3.86          
12.8994       0.04823       -176.83       9.525E-2      -2.99         9.538E-2      -3.05         0.80994       -4.03          
13.4993       0.04826       -176.62       9.534E-2      -3.20         9.537E-2      -3.20         0.81008       -4.23          
14.0993       0.04832       -176.47       9.527E-2      -3.29         9.538E-2      -3.34         0.81014       -4.38          
14.6993       0.04832       -176.20       9.525E-2      -3.49         9.543E-2      -3.47         0.81002       -4.56          
15.2993       0.04833       -176.06       9.524E-2      -3.57         9.539E-2      -3.60         0.81021       -4.74          
15.8992       0.0484        -175.85       9.528E-2      -3.71         9.538E-2      -3.78         0.81026       -4.90          
16.4992       0.04842       -175.68       9.526E-2      -3.87         9.542E-2      -3.92         0.81015       -5.09          
17.0992       0.04843       -175.44       9.53E-2       -3.98         9.539E-2      -4.04         0.81036       -5.26          
17.6991       0.04857       -175.22       9.53E-2       -4.14         9.54E-2       -4.20         0.81027       -5.45          
18.2991       0.04856       -175.07       9.523E-2      -4.28         9.546E-2      -4.33         0.8103        -5.60          
18.8991       0.04859       -174.84       9.531E-2      -4.44         9.546E-2      -4.45         0.81064       -5.77          
19.4990       0.04857       -174.67       9.535E-2      -4.59         9.543E-2      -4.60         0.81057       -5.95          
20.0990       0.04862       -174.42       9.529E-2      -4.70         9.544E-2      -4.74         0.81051       -6.13          
20.6990       0.0487        -174.24       9.533E-2      -4.89         9.551E-2      -4.89         0.81054       -6.29          
21.2990       0.04867       -174.00       9.53E-2       -5.01         9.546E-2      -5.01         0.81042       -6.46          
21.8989       0.04874       -173.88       9.534E-2      -5.16         9.549E-2      -5.15         0.81056       -6.65          
22.4989       0.04875       -173.66       9.533E-2      -5.31         9.557E-2      -5.30         0.81061       -6.82          
23.0989       0.04882       -173.52       9.534E-2      -5.42         9.554E-2      -5.45         0.81079       -7.00          
23.6988       0.04882       -173.21       9.539E-2      -5.56         9.554E-2      -5.60         0.81042       -7.17          
24.2988       0.04885       -173.10       9.536E-2      -5.69         9.551E-2      -5.73         0.81046       -7.33          
24.8988       0.04893       -172.91       9.535E-2      -5.86         9.552E-2      -5.88         0.81033       -7.51          
25.4987       0.04895       -172.75       9.541E-2      -5.96         9.55E-2       -6.02         0.81035       -7.68          
26.0987       0.04902       -172.51       9.533E-2      -6.13         9.554E-2      -6.14         0.81022       -7.86          
26.6987       0.04908       -172.33       9.534E-2      -6.25         9.553E-2      -6.28         0.81006       -8.02          
27.2987       0.04907       -172.11       9.543E-2      -6.39         9.554E-2      -6.42         0.8099        -8.20          
27.8986       0.04909       -171.95       9.54E-2       -6.56         9.555E-2      -6.57         0.80968       -8.36          
28.4986       0.04914       -171.74       9.543E-2      -6.68         9.555E-2      -6.72         0.80969       -8.55          
29.0986       0.04919       -171.67       9.543E-2      -6.81         9.556E-2      -6.87         0.80945       -8.70          
29.6985       0.04927       -171.45       9.543E-2      -6.95         9.554E-2      -6.97         0.80935       -8.89          
30.2985       0.04924       -171.29       9.541E-2      -7.10         9.554E-2      -7.15         0.80905       -9.06          
30.8985       0.04928       -171.02       9.545E-2      -7.26         9.55E-2       -7.27         0.80909       -9.24          
31.4984       0.04935       -170.86       9.539E-2      -7.36         9.552E-2      -7.39         0.80899       -9.40          
32.0984       0.0494        -170.76       9.544E-2      -7.52         9.56E-2       -7.54         0.809         -9.58          
32.6984       0.04943       -170.54       9.543E-2      -7.65         9.559E-2      -7.68         0.80888       -9.75          
33.2984       0.04947       -170.42       9.544E-2      -7.80         9.557E-2      -7.82         0.80882       -9.90          
33.8983       0.04949       -170.23       9.55E-2       -7.93         9.558E-2      -7.95         0.80895       -10.06         
34.4983       0.04957       -170.04       9.548E-2      -8.07         9.559E-2      -8.09         0.80909       -10.21         
35.0983       0.04953       -169.92       9.552E-2      -8.20         9.562E-2      -8.25         0.80915       -10.40         
35.6982       0.0496        -169.72       9.552E-2      -8.34         9.56E-2       -8.37         0.8093        -10.56         
36.2982       0.04964       -169.54       9.557E-2      -8.50         9.562E-2      -8.54         0.80927       -10.75         
36.8982       0.04967       -169.39       9.551E-2      -8.62         9.562E-2      -8.70         0.80919       -10.93         
37.4981       0.04975       -169.26       9.556E-2      -8.76         9.566E-2      -8.81         0.80913       -11.10         
38.0981       0.04978       -169.07       9.557E-2      -8.89         9.565E-2      -8.98         0.80915       -11.29         
38.6981       0.04981       -168.88       9.559E-2      -9.03         9.564E-2      -9.11         0.80908       -11.47         
39.2981       0.04983       -168.73       9.558E-2      -9.16         9.563E-2      -9.26         0.80906       -11.65         
39.8980       0.04987       -168.59       9.558E-2      -9.34         9.567E-2      -9.42         0.80894       -11.83         
40.4980       0.04987       -168.38       9.563E-2      -9.48         9.567E-2      -9.52         0.80894       -11.99         
41.0980       0.04997       -168.20       9.564E-2      -9.61         9.57E-2       -9.69         0.80868       -12.18         
41.6979       0.05          -168.10       9.562E-2      -9.75         9.569E-2      -9.83         0.80892       -12.37         
42.2979       0.05007       -167.96       9.563E-2      -9.89         9.572E-2      -9.98         0.80881       -12.57         
42.8979       0.05008       -167.82       9.561E-2      -10.06        9.569E-2      -10.10        0.80889       -12.75         
43.4978       0.05007       -167.69       9.564E-2      -10.17        9.574E-2      -10.25        0.80896       -12.94         
44.0978       0.05017       -167.53       9.564E-2      -10.34        9.573E-2      -10.40        0.80887       -13.13         
44.6978       0.05021       -167.44       9.563E-2      -10.50        9.571E-2      -10.56        0.80904       -13.33         
45.2978       0.05027       -167.26       9.569E-2      -10.63        9.574E-2      -10.67        0.80895       -13.52         
45.8977       0.05033       -167.06       9.564E-2      -10.78        9.575E-2      -10.83        0.80908       -13.70         
46.4977       0.05035       -166.96       9.563E-2      -10.93        9.574E-2      -10.95        0.80915       -13.89         
47.0977       0.05033       -166.76       9.568E-2      -11.08        9.579E-2      -11.13        0.81002       -14.07         
47.6976       0.0504        -166.60       9.569E-2      -11.22        9.573E-2      -11.27        0.81006       -14.25         
48.2976       0.05049       -166.53       9.572E-2      -11.38        9.576E-2      -11.40        0.81004       -14.42         
48.8976       0.05054       -166.36       9.568E-2      -11.54        9.576E-2      -11.55        0.81028       -14.62         
49.4975       0.05061       -166.18       9.568E-2      -11.68        9.584E-2      -11.68        0.81023       -14.79         
50.0975       0.05058       -166.06       9.568E-2      -11.79        9.578E-2      -11.85        0.81025       -14.97         
50.6975       0.05063       -165.90       9.567E-2      -11.95        9.578E-2      -12.01        0.8104        -15.16         
51.2975       0.05071       -165.79       9.567E-2      -12.10        9.583E-2      -12.18        0.81045       -15.35         
51.8974       0.05078       -165.68       9.566E-2      -12.25        9.588E-2      -12.33        0.81042       -15.52         
52.4974       0.05154       -165.75       9.567E-2      -12.35        9.657E-2      -12.63        0.80835       -15.71         
53.0974       0.05081       -165.31       9.585E-2      -12.58        9.549E-2      -12.54        0.80793       -15.82         
53.6973       0.05085       -165.16       9.567E-2      -12.68        9.582E-2      -12.75        0.81097       -16.08         
54.2973       0.05094       -165.09       9.57E-2       -12.82        9.586E-2      -12.89        0.81096       -16.27         
54.8973       0.05096       -164.93       9.57E-2       -12.99        9.583E-2      -13.03        0.81097       -16.43         
55.4972       0.05101       -164.80       9.57E-2       -13.09        9.587E-2      -13.15        0.81112       -16.61         
56.0972       0.05104       -164.64       9.572E-2      -13.24        9.585E-2      -13.30        0.81091       -16.79         
56.6972       0.0511        -164.45       9.57E-2       -13.40        9.582E-2      -13.41        0.81096       -16.95         
57.2972       0.05121       -164.29       9.571E-2      -13.54        9.585E-2      -13.55        0.81094       -17.14         
57.8971       0.0512        -164.15       9.57E-2       -13.67        9.586E-2      -13.69        0.81095       -17.31         
58.4971       0.05128       -164.02       9.578E-2      -13.80        9.591E-2      -13.84        0.81121       -17.50         
59.0971       0.05131       -163.88       9.577E-2      -13.94        9.589E-2      -13.98        0.81108       -17.66         
59.6970       0.05137       -163.69       9.58E-2       -14.08        9.593E-2      -14.12        0.81124       -17.85         
60.2970       0.05137       -163.53       9.58E-2       -14.21        9.591E-2      -14.26        0.81125       -18.02         
60.8970       0.05147       -163.37       9.585E-2      -14.36        9.597E-2      -14.43        0.81137       -18.21         
61.4969       0.05152       -163.26       9.582E-2      -14.50        9.596E-2      -14.56        0.81119       -18.39         
62.0969       0.05157       -163.09       9.587E-2      -14.64        9.599E-2      -14.68        0.81104       -18.56         
62.6969       0.05164       -163.00       9.592E-2      -14.76        9.597E-2      -14.86        0.81102       -18.74         
63.2969       0.05173       -162.85       9.592E-2      -14.90        9.605E-2      -14.98        0.81108       -18.93         
63.8968       0.0518        -162.73       9.597E-2      -15.06        9.608E-2      -15.12        0.81098       -19.08         
64.4968       0.05186       -162.57       9.597E-2      -15.21        9.612E-2      -15.29        0.81103       -19.27         
65.0968       0.05192       -162.42       9.597E-2      -15.33        9.617E-2      -15.41        0.811         -19.44         
65.6967       0.05202       -162.27       9.603E-2      -15.50        9.619E-2      -15.56        0.81103       -19.61         
66.2967       0.05204       -162.18       9.606E-2      -15.63        9.62E-2       -15.72        0.81097       -19.79         
66.8967       0.05207       -162.10       9.606E-2      -15.80        9.622E-2      -15.88        0.81086       -19.97         
67.4966       0.05217       -161.91       9.61E-2       -15.95        9.626E-2      -16.02        0.81079       -20.16         
68.0966       0.05221       -161.80       9.613E-2      -16.10        9.631E-2      -16.17        0.81084       -20.33         
68.6966       0.05231       -161.66       9.617E-2      -16.25        9.631E-2      -16.31        0.81085       -20.49         
69.2966       0.0524        -161.53       9.619E-2      -16.42        9.636E-2      -16.48        0.8108        -20.69         
69.8965       0.05247       -161.43       9.619E-2      -16.60        9.636E-2      -16.64        0.81083       -20.86         
70.4965       0.05249       -161.34       9.626E-2      -16.75        9.636E-2      -16.78        0.81101       -21.04         
71.0965       0.05253       -161.22       9.62E-2       -16.90        9.64E-2       -16.95        0.81105       -21.21         
71.6964       0.05265       -161.07       9.62E-2       -17.05        9.64E-2       -17.11        0.811         -21.38         
72.2964       0.05269       -161.01       9.629E-2      -17.23        9.638E-2      -17.26        0.81103       -21.55         
72.8964       0.05281       -160.90       9.628E-2      -17.38        9.644E-2      -17.41        0.81105       -21.75         
73.4963       0.05291       -160.73       9.627E-2      -17.56        9.644E-2      -17.56        0.81106       -21.91         
74.0963       0.05291       -160.63       9.633E-2      -17.68        9.647E-2      -17.73        0.81122       -22.10         
74.6963       0.05297       -160.59       9.634E-2      -17.85        9.649E-2      -17.87        0.81097       -22.26         
75.2963       0.05304       -160.42       9.634E-2      -18.02        9.652E-2      -18.04        0.8111        -22.44         
75.8962       0.05314       -160.34       9.635E-2      -18.17        9.655E-2      -18.21        0.81114       -22.61         
76.4962       0.05324       -160.17       9.64E-2       -18.32        9.657E-2      -18.36        0.81139       -22.79         
77.0962       0.0533        -160.10       9.644E-2      -18.47        9.659E-2      -18.50        0.8114        -22.96         
77.6961       0.05335       -160.02       9.646E-2      -18.66        9.663E-2      -18.71        0.8117        -23.13         
78.2961       0.05349       -159.88       9.645E-2      -18.78        9.664E-2      -18.81        0.81166       -23.31         
78.8961       0.05347       -159.80       9.646E-2      -18.97        9.664E-2      -19.00        0.81183       -23.47         
79.4960       0.05359       -159.65       9.651E-2      -19.14        9.669E-2      -19.16        0.81208       -23.63         
80.0960       0.05363       -159.56       9.652E-2      -19.31        9.669E-2      -19.33        0.8121        -23.82         
80.6960       0.0537        -159.53       9.656E-2      -19.45        9.671E-2      -19.48        0.81223       -23.97         
81.2960       0.05379       -159.44       9.659E-2      -19.65        9.673E-2      -19.65        0.81242       -24.14         
81.8959       0.05387       -159.31       9.66E-2       -19.79        9.68E-2       -19.81        0.81259       -24.31         
82.4959       0.05396       -159.21       9.66E-2       -19.95        9.68E-2       -19.98        0.81285       -24.49         
83.0959       0.05403       -159.12       9.663E-2      -20.15        9.68E-2       -20.14        0.81296       -24.64         
83.6958       0.05411       -158.99       9.668E-2      -20.31        9.681E-2      -20.35        0.81315       -24.82         
84.2958       0.05417       -158.90       9.67E-2       -20.49        9.681E-2      -20.50        0.81329       -24.98         
84.8958       0.05427       -158.80       9.67E-2       -20.67        9.684E-2      -20.70        0.81334       -25.15         
85.4957       0.05434       -158.76       9.677E-2      -20.87        9.688E-2      -20.89        0.81365       -25.32         
86.0957       0.05441       -158.66       9.676E-2      -21.03        9.687E-2      -21.08        0.81363       -25.50         
86.6957       0.05446       -158.52       9.674E-2      -21.23        9.691E-2      -21.27        0.81385       -25.66         
87.2957       0.05454       -158.48       9.68E-2       -21.42        9.691E-2      -21.46        0.81411       -25.83         
87.8956       0.05458       -158.43       9.679E-2      -21.62        9.688E-2      -21.64        0.81422       -25.99         
88.4956       0.05473       -158.33       9.679E-2      -21.81        9.692E-2      -21.86        0.81439       -26.14         
89.0956       0.05481       -158.28       9.68E-2       -22.02        9.69E-2       -22.07        0.81466       -26.30         
89.6955       0.05484       -158.21       9.684E-2      -22.23        9.689E-2      -22.28        0.815         -26.46         
90.2955       0.05494       -158.15       9.683E-2      -22.43        9.689E-2      -22.48        0.81537       -26.63         
90.8955       0.05496       -158.18       9.679E-2      -22.69        9.682E-2      -22.71        0.81562       -26.79         
91.4954       0.05502       -158.13       9.676E-2      -22.93        9.677E-2      -22.98        0.81604       -26.96         
92.0954       0.05503       -158.12       9.667E-2      -23.19        9.671E-2      -23.23        0.81631       -27.11         
