!    8/6/2020   01:32:41 
! Ref Plane: 0.000 mm
# MHZ S MA R  50
!
0.3000        0.04765       178.42        9.888E-2      -1.10         9.656E-2      -0.78         0.81565       -0.33          
0.9000        0.0477        178.90        9.491E-2      -0.50         9.543E-2      -0.28         0.81006       -0.48          
1.4999        0.04777       179.11        9.51E-2       -0.34         9.538E-2      -0.38         0.80943       -0.64          
2.0999        0.04773       179.36        9.515E-2      -0.49         9.536E-2      -0.44         0.8095        -0.85          
2.6999        0.04778       179.60        9.521E-2      -0.61         9.535E-2      -0.56         0.80935       -1.03          
3.2999        0.04774       179.87        9.522E-2      -0.70         9.534E-2      -0.72         0.80961       -1.22          
3.8998        0.04785       -179.92       9.516E-2      -0.85         9.535E-2      -0.85         0.80954       -1.41          
4.4998        0.04785       -179.71       9.519E-2      -0.98         9.535E-2      -0.94         0.80959       -1.57          
5.0998        0.04792       -179.41       9.52E-2       -1.05         9.533E-2      -1.04         0.80958       -1.75          
5.6997        0.04788       -179.14       9.521E-2      -1.19         9.539E-2      -1.21         0.80976       -1.94          
6.2997        0.04791       -179.03       9.519E-2      -1.33         9.539E-2      -1.31         0.80948       -2.14          
6.8997        0.04797       -178.76       9.521E-2      -1.49         9.533E-2      -1.44         0.80967       -2.32          
7.4996        0.04799       -178.48       9.519E-2      -1.56         9.535E-2      -1.56         0.80972       -2.52          
8.0996        0.04802       -178.28       9.517E-2      -1.70         9.536E-2      -1.68         0.8095        -2.71          
8.6996        0.04804       -178.05       9.52E-2       -1.80         9.535E-2      -1.79         0.80968       -2.88          
9.2996        0.04805       -177.78       9.526E-2      -1.93         9.54E-2       -1.95         0.80982       -3.06          
9.8995        0.04807       -177.51       9.522E-2      -2.09         9.537E-2      -2.05         0.8095        -3.24          
10.4995       0.04811       -177.36       9.52E-2       -2.20         9.538E-2      -2.17         0.80987       -3.42          
11.0995       0.04818       -177.12       9.524E-2      -2.30         9.538E-2      -2.29         0.80997       -3.60          
11.6994       0.04818       -176.84       9.523E-2      -2.42         9.537E-2      -2.41         0.80997       -3.79          
12.2994       0.04818       -176.62       9.52E-2       -2.55         9.535E-2      -2.51         0.80994       -3.97          
12.8994       0.04821       -176.40       9.523E-2      -2.61         9.537E-2      -2.65         0.80992       -4.14          
13.4993       0.04823       -176.16       9.531E-2      -2.81         9.534E-2      -2.80         0.81006       -4.34          
14.0993       0.04829       -175.97       9.525E-2      -2.88         9.535E-2      -2.91         0.81006       -4.50          
14.6993       0.0483        -175.71       9.518E-2      -3.07         9.538E-2      -3.03         0.80997       -4.68          
15.2993       0.04832       -175.52       9.522E-2      -3.11         9.535E-2      -3.17         0.81011       -4.87          
15.8992       0.04835       -175.32       9.523E-2      -3.22         9.534E-2      -3.27         0.81021       -5.03          
16.4992       0.04837       -175.09       9.521E-2      -3.38         9.536E-2      -3.42         0.81002       -5.23          
17.0992       0.0484        -174.84       9.527E-2      -3.46         9.535E-2      -3.51         0.81021       -5.41          
17.6991       0.04852       -174.61       9.524E-2      -3.60         9.536E-2      -3.66         0.81017       -5.60          
18.2991       0.04849       -174.39       9.52E-2       -3.74         9.539E-2      -3.78         0.81018       -5.75          
18.8991       0.04852       -174.21       9.527E-2      -3.87         9.538E-2      -3.87         0.81046       -5.93          
19.4990       0.04855       -173.96       9.529E-2      -4.00         9.538E-2      -4.00         0.81043       -6.11          
20.0990       0.04859       -173.72       9.526E-2      -4.09         9.537E-2      -4.14         0.81034       -6.30          
20.6990       0.04862       -173.54       9.529E-2      -4.25         9.542E-2      -4.25         0.8104        -6.46          
21.2990       0.04863       -173.28       9.522E-2      -4.36         9.542E-2      -4.36         0.81026       -6.64          
21.8989       0.04868       -173.11       9.527E-2      -4.49         9.539E-2      -4.49         0.81036       -6.83          
22.4989       0.04869       -172.88       9.522E-2      -4.63         9.547E-2      -4.60         0.81041       -7.01          
23.0989       0.04878       -172.72       9.524E-2      -4.71         9.544E-2      -4.74         0.81057       -7.19          
23.6988       0.04876       -172.43       9.531E-2      -4.83         9.543E-2      -4.87         0.81018       -7.37          
24.2988       0.04879       -172.24       9.526E-2      -4.95         9.541E-2      -4.97         0.81019       -7.54          
24.8988       0.04887       -172.00       9.523E-2      -5.08         9.541E-2      -5.11         0.81011       -7.72          
25.4987       0.0489        -171.82       9.53E-2       -5.17         9.537E-2      -5.25         0.81009       -7.89          
26.0987       0.04896       -171.56       9.523E-2      -5.31         9.542E-2      -5.34         0.80998       -8.07          
26.6987       0.04902       -171.36       9.522E-2      -5.41         9.54E-2       -5.46         0.80977       -8.24          
27.2987       0.04902       -171.13       9.531E-2      -5.54         9.541E-2      -5.60         0.80961       -8.42          
27.8986       0.04906       -170.97       9.527E-2      -5.68         9.541E-2      -5.68         0.80936       -8.58          
28.4986       0.04908       -170.70       9.529E-2      -5.80         9.54E-2       -5.82         0.80935       -8.78          
29.0986       0.04911       -170.60       9.528E-2      -5.91         9.542E-2      -5.96         0.80913       -8.94          
29.6985       0.0492        -170.38       9.527E-2      -6.03         9.538E-2      -6.05         0.80897       -9.13          
30.2985       0.04918       -170.17       9.523E-2      -6.18         9.538E-2      -6.21         0.8087        -9.31          
30.8985       0.04923       -169.90       9.527E-2      -6.31         9.536E-2      -6.30         0.80872       -9.49          
31.4984       0.04927       -169.75       9.525E-2      -6.38         9.534E-2      -6.42         0.80862       -9.66          
32.0984       0.04929       -169.62       9.526E-2      -6.53         9.541E-2      -6.54         0.80858       -9.83          
32.6984       0.04934       -169.37       9.527E-2      -6.63         9.54E-2       -6.65         0.80846       -10.01         
33.2984       0.04937       -169.23       9.526E-2      -6.75         9.538E-2      -6.77         0.80835       -10.17         
33.8983       0.04938       -169.04       9.533E-2      -6.86         9.538E-2      -6.90         0.80849       -10.33         
34.4983       0.04944       -168.83       9.528E-2      -6.96         9.539E-2      -6.98         0.80866       -10.49         
35.0983       0.04945       -168.64       9.532E-2      -7.10         9.539E-2      -7.15         0.80866       -10.69         
35.6982       0.0495        -168.47       9.532E-2      -7.21         9.539E-2      -7.24         0.80878       -10.85         
36.2982       0.04956       -168.24       9.533E-2      -7.34         9.538E-2      -7.42         0.80871       -11.05         
36.8982       0.04956       -168.07       9.53E-2       -7.47         9.54E-2       -7.52         0.80861       -11.22         
37.4981       0.04961       -167.87       9.53E-2       -7.56         9.54E-2       -7.62         0.80853       -11.41         
38.0981       0.04965       -167.68       9.534E-2      -7.68         9.539E-2      -7.76         0.80852       -11.60         
38.6981       0.04968       -167.49       9.534E-2      -7.79         9.537E-2      -7.87         0.80845       -11.79         
39.2981       0.04974       -167.33       9.532E-2      -7.91         9.533E-2      -7.98         0.80841       -11.97         
39.8980       0.04978       -167.17       9.534E-2      -8.07         9.536E-2      -8.16         0.8083        -12.16         
40.4980       0.04977       -166.91       9.533E-2      -8.19         9.538E-2      -8.22         0.80827       -12.33         
41.0980       0.04985       -166.71       9.535E-2      -8.30         9.539E-2      -8.35         0.80796       -12.52         
41.6979       0.04987       -166.56       9.532E-2      -8.41         9.538E-2      -8.48         0.80817       -12.71         
42.2979       0.04992       -166.41       9.531E-2      -8.53         9.543E-2      -8.60         0.80804       -12.91         
42.8979       0.04996       -166.25       9.533E-2      -8.67         9.54E-2       -8.72         0.8081        -13.10         
43.4978       0.04996       -166.10       9.532E-2      -8.78         9.538E-2      -8.84         0.8081        -13.30         
44.0978       0.05005       -165.90       9.535E-2      -8.91         9.538E-2      -8.97         0.80802       -13.50         
44.6978       0.05008       -165.80       9.529E-2      -9.01         9.539E-2      -9.11         0.80813       -13.70         
45.2978       0.05012       -165.64       9.532E-2      -9.17         9.538E-2      -9.20         0.80798       -13.89         
45.8977       0.05021       -165.39       9.53E-2       -9.29         9.539E-2      -9.33         0.80815       -14.07         
46.4977       0.05021       -165.24       9.526E-2      -9.42         9.536E-2      -9.44         0.80814       -14.27         
47.0977       0.05022       -165.05       9.531E-2      -9.54         9.542E-2      -9.57         0.80899       -14.46         
47.6976       0.05028       -164.84       9.529E-2      -9.68         9.533E-2      -9.70         0.80902       -14.64         
48.2976       0.05034       -164.72       9.534E-2      -9.80         9.536E-2      -9.81         0.809         -14.82         
48.8976       0.05036       -164.55       9.531E-2      -9.91         9.537E-2      -9.94         0.80918       -15.02         
49.4975       0.05044       -164.38       9.528E-2      -10.06        9.543E-2      -10.05        0.809         -15.19         
50.0975       0.05044       -164.20       9.528E-2      -10.16        9.535E-2      -10.19        0.80905       -15.38         
50.6975       0.05052       -164.01       9.529E-2      -10.30        9.54E-2       -10.32        0.80917       -15.58         
51.2975       0.05056       -163.86       9.528E-2      -10.40        9.541E-2      -10.46        0.80918       -15.77         
51.8974       0.05063       -163.73       9.523E-2      -10.53        9.54E-2       -10.57        0.80909       -15.95         
52.4974       0.05137       -163.82       9.523E-2      -10.59        9.612E-2      -10.89        0.80698       -16.14         
53.0974       0.05065       -163.35       9.54E-2       -10.81        9.513E-2      -10.76        0.80657       -16.25         
53.6973       0.05071       -163.16       9.525E-2      -10.88        9.539E-2      -10.93        0.80949       -16.52         
54.2973       0.05077       -163.05       9.525E-2      -11.00        9.54E-2       -11.08        0.80946       -16.71         
54.8973       0.05081       -162.89       9.524E-2      -11.15        9.536E-2      -11.20        0.80942       -16.88         
55.4972       0.05085       -162.72       9.526E-2      -11.25        9.539E-2      -11.30        0.8095        -17.05         
56.0972       0.05091       -162.56       9.526E-2      -11.38        9.536E-2      -11.43        0.80929       -17.25         
56.6972       0.05095       -162.36       9.524E-2      -11.50        9.535E-2      -11.52        0.8093        -17.41         
57.2972       0.05106       -162.16       9.523E-2      -11.62        9.538E-2      -11.63        0.80923       -17.60         
57.8971       0.05104       -161.99       9.522E-2      -11.75        9.536E-2      -11.76        0.80922       -17.78         
58.4971       0.05112       -161.83       9.527E-2      -11.87        9.537E-2      -11.93        0.80944       -17.97         
59.0971       0.05114       -161.70       9.526E-2      -11.97        9.536E-2      -12.00        0.80932       -18.14         
59.6970       0.05117       -161.49       9.528E-2      -12.08        9.538E-2      -12.16        0.80945       -18.33         
60.2970       0.05123       -161.32       9.523E-2      -12.21        9.533E-2      -12.27        0.80942       -18.50         
60.8970       0.0513        -161.14       9.527E-2      -12.37        9.539E-2      -12.42        0.80954       -18.69         
61.4969       0.05132       -161.01       9.523E-2      -12.48        9.537E-2      -12.53        0.80934       -18.87         
62.0969       0.05138       -160.82       9.524E-2      -12.61        9.536E-2      -12.66        0.8092        -19.06         
62.6969       0.0514        -160.73       9.527E-2      -12.71        9.532E-2      -12.79        0.80914       -19.24         
63.2969       0.05149       -160.53       9.524E-2      -12.84        9.536E-2      -12.88        0.80918       -19.43         
63.8968       0.05153       -160.40       9.524E-2      -12.95        9.534E-2      -13.03        0.80908       -19.59         
64.4968       0.0516        -160.23       9.525E-2      -13.09        9.537E-2      -13.15        0.8091        -19.79         
65.0968       0.05165       -160.04       9.523E-2      -13.22        9.537E-2      -13.28        0.80902       -19.96         
65.6967       0.05173       -159.87       9.525E-2      -13.33        9.535E-2      -13.40        0.80903       -20.14         
66.2967       0.05173       -159.72       9.523E-2      -13.44        9.533E-2      -13.52        0.809         -20.33         
66.8967       0.05177       -159.59       9.521E-2      -13.57        9.534E-2      -13.64        0.80882       -20.51         
67.4966       0.05181       -159.42       9.516E-2      -13.68        9.536E-2      -13.78        0.80879       -20.71         
68.0966       0.05184       -159.27       9.518E-2      -13.81        9.536E-2      -13.86        0.80879       -20.88         
68.6966       0.05193       -159.06       9.52E-2       -13.93        9.535E-2      -14.00        0.80879       -21.05         
69.2966       0.05203       -158.90       9.519E-2      -14.05        9.535E-2      -14.09        0.80865       -21.26         
69.8965       0.05208       -158.75       9.52E-2       -14.21        9.537E-2      -14.23        0.80867       -21.44         
70.4965       0.05211       -158.63       9.521E-2      -14.28        9.531E-2      -14.36        0.80874       -21.62         
71.0965       0.05215       -158.46       9.516E-2      -14.44        9.535E-2      -14.47        0.80874       -21.80         
71.6964       0.05226       -158.28       9.515E-2      -14.56        9.532E-2      -14.60        0.80862       -21.98         
72.2964       0.05228       -158.19       9.52E-2       -14.69        9.528E-2      -14.74        0.80861       -22.16         
72.8964       0.05238       -158.07       9.519E-2      -14.82        9.531E-2      -14.85        0.8086        -22.36         
73.4963       0.05244       -157.86       9.515E-2      -14.96        9.527E-2      -14.98        0.80861       -22.54         
74.0963       0.05245       -157.71       9.517E-2      -15.06        9.53E-2       -15.10        0.80864       -22.73         
74.6963       0.05251       -157.62       9.513E-2      -15.20        9.527E-2      -15.21        0.80842       -22.89         
75.2963       0.05259       -157.45       9.512E-2      -15.31        9.529E-2      -15.33        0.80848       -23.08         
75.8962       0.05262       -157.30       9.516E-2      -15.44        9.526E-2      -15.46        0.80848       -23.26         
76.4962       0.05271       -157.07       9.514E-2      -15.53        9.529E-2      -15.60        0.80862       -23.45         
77.0962       0.05276       -156.98       9.512E-2      -15.67        9.527E-2      -15.69        0.80862       -23.63         
77.6961       0.05284       -156.87       9.51E-2       -15.79        9.529E-2      -15.85        0.80883       -23.81         
78.2961       0.05295       -156.66       9.511E-2      -15.89        9.525E-2      -15.93        0.80871       -23.99         
78.8961       0.05296       -156.55       9.508E-2      -16.05        9.526E-2      -16.05        0.80881       -24.16         
79.4960       0.05304       -156.37       9.511E-2      -16.15        9.526E-2      -16.20        0.80896       -24.33         
80.0960       0.05304       -156.24       9.51E-2       -16.29        9.527E-2      -16.29        0.80895       -24.52         
80.6960       0.05312       -156.15       9.508E-2      -16.41        9.522E-2      -16.42        0.80902       -24.70         
81.2960       0.05318       -155.99       9.511E-2      -16.52        9.527E-2      -16.53        0.80909       -24.87         
81.8959       0.05327       -155.81       9.51E-2       -16.62        9.527E-2      -16.65        0.80923       -25.04         
82.4959       0.05334       -155.69       9.507E-2      -16.76        9.526E-2      -16.76        0.80935       -25.24         
83.0959       0.05341       -155.51       9.507E-2      -16.87        9.524E-2      -16.88        0.80943       -25.39         
83.6958       0.05348       -155.34       9.508E-2      -16.99        9.522E-2      -17.02        0.8095        -25.59         
84.2958       0.05353       -155.19       9.509E-2      -17.12        9.521E-2      -17.12        0.80956       -25.76         
84.8958       0.0536        -155.05       9.508E-2      -17.25        9.519E-2      -17.28        0.80948       -25.93         
85.4957       0.05366       -154.95       9.51E-2       -17.36        9.52E-2       -17.41        0.80967       -26.12         
86.0957       0.0537        -154.77       9.509E-2      -17.49        9.52E-2       -17.52        0.80951       -26.31         
86.6957       0.05377       -154.55       9.505E-2      -17.62        9.519E-2      -17.64        0.80966       -26.48         
87.2957       0.05388       -154.47       9.509E-2      -17.73        9.518E-2      -17.77        0.80977       -26.66         
87.8956       0.05388       -154.33       9.507E-2      -17.85        9.515E-2      -17.89        0.80972       -26.83         
88.4956       0.05403       -154.16       9.504E-2      -17.95        9.515E-2      -17.99        0.80968       -27.00         
89.0956       0.05408       -153.97       9.504E-2      -18.08        9.514E-2      -18.13        0.80978       -27.17         
89.6955       0.05413       -153.81       9.508E-2      -18.19        9.512E-2      -18.23        0.80991       -27.35         
90.2955       0.05422       -153.66       9.506E-2      -18.31        9.514E-2      -18.33        0.81003       -27.53         
90.8955       0.05427       -153.57       9.508E-2      -18.43        9.509E-2      -18.46        0.81          -27.70         
91.4954       0.05435       -153.35       9.509E-2      -18.56        9.51E-2       -18.60        0.81007       -27.89         
92.0954       0.05443       -153.19       9.506E-2      -18.68        9.509E-2      -18.70        0.80991       -28.05         
