!    8/6/2020   01:30:26 
! Ref Plane: 0.000 mm
# MHZ S MA R  50
!
0.3000        0.04725       178.49        9.886E-2      -1.01         9.662E-2      -0.65         0.81619       -0.25          
0.9000        0.04753       179.09        9.489E-2      -0.44         9.542E-2      -0.11         0.81035       -0.43          
1.4999        0.04768       179.25        9.511E-2      -0.26         9.539E-2      -0.20         0.80956       -0.59          
2.0999        0.04765       179.50        9.515E-2      -0.41         9.534E-2      -0.28         0.80964       -0.80          
2.6999        0.04773       179.73        9.52E-2       -0.53         9.533E-2      -0.42         0.8095        -0.98          
3.2999        0.04773       -179.98       9.522E-2      -0.60         9.534E-2      -0.55         0.80973       -1.17          
3.8998        0.04782       -179.76       9.517E-2      -0.75         9.533E-2      -0.67         0.80966       -1.36          
4.4998        0.04781       -179.58       9.521E-2      -0.88         9.533E-2      -0.77         0.80972       -1.53          
5.0998        0.0479        -179.28       9.519E-2      -0.96         9.533E-2      -0.87         0.80972       -1.71          
5.6997        0.04789       -178.98       9.518E-2      -1.08         9.534E-2      -1.02         0.80986       -1.90          
6.2997        0.04793       -178.88       9.518E-2      -1.23         9.532E-2      -1.14         0.80963       -2.10          
6.8997        0.04797       -178.61       9.517E-2      -1.37         9.53E-2       -1.24         0.80985       -2.28          
7.4996        0.04802       -178.34       9.518E-2      -1.45         9.533E-2      -1.36         0.80984       -2.48          
8.0996        0.04806       -178.14       9.517E-2      -1.58         9.534E-2      -1.49         0.8096        -2.67          
8.6996        0.04808       -177.87       9.519E-2      -1.67         9.531E-2      -1.59         0.80983       -2.85          
9.2996        0.04808       -177.64       9.524E-2      -1.80         9.534E-2      -1.74         0.80999       -3.03          
9.8995        0.04811       -177.40       9.52E-2       -1.95         9.533E-2      -1.86         0.80962       -3.21          
10.4995       0.04818       -177.20       9.514E-2      -2.07         9.532E-2      -1.97         0.81002       -3.39          
11.0995       0.04822       -176.97       9.519E-2      -2.16         9.532E-2      -2.08         0.81013       -3.58          
11.6994       0.04824       -176.74       9.52E-2       -2.27         9.531E-2      -2.18         0.81019       -3.77          
12.2994       0.04826       -176.51       9.515E-2      -2.40         9.528E-2      -2.31         0.81012       -3.94          
12.8994       0.04829       -176.27       9.519E-2      -2.47         9.53E-2       -2.44         0.81012       -4.12          
13.4993       0.0483        -176.04       9.526E-2      -2.66         9.528E-2      -2.57         0.81025       -4.32          
14.0993       0.04837       -175.86       9.52E-2       -2.72         9.526E-2      -2.68         0.81032       -4.48          
14.6993       0.04836       -175.58       9.514E-2      -2.89         9.532E-2      -2.78         0.81022       -4.66          
15.2993       0.0484        -175.37       9.516E-2      -2.94         9.528E-2      -2.92         0.81041       -4.85          
15.8992       0.04843       -175.18       9.518E-2      -3.07         9.527E-2      -3.05         0.81047       -5.01          
16.4992       0.04848       -175.00       9.516E-2      -3.20         9.529E-2      -3.18         0.81034       -5.21          
17.0992       0.04852       -174.73       9.519E-2      -3.29         9.527E-2      -3.26         0.81054       -5.38          
17.6991       0.04862       -174.50       9.517E-2      -3.42         9.526E-2      -3.42         0.8105        -5.57          
18.2991       0.04859       -174.32       9.512E-2      -3.55         9.528E-2      -3.51         0.81053       -5.73          
18.8991       0.04865       -174.10       9.517E-2      -3.68         9.528E-2      -3.60         0.81084       -5.90          
19.4990       0.04864       -173.85       9.521E-2      -3.80         9.527E-2      -3.73         0.81082       -6.09          
20.0990       0.04869       -173.63       9.515E-2      -3.91         9.526E-2      -3.85         0.81071       -6.27          
20.6990       0.04871       -173.44       9.519E-2      -4.06         9.529E-2      -3.98         0.81083       -6.44          
21.2990       0.04872       -173.17       9.514E-2      -4.17         9.529E-2      -4.09         0.8107        -6.61          
21.8989       0.04879       -173.04       9.514E-2      -4.27         9.526E-2      -4.19         0.81087       -6.81          
22.4989       0.04882       -172.79       9.511E-2      -4.42         9.534E-2      -4.31         0.8109        -6.98          
23.0989       0.04889       -172.61       9.513E-2      -4.51         9.531E-2      -4.43         0.81111       -7.16          
23.6988       0.04888       -172.33       9.515E-2      -4.60         9.53E-2       -4.56         0.81073       -7.34          
24.2988       0.04891       -172.13       9.512E-2      -4.71         9.527E-2      -4.67         0.81077       -7.50          
24.8988       0.04897       -171.93       9.509E-2      -4.84         9.527E-2      -4.80         0.81069       -7.68          
25.4987       0.049         -171.78       9.516E-2      -4.94         9.523E-2      -4.91         0.81072       -7.85          
26.0987       0.04905       -171.51       9.508E-2      -5.07         9.529E-2      -5.00         0.81061       -8.03          
26.6987       0.04913       -171.29       9.508E-2      -5.17         9.523E-2      -5.12         0.81053       -8.19          
27.2987       0.04914       -171.08       9.516E-2      -5.29         9.524E-2      -5.23         0.81035       -8.38          
27.8986       0.04915       -170.89       9.511E-2      -5.43         9.519E-2      -5.34         0.81016       -8.54          
28.4986       0.04919       -170.66       9.512E-2      -5.52         9.523E-2      -5.48         0.8101        -8.73          
29.0986       0.04922       -170.54       9.513E-2      -5.61         9.519E-2      -5.59         0.80991       -8.88          
29.6985       0.04932       -170.31       9.509E-2      -5.74         9.52E-2       -5.67         0.80982       -9.07          
30.2985       0.04928       -170.11       9.506E-2      -5.87         9.517E-2      -5.84         0.80954       -9.24          
30.8985       0.04934       -169.85       9.507E-2      -5.99         9.514E-2      -5.91         0.80958       -9.42          
31.4984       0.04939       -169.67       9.505E-2      -6.09         9.511E-2      -6.03         0.80952       -9.58          
32.0984       0.04941       -169.54       9.505E-2      -6.22         9.517E-2      -6.15         0.80954       -9.76          
32.6984       0.04944       -169.31       9.504E-2      -6.30         9.514E-2      -6.25         0.80945       -9.93          
33.2984       0.04949       -169.17       9.506E-2      -6.42         9.514E-2      -6.37         0.80939       -10.08         
33.8983       0.04948       -168.94       9.509E-2      -6.53         9.513E-2      -6.48         0.80955       -10.24         
34.4983       0.04957       -168.72       9.508E-2      -6.64         9.514E-2      -6.58         0.80975       -10.39         
35.0983       0.04958       -168.58       9.507E-2      -6.74         9.514E-2      -6.72         0.80979       -10.57         
35.6982       0.04961       -168.38       9.506E-2      -6.85         9.511E-2      -6.80         0.80996       -10.74         
36.2982       0.04967       -168.18       9.507E-2      -6.98         9.513E-2      -6.96         0.80992       -10.93         
36.8982       0.04967       -167.97       9.507E-2      -7.10         9.511E-2      -7.06         0.80988       -11.10         
37.4981       0.04974       -167.83       9.504E-2      -7.19         9.514E-2      -7.15         0.80983       -11.27         
38.0981       0.04978       -167.61       9.508E-2      -7.30         9.511E-2      -7.28         0.80986       -11.46         
38.6981       0.04979       -167.42       9.506E-2      -7.39         9.511E-2      -7.41         0.80984       -11.64         
39.2981       0.04983       -167.26       9.503E-2      -7.51         9.506E-2      -7.51         0.80985       -11.81         
39.8980       0.04986       -167.09       9.503E-2      -7.64         9.506E-2      -7.65         0.80974       -11.99         
40.4980       0.04987       -166.89       9.505E-2      -7.77         9.506E-2      -7.73         0.80978       -12.15         
41.0980       0.04995       -166.66       9.506E-2      -7.87         9.508E-2      -7.86         0.80952       -12.34         
41.6979       0.04999       -166.50       9.502E-2      -7.97         9.506E-2      -7.98         0.8098        -12.52         
42.2979       0.05002       -166.37       9.501E-2      -8.09         9.509E-2      -8.08         0.8097        -12.71         
42.8979       0.05006       -166.20       9.50E-2       -8.22         9.506E-2      -8.18         0.80981       -12.89         
43.4978       0.05004       -166.02       9.498E-2      -8.31         9.508E-2      -8.30         0.80983       -13.08         
44.0978       0.05011       -165.84       9.498E-2      -8.43         9.506E-2      -8.41         0.80981       -13.27         
44.6978       0.05017       -165.74       9.498E-2      -8.56         9.505E-2      -8.54         0.81          -13.46         
45.2978       0.05022       -165.56       9.499E-2      -8.66         9.504E-2      -8.63         0.80993       -13.64         
45.8977       0.05029       -165.32       9.496E-2      -8.78         9.505E-2      -8.76         0.81012       -13.82         
46.4977       0.05028       -165.20       9.492E-2      -8.90         9.501E-2      -8.85         0.81008       -14.01         
47.0977       0.05028       -164.98       9.499E-2      -9.01         9.507E-2      -8.98         0.81101       -14.18         
47.6976       0.05034       -164.79       9.494E-2      -9.15         9.499E-2      -9.08         0.81113       -14.36         
48.2976       0.05039       -164.67       9.499E-2      -9.26         9.499E-2      -9.20         0.81116       -14.52         
48.8976       0.05045       -164.48       9.494E-2      -9.38         9.50E-2       -9.31         0.81135       -14.71         
49.4975       0.05048       -164.31       9.493E-2      -9.49         9.507E-2      -9.42         0.81126       -14.87         
50.0975       0.0505        -164.17       9.49E-2       -9.58         9.498E-2      -9.54         0.81134       -15.05         
50.6975       0.05051       -163.93       9.492E-2      -9.71         9.50E-2       -9.65         0.8115        -15.23         
51.2975       0.0506        -163.82       9.49E-2       -9.81         9.503E-2      -9.82         0.8116        -15.42         
51.8974       0.05068       -163.69       9.486E-2      -9.93         9.50E-2       -9.90         0.81155       -15.58         
52.4974       0.0514        -163.79       9.485E-2      -10.00        9.57E-2       -10.19        0.80949       -15.77         
53.0974       0.05071       -163.28       9.505E-2      -10.21        9.463E-2      -10.07        0.80913       -15.85         
53.6973       0.05074       -163.10       9.487E-2      -10.25        9.50E-2       -10.24        0.81214       -16.12         
54.2973       0.05076       -162.99       9.487E-2      -10.38        9.498E-2      -10.37        0.81212       -16.30         
54.8973       0.05081       -162.84       9.487E-2      -10.49        9.496E-2      -10.47        0.81217       -16.45         
55.4972       0.05087       -162.69       9.487E-2      -10.58        9.501E-2      -10.57        0.81228       -16.62         
56.0972       0.0509        -162.52       9.488E-2      -10.71        9.499E-2      -10.68        0.81218       -16.80         
56.6972       0.05096       -162.31       9.486E-2      -10.82        9.494E-2      -10.75        0.81219       -16.95         
57.2972       0.05104       -162.10       9.484E-2      -10.92        9.497E-2      -10.86        0.81222       -17.12         
57.8971       0.051         -161.93       9.484E-2      -11.04        9.498E-2      -11.00        0.81226       -17.29         
58.4971       0.05109       -161.83       9.489E-2      -11.17        9.498E-2      -11.14        0.81246       -17.47         
59.0971       0.05112       -161.65       9.486E-2      -11.26        9.497E-2      -11.20        0.81246       -17.62         
59.6970       0.05114       -161.44       9.486E-2      -11.36        9.498E-2      -11.35        0.81266       -17.80         
60.2970       0.05119       -161.28       9.481E-2      -11.46        9.493E-2      -11.45        0.81267       -17.96         
60.8970       0.05125       -161.11       9.484E-2      -11.61        9.497E-2      -11.58        0.81281       -18.13         
61.4969       0.05127       -160.98       9.484E-2      -11.71        9.496E-2      -11.70        0.81273       -18.31         
62.0969       0.05131       -160.78       9.485E-2      -11.83        9.497E-2      -11.79        0.81263       -18.47         
62.6969       0.05134       -160.69       9.486E-2      -11.93        9.492E-2      -11.92        0.81258       -18.64         
63.2969       0.05143       -160.49       9.484E-2      -12.03        9.495E-2      -12.01        0.8127        -18.82         
63.8968       0.05146       -160.36       9.483E-2      -12.14        9.497E-2      -12.15        0.8127        -18.97         
64.4968       0.05152       -160.18       9.487E-2      -12.28        9.495E-2      -12.28        0.81282       -19.15         
65.0968       0.05154       -159.99       9.482E-2      -12.39        9.497E-2      -12.38        0.81286       -19.31         
65.6967       0.05163       -159.84       9.485E-2      -12.51        9.497E-2      -12.48        0.81284       -19.47         
66.2967       0.05163       -159.68       9.482E-2      -12.59        9.494E-2      -12.61        0.81291       -19.65         
66.8967       0.05165       -159.55       9.482E-2      -12.72        9.494E-2      -12.70        0.81278       -19.83         
67.4966       0.0517        -159.36       9.482E-2      -12.81        9.494E-2      -12.83        0.81276       -20.01         
68.0966       0.05171       -159.22       9.48E-2       -12.93        9.495E-2      -12.92        0.81286       -20.17         
68.6966       0.05179       -159.02       9.483E-2      -13.03        9.496E-2      -13.03        0.81293       -20.32         
69.2966       0.05186       -158.87       9.477E-2      -13.16        9.496E-2      -13.13        0.81283       -20.51         
69.8965       0.05191       -158.70       9.481E-2      -13.29        9.493E-2      -13.23        0.81295       -20.69         
70.4965       0.05193       -158.60       9.483E-2      -13.38        9.49E-2       -13.36        0.8131        -20.85         
71.0965       0.05197       -158.42       9.479E-2      -13.52        9.497E-2      -13.45        0.81316       -21.02         
71.6964       0.05206       -158.23       9.478E-2      -13.63        9.497E-2      -13.58        0.81311       -21.18         
72.2964       0.0521        -158.14       9.481E-2      -13.75        9.488E-2      -13.71        0.81314       -21.35         
72.8964       0.0522        -158.02       9.48E-2       -13.88        9.492E-2      -13.81        0.81316       -21.53         
73.4963       0.05224       -157.83       9.477E-2      -14.00        9.49E-2       -13.93        0.81321       -21.70         
74.0963       0.05225       -157.71       9.48E-2       -14.08        9.496E-2      -14.04        0.81339       -21.88         
74.6963       0.05228       -157.62       9.48E-2       -14.21        9.491E-2      -14.15        0.81318       -22.03         
75.2963       0.05235       -157.40       9.478E-2      -14.32        9.491E-2      -14.23        0.8133        -22.21         
75.8962       0.05239       -157.26       9.477E-2      -14.44        9.491E-2      -14.37        0.81339       -22.37         
76.4962       0.05247       -157.07       9.479E-2      -14.53        9.492E-2      -14.48        0.81356       -22.55         
77.0962       0.05253       -156.99       9.481E-2      -14.64        9.492E-2      -14.57        0.81365       -22.71         
77.6961       0.05257       -156.83       9.474E-2      -14.77        9.495E-2      -14.72        0.81393       -22.88         
78.2961       0.05265       -156.65       9.477E-2      -14.85        9.492E-2      -14.81        0.81389       -23.05         
78.8961       0.0527        -156.53       9.475E-2      -14.98        9.495E-2      -14.91        0.81405       -23.21         
79.4960       0.05274       -156.36       9.479E-2      -15.08        9.494E-2      -15.03        0.8143        -23.38         
80.0960       0.05274       -156.23       9.477E-2      -15.22        9.492E-2      -15.14        0.8143        -23.55         
80.6960       0.05281       -156.11       9.48E-2       -15.32        9.492E-2      -15.24        0.81443       -23.71         
81.2960       0.05287       -155.96       9.48E-2       -15.43        9.493E-2      -15.35        0.81465       -23.88         
81.8959       0.05293       -155.82       9.476E-2      -15.52        9.498E-2      -15.48        0.8148        -24.04         
82.4959       0.05302       -155.65       9.478E-2      -15.63        9.496E-2      -15.57        0.815         -24.22         
83.0959       0.05306       -155.49       9.481E-2      -15.75        9.495E-2      -15.67        0.81511       -24.37         
83.6958       0.0531        -155.35       9.479E-2      -15.85        9.495E-2      -15.81        0.81528       -24.54         
84.2958       0.05317       -155.20       9.48E-2       -15.98        9.494E-2      -15.89        0.81537       -24.70         
84.8958       0.0532        -155.03       9.481E-2      -16.08        9.492E-2      -16.04        0.81535       -24.87         
85.4957       0.05331       -154.94       9.484E-2      -16.23        9.494E-2      -16.16        0.81557       -25.05         
86.0957       0.05334       -154.75       9.481E-2      -16.35        9.494E-2      -16.26        0.81553       -25.23         
86.6957       0.05338       -154.55       9.483E-2      -16.45        9.491E-2      -16.39        0.8157        -25.39         
87.2957       0.05346       -154.45       9.482E-2      -16.55        9.492E-2      -16.50        0.81591       -25.57         
87.8956       0.05348       -154.32       9.483E-2      -16.65        9.489E-2      -16.59        0.81589       -25.72         
88.4956       0.05359       -154.14       9.481E-2      -16.78        9.491E-2      -16.73        0.81597       -25.88         
89.0956       0.05364       -153.96       9.483E-2      -16.86        9.488E-2      -16.83        0.81605       -26.04         
89.6955       0.0537        -153.79       9.486E-2      -16.99        9.491E-2      -16.94        0.81626       -26.21         
90.2955       0.05377       -153.68       9.485E-2      -17.08        9.491E-2      -17.03        0.81645       -26.38         
90.8955       0.0538        -153.56       9.485E-2      -17.20        9.488E-2      -17.15        0.81647       -26.54         
91.4954       0.05387       -153.36       9.486E-2      -17.31        9.49E-2       -17.25        0.81663       -26.72         
92.0954       0.05394       -153.21       9.487E-2      -17.43        9.489E-2      -17.37        0.81652       -26.88         
