!    8/6/2020   01:31:49 
! Ref Plane: 0.000 mm
# MHZ S MA R  50
!
0.3000        0.04788       178.19        9.873E-2      -1.03         9.66E-2       -0.87         0.81628       -0.33          
0.9000        0.0477        178.85        9.486E-2      -0.46         9.541E-2      -0.30         0.8104        -0.45          
1.4999        0.04774       179.10        9.507E-2      -0.30         9.536E-2      -0.40         0.80957       -0.62          
2.0999        0.04772       179.34        9.512E-2      -0.46         9.532E-2      -0.50         0.80965       -0.83          
2.6999        0.04776       179.54        9.516E-2      -0.59         9.532E-2      -0.63         0.80958       -1.01          
3.2999        0.04776       179.80        9.517E-2      -0.67         9.532E-2      -0.78         0.80973       -1.19          
3.8998        0.04784       180.00        9.514E-2      -0.84         9.531E-2      -0.89         0.80971       -1.38          
4.4998        0.04781       -179.79       9.514E-2      -0.97         9.531E-2      -0.99         0.8098        -1.55          
5.0998        0.04788       -179.48       9.516E-2      -1.06         9.531E-2      -1.11         0.80976       -1.73          
5.6997        0.04787       -179.25       9.513E-2      -1.21         9.534E-2      -1.26         0.80991       -1.92          
6.2997        0.04788       -179.11       9.515E-2      -1.35         9.531E-2      -1.36         0.80969       -2.11          
6.8997        0.04795       -178.83       9.513E-2      -1.50         9.529E-2      -1.49         0.8099        -2.29          
7.4996        0.048         -178.57       9.513E-2      -1.60         9.53E-2       -1.61         0.80993       -2.49          
8.0996        0.048         -178.37       9.514E-2      -1.72         9.533E-2      -1.75         0.80967       -2.68          
8.6996        0.048         -178.14       9.512E-2      -1.84         9.532E-2      -1.84         0.8099        -2.85          
9.2996        0.04802       -177.89       9.519E-2      -1.97         9.535E-2      -1.99         0.81006       -3.04          
9.8995        0.04805       -177.68       9.515E-2      -2.12         9.531E-2      -2.12         0.80972       -3.21          
10.4995       0.0481        -177.49       9.513E-2      -2.23         9.532E-2      -2.24         0.81012       -3.39          
11.0995       0.04815       -177.23       9.514E-2      -2.35         9.533E-2      -2.36         0.81017       -3.57          
11.6994       0.04816       -177.01       9.516E-2      -2.47         9.532E-2      -2.48         0.81023       -3.76          
12.2994       0.04817       -176.76       9.511E-2      -2.61         9.529E-2      -2.59         0.81011       -3.94          
12.8994       0.0482        -176.55       9.517E-2      -2.67         9.529E-2      -2.74         0.8101        -4.11          
13.4993       0.0482        -176.31       9.521E-2      -2.87         9.53E-2       -2.88         0.81028       -4.31          
14.0993       0.04828       -176.16       9.518E-2      -2.96         9.527E-2      -3.01         0.81028       -4.47          
14.6993       0.04828       -175.90       9.512E-2      -3.12         9.532E-2      -3.11         0.81021       -4.65          
15.2993       0.0483        -175.71       9.514E-2      -3.19         9.528E-2      -3.24         0.81041       -4.83          
15.8992       0.04833       -175.50       9.514E-2      -3.30         9.527E-2      -3.38         0.81044       -4.99          
16.4992       0.04838       -175.32       9.514E-2      -3.45         9.529E-2      -3.53         0.81034       -5.19          
17.0992       0.04841       -175.06       9.517E-2      -3.54         9.529E-2      -3.62         0.81051       -5.36          
17.6991       0.0485        -174.82       9.516E-2      -3.68         9.528E-2      -3.76         0.81044       -5.55          
18.2991       0.04848       -174.64       9.511E-2      -3.82         9.53E-2       -3.87         0.81052       -5.70          
18.8991       0.04851       -174.44       9.516E-2      -3.95         9.529E-2      -3.98         0.81083       -5.87          
19.4990       0.04852       -174.21       9.519E-2      -4.09         9.53E-2       -4.12         0.8108        -6.06          
20.0990       0.04857       -174.00       9.515E-2      -4.20         9.529E-2      -4.25         0.81071       -6.24          
20.6990       0.04861       -173.79       9.516E-2      -4.35         9.532E-2      -4.35         0.81077       -6.41          
21.2990       0.0486        -173.51       9.513E-2      -4.47         9.531E-2      -4.48         0.81062       -6.58          
21.8989       0.04866       -173.41       9.516E-2      -4.57         9.527E-2      -4.60         0.81076       -6.77          
22.4989       0.04871       -173.15       9.512E-2      -4.72         9.536E-2      -4.73         0.81086       -6.94          
23.0989       0.04877       -172.97       9.515E-2      -4.82         9.535E-2      -4.86         0.811         -7.13          
23.6988       0.04876       -172.70       9.518E-2      -4.92         9.529E-2      -4.99         0.81067       -7.29          
24.2988       0.04878       -172.54       9.511E-2      -5.04         9.531E-2      -5.11         0.81069       -7.46          
24.8988       0.04887       -172.34       9.515E-2      -5.19         9.533E-2      -5.25         0.81056       -7.64          
25.4987       0.04888       -172.14       9.519E-2      -5.29         9.526E-2      -5.37         0.81061       -7.81          
26.0987       0.04893       -171.91       9.512E-2      -5.43         9.531E-2      -5.45         0.81052       -7.99          
26.6987       0.04899       -171.71       9.511E-2      -5.53         9.528E-2      -5.59         0.81036       -8.15          
27.2987       0.04898       -171.48       9.518E-2      -5.65         9.529E-2      -5.70         0.81019       -8.33          
27.8986       0.04903       -171.32       9.515E-2      -5.80         9.526E-2      -5.84         0.80998       -8.49          
28.4986       0.04909       -171.06       9.518E-2      -5.91         9.528E-2      -5.97         0.80999       -8.69          
29.0986       0.04909       -171.01       9.516E-2      -6.03         9.528E-2      -6.09         0.80977       -8.84          
29.6985       0.04921       -170.78       9.515E-2      -6.15         9.526E-2      -6.19         0.80965       -9.03          
30.2985       0.04917       -170.57       9.512E-2      -6.28         9.523E-2      -6.34         0.80936       -9.20          
30.8985       0.04922       -170.29       9.513E-2      -6.42         9.521E-2      -6.43         0.80941       -9.38          
31.4984       0.04927       -170.15       9.512E-2      -6.51         9.519E-2      -6.56         0.80934       -9.54          
32.0984       0.0493        -170.02       9.513E-2      -6.65         9.527E-2      -6.68         0.80935       -9.72          
32.6984       0.04932       -169.79       9.513E-2      -6.77         9.527E-2      -6.80         0.80925       -9.89          
33.2984       0.04935       -169.63       9.514E-2      -6.88         9.523E-2      -6.92         0.80917       -10.04         
33.8983       0.04939       -169.44       9.516E-2      -7.00         9.523E-2      -7.03         0.8093        -10.20         
34.4983       0.04946       -169.24       9.515E-2      -7.10         9.525E-2      -7.14         0.8095        -10.36         
35.0983       0.04944       -169.08       9.519E-2      -7.23         9.527E-2      -7.30         0.80955       -10.54         
35.6982       0.04951       -168.89       9.519E-2      -7.34         9.523E-2      -7.39         0.80969       -10.70         
36.2982       0.04956       -168.71       9.519E-2      -7.48         9.524E-2      -7.54         0.80964       -10.90         
36.8982       0.04957       -168.49       9.514E-2      -7.61         9.523E-2      -7.65         0.80961       -11.07         
37.4981       0.04962       -168.36       9.517E-2      -7.71         9.524E-2      -7.77         0.80954       -11.24         
38.0981       0.04967       -168.18       9.521E-2      -7.82         9.522E-2      -7.90         0.80956       -11.43         
38.6981       0.0497        -167.98       9.519E-2      -7.91         9.521E-2      -8.02         0.80952       -11.61         
39.2981       0.04971       -167.84       9.516E-2      -8.04         9.52E-2       -8.13         0.80955       -11.78         
39.8980       0.04976       -167.66       9.518E-2      -8.21         9.521E-2      -8.30         0.8094        -11.97         
40.4980       0.04977       -167.43       9.519E-2      -8.32         9.521E-2      -8.38         0.80943       -12.13         
41.0980       0.04984       -167.25       9.519E-2      -8.44         9.522E-2      -8.53         0.80916       -12.32         
41.6979       0.04986       -167.11       9.515E-2      -8.55         9.524E-2      -8.63         0.80939       -12.50         
42.2979       0.04994       -166.96       9.514E-2      -8.67         9.525E-2      -8.76         0.8093        -12.70         
42.8979       0.04995       -166.80       9.519E-2      -8.81         9.52E-2       -8.86         0.8094        -12.88         
43.4978       0.04994       -166.62       9.516E-2      -8.90         9.525E-2      -9.00         0.80941       -13.07         
44.0978       0.05004       -166.48       9.515E-2      -9.06         9.523E-2      -9.11         0.80939       -13.26         
44.6978       0.05012       -166.36       9.513E-2      -9.17         9.522E-2      -9.25         0.80957       -13.46         
45.2978       0.05013       -166.20       9.516E-2      -9.29         9.521E-2      -9.34         0.80946       -13.64         
45.8977       0.0502        -165.94       9.515E-2      -9.41         9.521E-2      -9.47         0.80962       -13.82         
46.4977       0.0502        -165.83       9.509E-2      -9.56         9.52E-2       -9.58         0.8096        -14.01         
47.0977       0.05021       -165.65       9.514E-2      -9.67         9.526E-2      -9.72         0.81055       -14.18         
47.6976       0.05025       -165.47       9.511E-2      -9.80         9.517E-2      -9.84         0.8106        -14.36         
48.2976       0.05032       -165.35       9.517E-2      -9.94         9.52E-2       -9.95         0.81065       -14.53         
48.8976       0.05036       -165.18       9.513E-2      -10.06        9.518E-2      -10.09        0.81082       -14.72         
49.4975       0.05046       -164.97       9.51E-2       -10.19        9.525E-2      -10.19        0.81072       -14.89         
50.0975       0.05043       -164.83       9.509E-2      -10.29        9.516E-2      -10.33        0.81079       -15.07         
50.6975       0.05047       -164.65       9.511E-2      -10.43        9.521E-2      -10.46        0.81094       -15.26         
51.2975       0.05054       -164.52       9.507E-2      -10.54        9.526E-2      -10.61        0.81102       -15.45         
51.8974       0.05063       -164.37       9.502E-2      -10.64        9.527E-2      -10.73        0.81096       -15.61         
52.4974       0.05137       -164.47       9.502E-2      -10.70        9.601E-2      -11.08        0.80892       -15.80         
53.0974       0.05067       -163.98       9.492E-2      -10.81        9.52E-2       -10.97        0.80849       -15.90         
53.6973       0.05071       -163.85       9.508E-2      -11.01        9.519E-2      -11.07        0.8115        -16.16         
54.2973       0.05075       -163.75       9.508E-2      -11.12        9.521E-2      -11.21        0.81152       -16.34         
54.8973       0.05078       -163.56       9.51E-2       -11.28        9.518E-2      -11.32        0.81155       -16.50         
55.4972       0.05084       -163.43       9.507E-2      -11.38        9.519E-2      -11.43        0.81167       -16.67         
56.0972       0.0509        -163.24       9.507E-2      -11.50        9.519E-2      -11.54        0.81153       -16.85         
56.6972       0.05093       -163.07       9.508E-2      -11.60        9.516E-2      -11.65        0.81154       -17.01         
57.2972       0.05101       -162.90       9.506E-2      -11.72        9.519E-2      -11.77        0.8116        -17.19         
57.8971       0.05101       -162.73       9.506E-2      -11.84        9.518E-2      -11.89        0.8116        -17.36         
58.4971       0.05107       -162.60       9.511E-2      -11.96        9.521E-2      -12.04        0.8118        -17.54         
59.0971       0.05112       -162.46       9.511E-2      -12.09        9.521E-2      -12.14        0.8118        -17.70         
59.6970       0.05117       -162.23       9.511E-2      -12.19        9.523E-2      -12.27        0.81201       -17.88         
60.2970       0.0512        -162.07       9.508E-2      -12.32        9.519E-2      -12.38        0.81201       -18.04         
60.8970       0.05125       -161.92       9.51E-2       -12.45        9.522E-2      -12.52        0.81212       -18.21         
61.4969       0.05129       -161.79       9.507E-2      -12.58        9.519E-2      -12.65        0.81201       -18.39         
62.0969       0.05134       -161.60       9.511E-2      -12.69        9.521E-2      -12.76        0.81192       -18.56         
62.6969       0.05136       -161.53       9.51E-2       -12.80        9.516E-2      -12.90        0.8119        -18.74         
63.2969       0.05145       -161.31       9.509E-2      -12.94        9.519E-2      -13.01        0.81197       -18.92         
63.8968       0.05151       -161.21       9.51E-2       -13.05        9.52E-2       -13.13        0.81201       -19.07         
64.4968       0.05157       -161.02       9.511E-2      -13.18        9.518E-2      -13.25        0.81204       -19.25         
65.0968       0.05162       -160.85       9.508E-2      -13.30        9.523E-2      -13.38        0.81205       -19.41         
65.6967       0.0517        -160.67       9.511E-2      -13.41        9.521E-2      -13.49        0.81213       -19.58         
66.2967       0.05172       -160.54       9.509E-2      -13.50        9.519E-2      -13.62        0.81214       -19.76         
66.8967       0.05173       -160.43       9.508E-2      -13.66        9.52E-2       -13.72        0.81203       -19.94         
67.4966       0.05179       -160.24       9.506E-2      -13.77        9.524E-2      -13.86        0.81205       -20.12         
68.0966       0.05181       -160.12       9.508E-2      -13.88        9.524E-2      -13.95        0.81208       -20.28         
68.6966       0.05189       -159.91       9.51E-2       -14.00        9.523E-2      -14.08        0.81217       -20.44         
69.2966       0.05198       -159.77       9.509E-2      -14.14        9.525E-2      -14.19        0.81208       -20.64         
69.8965       0.05203       -159.61       9.512E-2      -14.27        9.525E-2      -14.32        0.81215       -20.81         
70.4965       0.05209       -159.51       9.512E-2      -14.37        9.522E-2      -14.44        0.81231       -20.98         
71.0965       0.05209       -159.35       9.508E-2      -14.51        9.524E-2      -14.54        0.81237       -21.15         
71.6964       0.05219       -159.15       9.507E-2      -14.62        9.524E-2      -14.67        0.81231       -21.31         
72.2964       0.05223       -159.08       9.514E-2      -14.74        9.519E-2      -14.81        0.81239       -21.48         
72.8964       0.05232       -158.96       9.511E-2      -14.87        9.521E-2      -14.92        0.81239       -21.67         
73.4963       0.05242       -158.79       9.51E-2       -15.01        9.521E-2      -15.04        0.81246       -21.84         
74.0963       0.05242       -158.64       9.514E-2      -15.11        9.524E-2      -15.17        0.81261       -22.02         
74.6963       0.05248       -158.58       9.51E-2       -15.24        9.522E-2      -15.27        0.81239       -22.17         
75.2963       0.05254       -158.38       9.508E-2      -15.36        9.522E-2      -15.38        0.81253       -22.35         
75.8962       0.05259       -158.22       9.512E-2      -15.49        9.522E-2      -15.54        0.81264       -22.52         
76.4962       0.05267       -158.02       9.511E-2      -15.58        9.523E-2      -15.64        0.81283       -22.69         
77.0962       0.05275       -157.95       9.51E-2       -15.72        9.523E-2      -15.75        0.81288       -22.86         
77.6961       0.05278       -157.83       9.506E-2      -15.84        9.524E-2      -15.89        0.81319       -23.03         
78.2961       0.05288       -157.66       9.512E-2      -15.94        9.524E-2      -15.99        0.81314       -23.20         
78.8961       0.05292       -157.53       9.51E-2       -16.09        9.528E-2      -16.10        0.81331       -23.36         
79.4960       0.05297       -157.39       9.512E-2      -16.20        9.528E-2      -16.24        0.81358       -23.53         
80.0960       0.053         -157.26       9.511E-2      -16.34        9.528E-2      -16.36        0.81358       -23.70         
80.6960       0.05308       -157.17       9.513E-2      -16.44        9.526E-2      -16.47        0.81372       -23.86         
81.2960       0.05316       -157.00       9.515E-2      -16.55        9.529E-2      -16.58        0.81391       -24.03         
81.8959       0.05322       -156.86       9.513E-2      -16.67        9.533E-2      -16.70        0.81412       -24.19         
82.4959       0.05331       -156.71       9.514E-2      -16.79        9.53E-2       -16.80        0.81434       -24.37         
83.0959       0.05334       -156.57       9.515E-2      -16.91        9.529E-2      -16.92        0.81441       -24.51         
83.6958       0.05341       -156.41       9.514E-2      -17.04        9.529E-2      -17.04        0.81462       -24.69         
84.2958       0.05347       -156.24       9.517E-2      -17.16        9.526E-2      -17.17        0.81475       -24.85         
84.8958       0.05354       -156.11       9.515E-2      -17.27        9.527E-2      -17.30        0.81476       -25.02         
85.4957       0.05362       -156.01       9.52E-2       -17.39        9.528E-2      -17.44        0.81503       -25.19         
86.0957       0.05367       -155.83       9.519E-2      -17.52        9.527E-2      -17.56        0.81493       -25.37         
86.6957       0.05373       -155.67       9.517E-2      -17.63        9.528E-2      -17.69        0.8151        -25.53         
87.2957       0.0538        -155.57       9.521E-2      -17.75        9.531E-2      -17.80        0.81534       -25.71         
87.8956       0.05383       -155.41       9.519E-2      -17.87        9.529E-2      -17.90        0.81539       -25.86         
88.4956       0.05398       -155.26       9.517E-2      -17.98        9.53E-2       -18.03        0.81544       -26.02         
89.0956       0.05402       -155.09       9.518E-2      -18.09        9.525E-2      -18.17        0.81562       -26.18         
89.6955       0.05407       -154.92       9.526E-2      -18.21        9.528E-2      -18.27        0.8158        -26.34         
90.2955       0.05413       -154.79       9.524E-2      -18.31        9.531E-2      -18.36        0.81601       -26.51         
90.8955       0.05422       -154.67       9.529E-2      -18.44        9.529E-2      -18.46        0.81605       -26.68         
91.4954       0.05428       -154.48       9.529E-2      -18.57        9.525E-2      -18.61        0.81625       -26.85         
92.0954       0.05437       -154.35       9.526E-2      -18.70        9.528E-2      -18.71        0.81622       -27.00         
