!    8/10/2020   01:59:51 
! Ref Plane: 0.000 mm
# MHZ S MA R  50
!
0.3000        0.8215        0.19          3.73E-5       -105.67       1.947E-5      54.91         0.99596       -0.37          
0.9000        0.81921       0.27          9.541E-5      -121.49       5.49E-5       -79.56        0.99679       -0.32          
1.4999        0.82033       0.24          5.477E-5      171.32        4.956E-5      15.90         0.99817       -0.30          
2.0999        0.8201        0.21          7.30E-5       -112.43       3.951E-5      106.09        0.99866       -0.23          
2.6999        0.81998       0.16          6.897E-5      -95.42        1.411E-5      -140.45       0.99891       -0.19          
3.2999        0.81987       0.11          2.563E-5      -25.85        1.144E-5      -128.89       0.99887       -0.16          
3.8998        0.8198        0.08          1.725E-5      -77.74        5.686E-5      -69.40        0.999         -0.14          
4.4998        0.81964       0.02          2.54E-5       -163.07       9.707E-6      -41.36        0.99898       -0.12          
5.0998        0.81962       -0.02         1.468E-5      -158.66       7.248E-6      51.60         0.99898       -0.11          
5.6997        0.81948       -0.06         2.027E-5      95.07         1.10E-5       -11.61        0.99909       -0.10          
6.2997        0.81948       -0.10         4.395E-5      170.37        2.028E-5      1.01          0.99902       -0.09          
6.8997        0.8194        -0.15         5.633E-5      -62.39        2.973E-5      -49.86        0.99909       -0.09          
7.4996        0.81937       -0.18         1.291E-5      132.67        5.095E-5      112.87        0.99913       -0.08          
8.0996        0.81947       -0.22         7.342E-5      -136.24       3.099E-5      -165.97       0.99911       -0.08          
8.6996        0.81938       -0.28         3.769E-5      88.31         1.712E-5      114.40        0.99906       -0.08          
9.2996        0.81928       -0.32         4.72E-5       -50.70        1.548E-5      73.26         0.99914       -0.08          
9.8995        0.8194        -0.35         3.102E-5      -53.89        3.575E-5      66.39         0.99911       -0.07          
10.4995       0.81923       -0.40         4.61E-5       133.82        1.72E-5       -120.59       0.99918       -0.07          
11.0995       0.81921       -0.44         6.347E-5      -63.20        2.966E-5      55.00         0.99918       -0.07          
11.6994       0.81914       -0.48         9.421E-6      -171.25       5.415E-5      15.67         0.99913       -0.07          
12.2994       0.81915       -0.52         9.397E-5      -131.05       4.105E-5      129.20        0.9992        -0.07          
12.8994       0.81916       -0.56         5.983E-5      100.22        3.033E-5      20.35         0.99918       -0.07          
13.4993       0.81911       -0.60         4.987E-5      -19.35        2.512E-5      -22.92        0.99926       -0.07          
14.0993       0.81913       -0.64         2.609E-5      89.60         3.892E-5      -53.81        0.99924       -0.06          
14.6993       0.81913       -0.69         7.952E-5      -121.63       1.641E-5      25.68         0.99919       -0.07          
15.2993       0.81897       -0.72         6.70E-5       132.74        6.293E-5      94.77         0.99921       -0.06          
15.8992       0.81892       -0.77         4.458E-5      32.58         2.327E-5      159.67        0.99934       -0.07          
16.4992       0.81903       -0.80         2.031E-5      105.04        5.102E-5      -0.39         0.99937       -0.07          
17.0992       0.81889       -0.84         6.916E-5      60.36         5.359E-6      52.97         0.99935       -0.07          
17.6991       0.81892       -0.87         4.523E-5      113.08        8.387E-6      127.94        0.99925       -0.07          
18.2991       0.81886       -0.92         3.004E-5      161.87        1.008E-5      104.34        0.99925       -0.06          
18.8991       0.81874       -0.96         2.887E-5      -105.89       1.955E-5      70.01         0.99934       -0.07          
19.4990       0.81887       -1.00         3.316E-5      -24.23        4.372E-5      -63.59        0.99937       -0.06          
20.0990       0.81886       -1.05         3.967E-5      2.32          1.803E-5      -139.10       0.99934       -0.07          
20.6990       0.81885       -1.08         3.406E-5      -47.07        3.153E-5      79.92         0.99936       -0.07          
21.2990       0.81879       -1.13         3.695E-5      -151.19       1.517E-5      6.63          0.99937       -0.07          
21.8989       0.81873       -1.16         6.199E-5      -47.37        5.58E-5       67.30         0.9994        -0.07          
22.4989       0.81875       -1.21         5.778E-5      -134.02       3.375E-5      75.80         0.99937       -0.07          
23.0989       0.81866       -1.24         4.876E-5      138.95        2.72E-5       6.88          0.99942       -0.08          
23.6988       0.81872       -1.28         1.986E-5      84.83         2.751E-5      48.52         0.99943       -0.07          
24.2988       0.81868       -1.33         1.574E-5      74.59         2.52E-6       54.62         0.99935       -0.07          
24.8988       0.81871       -1.36         3.331E-5      -123.47       3.127E-5      29.04         0.99945       -0.07          
25.4987       0.81871       -1.40         4.932E-5      34.30         3.371E-5      -9.04         0.99947       -0.07          
26.0987       0.81873       -1.43         6.355E-5      172.96        4.001E-5      26.20         0.99943       -0.07          
26.6987       0.81867       -1.48         3.153E-5      -163.47       2.071E-5      46.73         0.9994        -0.08          
27.2987       0.81861       -1.52         6.627E-5      11.55         5.957E-5      52.06         0.99948       -0.08          
27.8986       0.81866       -1.56         1.768E-5      -111.21       2.581E-5      -32.02        0.99934       -0.08          
28.4986       0.81861       -1.60         3.512E-5      -15.38        9.504E-6      -112.51       0.99946       -0.08          
29.0986       0.81868       -1.64         1.721E-5      -10.14        5.115E-5      -34.53        0.99954       -0.09          
29.6985       0.81846       -1.67         2.50E-5       117.85        6.394E-6      -121.92       0.99941       -0.09          
30.2985       0.81858       -1.71         2.489E-5      147.22        1.171E-5      -20.69        0.99947       -0.09          
30.8985       0.81856       -1.75         6.887E-5      -58.32        3.14E-5       -167.97       0.99943       -0.09          
31.4984       0.81852       -1.78         6.35E-5       82.87         4.891E-5      -172.41       0.99941       -0.09          
32.0984       0.81856       -1.82         2.715E-5      -99.90        2.637E-5      74.36         0.9995        -0.09          
32.6984       0.81848       -1.86         2.171E-5      -134.42       2.498E-5      56.84         0.99942       -0.09          
33.2984       0.81863       -1.90         3.614E-5      -137.93       2.623E-5      141.62        0.99944       -0.10          
33.8983       0.81858       -1.94         5.505E-5      -31.87        2.136E-5      -16.83        0.99945       -0.10          
34.4983       0.81836       -1.97         1.782E-5      87.40         3.813E-5      71.47         0.99944       -0.09          
35.0983       0.8185        -2.01         3.441E-5      -89.51        5.824E-5      -47.72        0.99951       -0.10          
35.6982       0.81839       -2.04         3.94E-5       -67.37        8.407E-6      118.53        0.99946       -0.10          
36.2982       0.81843       -2.07         6.678E-5      -126.01       2.007E-5      -157.30       0.99946       -0.10          
36.8982       0.81849       -2.11         6.694E-5      -144.72       4.80E-5       -5.08         0.99943       -0.10          
37.4981       0.81846       -2.15         5.148E-5      -158.01       1.059E-5      93.58         0.99942       -0.10          
38.0981       0.81849       -2.18         1.293E-5      -13.04        2.142E-5      123.76        0.99947       -0.10          
38.6981       0.81841       -2.21         2.782E-5      -19.17        1.714E-5      97.05         0.99946       -0.11          
39.2981       0.81843       -2.26         4.579E-5      150.72        2.879E-5      -158.96       0.99947       -0.11          
39.8980       0.81851       -2.28         4.108E-5      -116.16       3.034E-5      -84.58        0.99947       -0.11          
40.4980       0.8184        -2.33         1.333E-5      -88.82        2.176E-5      57.81         0.99953       -0.11          
41.0980       0.81847       -2.38         4.047E-5      -73.84        1.53E-5       33.16         0.99948       -0.11          
41.6979       0.81839       -2.40         4.056E-5      76.10         4.373E-5      13.87         0.9996        -0.12          
42.2979       0.81844       -2.45         4.263E-5      100.46        2.117E-5      -92.83        0.99952       -0.12          
42.8979       0.81838       -2.48         3.22E-5       -156.73       3.585E-5      143.32        0.99954       -0.12          
43.4978       0.81838       -2.51         4.812E-5      127.38        2.054E-5      96.29         0.99955       -0.12          
44.0978       0.8184        -2.55         3.542E-5      -86.31        6.097E-6      -134.45       0.99958       -0.12          
44.6978       0.81824       -2.57         2.409E-5      141.19        2.055E-5      6.54          0.99953       -0.13          
45.2978       0.81843       -2.62         3.802E-5      11.68         5.865E-6      128.95        0.99957       -0.12          
45.8977       0.81843       -2.66         3.462E-5      159.27        3.451E-5      -51.23        0.99951       -0.13          
46.4977       0.81829       -2.69         4.867E-5      145.86        1.691E-5      61.43         0.99945       -0.13          
47.0977       0.8183        -2.71         6.561E-5      30.91         2.914E-5      9.45          0.99962       -0.13          
47.6976       0.81817       -2.75         2.99E-5       105.40        6.315E-5      138.12        0.99968       -0.13          
48.2976       0.81828       -2.79         4.915E-5      16.19         3.111E-5      -169.53       0.99967       -0.14          
48.8976       0.81814       -2.82         4.547E-5      93.28         2.81E-5       -175.60       0.99962       -0.14          
49.4975       0.81817       -2.85         1.50E-5       34.09         3.565E-5      86.84         0.99961       -0.14          
50.0975       0.81819       -2.90         4.40E-5       -0.86         4.612E-5      -169.37       0.99962       -0.14          
50.6975       0.81822       -2.93         1.116E-5      163.55        1.216E-5      -173.46       0.99958       -0.14          
51.2975       0.81821       -2.96         4.965E-5      41.07         1.616E-5      51.07         0.99959       -0.15          
51.8974       0.81831       -3.00         4.445E-5      37.81         2.87E-5       170.65        0.99964       -0.15          
52.4974       0.82055       -3.03         3.12E-5       48.90         4.05E-5       27.83         0.99963       -0.15          
53.0974       0.81811       -3.05         1.782E-5      150.43        3.65E-5       -160.69       0.99965       -0.15          
53.6973       0.81818       -3.09         5.326E-5      89.08         2.715E-6      -42.72        0.99966       -0.15          
54.2973       0.81817       -3.12         2.87E-5       144.92        1.215E-5      -22.70        0.99961       -0.15          
54.8973       0.81816       -3.17         4.108E-5      174.96        3.208E-5      12.29         0.99963       -0.15          
55.4972       0.81815       -3.20         2.999E-5      83.82         3.507E-6      141.53        0.99963       -0.15          
56.0972       0.81826       -3.23         7.585E-5      40.68         2.872E-5      112.60        0.9996        -0.16          
56.6972       0.81819       -3.28         5.836E-5      -28.59        1.102E-5      149.46        0.99964       -0.16          
57.2972       0.81818       -3.32         1.566E-5      -76.46        1.845E-5      -158.21       0.99968       -0.16          
57.8971       0.81819       -3.35         2.151E-5      16.45         1.062E-5      88.67         0.99962       -0.16          
58.4971       0.81807       -3.38         3.344E-5      -89.52        2.197E-5      28.41         0.99966       -0.16          
59.0971       0.8181        -3.43         4.354E-5      -19.49        1.882E-5      97.35         0.99968       -0.17          
59.6970       0.8181        -3.45         1.82E-5       150.08        2.584E-5      16.78         0.99965       -0.17          
60.2970       0.818         -3.49         4.464E-5      141.34        3.015E-5      -139.94       0.99967       -0.17          
60.8970       0.81793       -3.52         4.071E-5      -126.56       1.547E-5      -52.86        0.99966       -0.17          
61.4969       0.81795       -3.55         1.776E-5      -97.05        1.672E-5      67.94         0.99968       -0.17          
62.0969       0.81804       -3.59         3.699E-6      2.63          1.698E-5      117.71        0.99972       -0.17          
62.6969       0.81801       -3.63         2.758E-5      -76.48        3.013E-5      -16.04        0.99965       -0.17          
63.2969       0.81796       -3.66         2.151E-5      109.91        2.912E-6      141.16        0.99971       -0.18          
63.8968       0.8178        -3.70         7.653E-5      147.94        2.455E-5      -11.54        0.99966       -0.18          
64.4968       0.81778       -3.73         3.928E-5      -44.67        1.958E-5      -178.88       0.99967       -0.18          
65.0968       0.81771       -3.76         4.701E-5      162.64        3.648E-5      88.50         0.99967       -0.18          
65.6967       0.81773       -3.80         5.76E-5       -80.98        3.369E-5      21.19         0.99969       -0.18          
66.2967       0.81771       -3.83         6.494E-5      -72.65        2.179E-5      123.31        0.99967       -0.18          
66.8967       0.81782       -3.86         1.737E-5      121.99        3.483E-5      -57.92        0.99974       -0.19          
67.4966       0.81789       -3.90         2.088E-5      51.69         6.67E-6       111.44        0.99969       -0.19          
68.0966       0.8179        -3.93         9.295E-6      -13.16        2.842E-5      85.11         0.99967       -0.19          
68.6966       0.81784       -3.99         2.237E-5      -17.59        8.01E-6       -32.43        0.99971       -0.19          
69.2966       0.8178        -4.01         7.517E-6      11.96         1.342E-5      168.10        0.9997        -0.19          
69.8965       0.8178        -4.05         3.048E-5      -86.94        7.917E-6      -53.25        0.99973       -0.19          
70.4965       0.81778       -4.09         4.18E-5       -9.13         2.205E-5      -98.45        0.9997        -0.20          
71.0965       0.81763       -4.12         2.279E-5      100.70        3.486E-5      102.73        0.99967       -0.20          
71.6964       0.81771       -4.16         1.307E-5      72.96         2.455E-5      -113.68       0.9997        -0.20          
72.2964       0.81762       -4.19         3.841E-5      109.39        1.03E-5       -89.46        0.99974       -0.20          
72.8964       0.81764       -4.23         1.403E-5      -123.88       1.241E-5      58.63         0.99975       -0.20          
73.4963       0.81764       -4.26         1.356E-5      -50.72        1.332E-5      -11.09        0.9997        -0.20          
74.0963       0.8176        -4.30         5.879E-5      -129.94       5.874E-5      56.63         0.99973       -0.20          
74.6963       0.81762       -4.35         2.06E-5       -178.61       2.516E-5      -92.94        0.99973       -0.20          
75.2963       0.81762       -4.38         4.86E-5       141.66        3.693E-5      -85.11        0.99972       -0.20          
75.8962       0.81752       -4.42         4.219E-5      -159.23       2.38E-5       163.16        0.99975       -0.20          
76.4962       0.81743       -4.45         2.662E-5      -21.41        1.773E-5      48.57         0.99972       -0.20          
77.0962       0.81749       -4.49         2.675E-5      -145.47       1.167E-5      27.54         0.99974       -0.20          
77.6961       0.81739       -4.52         5.897E-5      130.72        1.346E-5      134.36        0.99971       -0.20          
78.2961       0.81746       -4.56         4.167E-5      -20.87        8.883E-6      -173.10       0.99979       -0.20          
78.8961       0.8173        -4.60         5.327E-5      34.30         4.275E-5      -172.57       0.99971       -0.20          
79.4960       0.81725       -4.63         6.203E-5      -139.51       1.396E-5      32.78         0.9997        -0.20          
80.0960       0.81732       -4.66         2.274E-5      99.90         1.423E-5      123.54        0.99969       -0.20          
80.6960       0.81737       -4.70         5.30E-5       -174.19       3.452E-5      -62.09        0.99968       -0.20          
81.2960       0.81721       -4.75         8.936E-6      132.36        2.344E-5      99.78         0.99975       -0.20          
81.8959       0.81717       -4.78         1.963E-5      60.21         1.005E-5      68.75         0.99976       -0.20          
82.4959       0.81722       -4.81         2.933E-5      -31.60        2.698E-5      89.77         0.99977       -0.20          
83.0959       0.81718       -4.85         4.111E-6      101.01        4.779E-5      176.33        0.99973       -0.21          
83.6958       0.81706       -4.88         5.168E-5      145.15        2.68E-5       3.27          0.9997        -0.21          
84.2958       0.81712       -4.93         7.688E-6      -176.19       9.236E-6      -110.13       0.99974       -0.21          
84.8958       0.81711       -4.96         3.031E-5      -81.83        1.886E-5      -176.25       0.99972       -0.21          
85.4957       0.81698       -5.00         3.397E-5      -147.41       2.272E-5      97.28         0.99973       -0.21          
86.0957       0.81715       -5.03         2.905E-5      -84.13        7.83E-6       -125.66       0.99969       -0.22          
86.6957       0.81701       -5.07         5.301E-6      -127.06       2.156E-5      -115.43       0.99966       -0.22          
87.2957       0.81699       -5.10         4.053E-5      95.52         1.544E-5      42.46         0.99976       -0.21          
87.8956       0.81699       -5.15         2.773E-5      6.46          1.396E-5      -96.27        0.99967       -0.22          
88.4956       0.81699       -5.18         3.264E-5      49.45         3.518E-5      173.61        0.99974       -0.22          
89.0956       0.81695       -5.21         9.623E-5      118.61        3.906E-5      -59.21        0.9997        -0.22          
89.6955       0.81689       -5.26         4.541E-5      120.31        3.915E-5      23.23         0.99965       -0.22          
90.2955       0.81694       -5.29         2.911E-5      -84.87        2.035E-5      65.81         0.99967       -0.22          
90.8955       0.81677       -5.33         6.666E-5      -130.32       1.866E-5      -176.76       0.9997        -0.22          
91.4954       0.81676       -5.37         6.119E-5      -111.02       2.516E-5      -114.61       0.99977       -0.23          
92.0954       0.81677       -5.41         1.837E-5      157.51        2.093E-5      -160.10       0.99968       -0.22          
