!    3/12/2021   10:30:41 
! Ref Plane: 23.990 mm
# MHZ S MA R  50
!
0.3000        0.81985       -0.01          
0.9000        0.81679       -0.01          
1.4999        0.81698       -0.05          
2.0999        0.81713       -0.06          
2.6999        0.81721       -0.06          
3.2999        0.81724       -0.07          
3.8998        0.81731       -0.08          
4.4998        0.81737       -0.09          
5.0998        0.81739       -0.09          
5.6997        0.81747       -0.10          
6.2997        0.8175        -0.11          
6.8997        0.81752       -0.12          
7.4996        0.81754       -0.12          
8.0996        0.81752       -0.13          
8.6996        0.81749       -0.14          
9.2996        0.81758       -0.15          
9.8995        0.81756       -0.15          
10.4995       0.81757       -0.16          
11.0995       0.8176        -0.16          
11.6994       0.81764       -0.17          
12.2994       0.81765       -0.18          
12.8994       0.81771       -0.19          
13.4993       0.81766       -0.19          
14.0993       0.81764       -0.20          
14.6993       0.81764       -0.20          
15.2993       0.81757       -0.22          
15.8992       0.81769       -0.21          
16.4992       0.81766       -0.22          
17.0992       0.81766       -0.23          
17.6991       0.81767       -0.23          
18.2991       0.81764       -0.24          
18.8991       0.81771       -0.25          
19.4990       0.81773       -0.26          
20.0990       0.81774       -0.27          
20.6990       0.81773       -0.27          
21.2990       0.81773       -0.28          
21.8989       0.81774       -0.29          
22.4989       0.81776       -0.30          
23.0989       0.81784       -0.30          
23.6988       0.81776       -0.31          
24.2988       0.81783       -0.32          
24.8988       0.81783       -0.33          
25.4987       0.81782       -0.33          
26.0987       0.81781       -0.34          
26.6987       0.81783       -0.35          
27.2987       0.81782       -0.36          
27.8986       0.81786       -0.36          
28.4986       0.81785       -0.37          
29.0986       0.81794       -0.38          
29.6985       0.81788       -0.38          
30.2985       0.81796       -0.39          
30.8985       0.81787       -0.39          
31.4984       0.81785       -0.40          
32.0984       0.81792       -0.40          
32.6984       0.81797       -0.41          
33.2984       0.818         -0.42          
33.8983       0.81798       -0.42          
34.4983       0.81799       -0.43          
35.0983       0.81799       -0.44          
35.6982       0.818         -0.45          
36.2982       0.81802       -0.45          
36.8982       0.81802       -0.46          
37.4981       0.81803       -0.47          
38.0981       0.81802       -0.47          
38.6981       0.81803       -0.48          
39.2981       0.81806       -0.49          
39.8980       0.81808       -0.50          
40.4980       0.8181        -0.50          
41.0980       0.8181        -0.51          
41.6979       0.81807       -0.52          
42.2979       0.81807       -0.53          
42.8979       0.81808       -0.53          
43.4978       0.81809       -0.54          
44.0978       0.81813       -0.55          
44.6978       0.81811       -0.55          
45.2978       0.81814       -0.56          
45.8977       0.8181        -0.57          
46.4977       0.81812       -0.57          
47.0977       0.81821       -0.57          
47.6976       0.81822       -0.58          
48.2976       0.81818       -0.59          
48.8976       0.81818       -0.59          
49.4975       0.81821       -0.61          
50.0975       0.81819       -0.61          
50.6975       0.81825       -0.62          
51.2975       0.81823       -0.63          
51.8974       0.81823       -0.64          
52.4974       0.81826       -0.65          
53.0974       0.81832       -0.66          
53.6973       0.81833       -0.68          
54.2973       0.8183        -0.80          
54.8973       0.81825       -0.71          
55.4972       0.81827       -0.69          
56.0972       0.81825       -0.70          
56.6972       0.81826       -0.71          
57.2972       0.81826       -0.71          
57.8971       0.81829       -0.72          
58.4971       0.81829       -0.72          
59.0971       0.81833       -0.73          
59.6970       0.81832       -0.74          
60.2970       0.81829       -0.74          
60.8970       0.81837       -0.75          
61.4969       0.81834       -0.76          
62.0969       0.81831       -0.76          
62.6969       0.81833       -0.77          
63.2969       0.81833       -0.78          
63.8968       0.81837       -0.79          
64.4968       0.81837       -0.79          
65.0968       0.81839       -0.80          
65.6967       0.81843       -0.81          
66.2967       0.8184        -0.81          
66.8967       0.81837       -0.82          
67.4966       0.81844       -0.83          
68.0966       0.81839       -0.84          
68.6966       0.81838       -0.84          
69.2966       0.81837       -0.85          
69.8965       0.81837       -0.86          
70.4965       0.81838       -0.87          
71.0965       0.81838       -0.88          
71.6964       0.81841       -0.88          
72.2964       0.81844       -0.89          
72.8964       0.81842       -0.90          
73.4963       0.81838       -0.90          
74.0963       0.81843       -0.91          
74.6963       0.81844       -0.92          
75.2963       0.81841       -0.93          
75.8962       0.81841       -0.93          
76.4962       0.81844       -0.94          
77.0962       0.81844       -0.95          
77.6961       0.81841       -0.95          
78.2961       0.81841       -0.96          
78.8961       0.8184        -0.97          
79.4960       0.81843       -0.98          
80.0960       0.81843       -0.99          
80.6960       0.81847       -0.99          
81.2960       0.81842       -1.00          
81.8959       0.81846       -1.01          
82.4959       0.81847       -1.01          
83.0959       0.8185        -1.02          
83.6958       0.81848       -1.04          
84.2958       0.81839       -1.04          
84.8958       0.81843       -1.05          
85.4957       0.81842       -1.06          
86.0957       0.81849       -1.07          
86.6957       0.81849       -1.08          
87.2957       0.81837       -1.08          
87.8956       0.81848       -1.09          
88.4956       0.81836       -1.10          
89.0956       0.81849       -1.10          
89.6955       0.8184        -1.11          
90.2955       0.81844       -1.11          
90.8955       0.81847       -1.12          
91.4954       0.81842       -1.12          
92.0954       0.81834       -1.14          
92.6954       0.81837       -1.14          
93.2954       0.81849       -1.15          
93.8953       0.81846       -1.17          
94.4953       0.81849       -1.18          
95.0953       0.8185        -1.18          
95.6952       0.81849       -1.19          
96.2952       0.81858       -1.19          
96.8952       0.81857       -1.20          
97.4951       0.81856       -1.21          
98.0951       0.81854       -1.21          
98.6951       0.81854       -1.22          
99.2951       0.81852       -1.23          
99.8950       0.81868       -1.24          
100.4950      0.81852       -1.25          
101.0950      0.81857       -1.25          
101.6949      0.8185        -1.27          
102.2949      0.81857       -1.27          
102.8949      0.81848       -1.28          
103.4948      0.81846       -1.28          
104.0948      0.81845       -1.29          
104.6948      0.81849       -1.30          
105.2948      0.81849       -1.31          
105.8947      0.81855       -1.32          
106.4947      0.81849       -1.32          
107.0947      0.8185        -1.33          
107.6946      0.81842       -1.33          
108.2946      0.81845       -1.34          
108.8946      0.81848       -1.35          
109.4945      0.81851       -1.36          
110.0945      0.81856       -1.36          
110.6945      0.81856       -1.37          
111.2945      0.81856       -1.38          
111.8944      0.81861       -1.39          
112.4944      0.81859       -1.40          
113.0944      0.81863       -1.40          
113.6943      0.81861       -1.41          
114.2943      0.8186        -1.42          
114.8943      0.81863       -1.43          
115.4942      0.81866       -1.43          
116.0942      0.81863       -1.44          
116.6942      0.81864       -1.45          
117.2942      0.81863       -1.46          
117.8941      0.81863       -1.46          
118.4941      0.81861       -1.47          
119.0941      0.81857       -1.48          
119.6940      0.81859       -1.49          
120.2940      0.81863       -1.49          
120.8940      0.81858       -1.50          
121.4939      0.81856       -1.51          
122.0939      0.81855       -1.52          
122.6939      0.81857       -1.53          
123.2939      0.81862       -1.53          
123.8938      0.81855       -1.54          
124.4938      0.81861       -1.55          
125.0938      0.81854       -1.56          
125.6937      0.81858       -1.57          
126.2937      0.81862       -1.58          
126.8937      0.8186        -1.58          
127.4936      0.81866       -1.59          
128.0936      0.81865       -1.60          
128.6936      0.81867       -1.61          
129.2936      0.81861       -1.62          
129.8935      0.81866       -1.62          
130.4935      0.81861       -1.63          
131.0935      0.81866       -1.64          
131.6934      0.81868       -1.64          
132.2934      0.81871       -1.65          
132.8934      0.81861       -1.66          
133.4933      0.81864       -1.67          
134.0933      0.81864       -1.67          
134.6933      0.81865       -1.68          
135.2933      0.81864       -1.69          
135.8932      0.81858       -1.69          
136.4932      0.8186        -1.70          
137.0932      0.81863       -1.71          
137.6931      0.81862       -1.72          
138.2931      0.81864       -1.73          
138.8931      0.81865       -1.73          
139.4930      0.81867       -1.75          
140.0930      0.81865       -1.75          
140.6930      0.81861       -1.76          
141.2930      0.81865       -1.77          
141.8929      0.81865       -1.77          
142.4929      0.81869       -1.78          
143.0929      0.81866       -1.79          
143.6928      0.81862       -1.80          
144.2928      0.81861       -1.80          
144.8928      0.81862       -1.82          
145.4927      0.81861       -1.82          
146.0927      0.81861       -1.83          
146.6927      0.81869       -1.84          
147.2927      0.81867       -1.85          
147.8926      0.81867       -1.85          
148.4926      0.81869       -1.86          
149.0926      0.81873       -1.87          
149.6925      0.81875       -1.88          
150.2925      0.81874       -1.88          
150.8925      0.81871       -1.89          
151.4924      0.81875       -1.90          
152.0924      0.8187        -1.91          
152.6924      0.81874       -1.91          
153.2924      0.81871       -1.92          
153.8923      0.8187        -1.93          
154.4923      0.81872       -1.94          
155.0923      0.81871       -1.95          
155.6922      0.81872       -1.96          
156.2922      0.81872       -1.97          
156.8922      0.81871       -1.98          
157.4921      0.81871       -1.98          
158.0921      0.81873       -1.99          
158.6921      0.81872       -2.00          
159.2921      0.81869       -2.00          
159.8920      0.81877       -2.01          
160.4920      0.81876       -2.02          
161.0920      0.81874       -2.03          
161.6919      0.81882       -2.04          
162.2919      0.81876       -2.04          
162.8919      0.81884       -2.05          
163.4918      0.81883       -2.06          
164.0918      0.81889       -2.07          
164.6918      0.81885       -2.07          
165.2918      0.81882       -2.08          
165.8917      0.81881       -2.09          
166.4917      0.81879       -2.09          
167.0917      0.81881       -2.10          
167.6916      0.81877       -2.11          
168.2916      0.81878       -2.12          
168.8916      0.81874       -2.13          
169.4915      0.81882       -2.13          
170.0915      0.81878       -2.14          
170.6915      0.81879       -2.15          
171.2915      0.81881       -2.16          
171.8914      0.8188        -2.16          
172.4914      0.81877       -2.17          
173.0914      0.81877       -2.18          
173.6913      0.81875       -2.19          
174.2913      0.81875       -2.19          
174.8913      0.81878       -2.20          
175.4912      0.81877       -2.21          
176.0912      0.81884       -2.22          
176.6912      0.81881       -2.23          
177.2912      0.81883       -2.24          
177.8911      0.81887       -2.24          
178.4911      0.81883       -2.25          
179.0911      0.81886       -2.26          
179.6910      0.81889       -2.26          
180.2910      0.8189        -2.27          
180.8910      0.81892       -2.28          
181.4909      0.81891       -2.29          
182.0909      0.8189        -2.29          
182.6909      0.81892       -2.31          
183.2909      0.81891       -2.31          
183.8908      0.81891       -2.32          
184.4908      0.8189        -2.33          
185.0908      0.81883       -2.34          
185.6907      0.81883       -2.34          
186.2907      0.81887       -2.35          
186.8907      0.81885       -2.36          
187.4906      0.81879       -2.37          
188.0906      0.81883       -2.37          
188.6906      0.81888       -2.38          
189.2906      0.81882       -2.39          
189.8905      0.81885       -2.40          
190.4905      0.81884       -2.40          
191.0905      0.81885       -2.41          
191.6904      0.81886       -2.41          
192.2904      0.81889       -2.42          
192.8904      0.81887       -2.43          
193.4903      0.81894       -2.44          
194.0903      0.81895       -2.44          
194.6903      0.81898       -2.46          
195.2903      0.81896       -2.46          
195.8902      0.81894       -2.47          
196.4902      0.81898       -2.48          
197.0902      0.81896       -2.48          
197.6901      0.81892       -2.49          
198.2901      0.81894       -2.50          
198.8901      0.81898       -2.51          
199.4900      0.8189        -2.52          
200.0900      0.81888       -2.52          
200.6900      0.81893       -2.53          
201.2900      0.8189        -2.54          
201.8899      0.81887       -2.55          
202.4899      0.81887       -2.56          
203.0899      0.81889       -2.56          
203.6898      0.81889       -2.57          
204.2898      0.81891       -2.58          
204.8898      0.81891       -2.58          
205.4897      0.81889       -2.59          
206.0897      0.81886       -2.60          
206.6897      0.81887       -2.61          
207.2897      0.81894       -2.61          
207.8896      0.81888       -2.62          
208.4896      0.81896       -2.63          
209.0896      0.81905       -2.64          
209.6895      0.81905       -2.65          
210.2895      0.81903       -2.66          
210.8895      0.81906       -2.66          
211.4894      0.81903       -2.68          
212.0894      0.81904       -2.68          
212.6894      0.81904       -2.69          
213.2894      0.81903       -2.70          
213.8893      0.81907       -2.70          
214.4893      0.81905       -2.71          
215.0893      0.81905       -2.72          
215.6892      0.81901       -2.73          
216.2892      0.81906       -2.73          
216.8892      0.81906       -2.74          
217.4891      0.81905       -2.75          
218.0891      0.81904       -2.76          
218.6891      0.819         -2.76          
219.2891      0.81902       -2.77          
219.8890      0.81905       -2.78          
220.4890      0.81907       -2.79          
221.0890      0.81903       -2.79          
221.6889      0.81909       -2.80          
222.2889      0.81913       -2.81          
222.8889      0.81911       -2.82          
223.4888      0.81912       -2.82          
224.0888      0.81915       -2.83          
224.6888      0.81918       -2.84          
225.2888      0.8192        -2.85          
225.8887      0.8192        -2.85          
226.4887      0.81923       -2.86          
227.0887      0.81922       -2.87          
227.6886      0.81927       -2.88          
228.2886      0.81925       -2.88          
228.8886      0.81927       -2.89          
229.4885      0.81927       -2.90          
230.0885      0.81922       -2.91          
230.6885      0.81923       -2.91          
231.2885      0.81928       -2.92          
231.8884      0.81924       -2.93          
232.4884      0.81922       -2.94          
233.0884      0.8193        -2.94          
233.6883      0.81924       -2.95          
234.2883      0.81933       -2.96          
234.8883      0.81935       -2.97          
235.4882      0.81934       -2.98          
236.0882      0.81936       -2.98          
236.6882      0.81945       -2.99          
237.2882      0.81944       -3.00          
237.8881      0.81945       -3.01          
238.4881      0.81945       -3.02          
239.0881      0.81946       -3.03          
239.6880      0.8194        -3.05          
240.2880      0.81933       -3.06          
240.8880      0.81922       -3.07          
241.4879      0.81916       -3.07          
242.0879      0.81915       -3.08          
242.6879      0.81907       -3.08          
243.2879      0.81908       -3.09          
243.8878      0.8191        -3.09          
244.4878      0.81909       -3.10          
245.0878      0.81908       -3.10          
245.6877      0.81907       -3.11          
246.2877      0.81908       -3.11          
246.8877      0.8191        -3.12          
247.4876      0.8191        -3.12          
248.0876      0.81911       -3.13          
248.6876      0.81908       -3.14          
249.2876      0.81906       -3.15          
249.8875      0.8191        -3.16          
250.4875      0.81904       -3.16          
251.0875      0.81909       -3.17          
251.6874      0.81904       -3.18          
252.2874      0.81902       -3.18          
252.8874      0.81906       -3.19          
253.4873      0.81906       -3.20          
254.0873      0.81908       -3.20          
254.6873      0.81908       -3.21          
255.2873      0.81908       -3.22          
255.8872      0.81904       -3.23          
256.4872      0.81905       -3.23          
257.0872      0.81907       -3.24          
257.6871      0.81907       -3.25          
258.2871      0.81903       -3.25          
258.8871      0.81905       -3.26          
259.4870      0.81904       -3.27          
260.0870      0.81907       -3.27          
260.6870      0.81906       -3.27          
261.2870      0.81903       -3.28          
261.8869      0.81902       -3.29          
262.4869      0.81902       -3.30          
263.0869      0.81897       -3.30          
263.6868      0.81897       -3.31          
264.2868      0.81897       -3.32          
264.8868      0.81894       -3.32          
