!    3/12/2021   05:52:13 
! Ref Plane: 23.990 mm
# MHZ S MA R  50
!
0.3000        0.82054       0.03           
0.9000        0.81751       0.06           
1.4999        0.81758       0.04           
2.0999        0.81755       0.03           
2.6999        0.81758       0.01           
3.2999        0.81759       0.00           
3.8998        0.81765       -0.02          
4.4998        0.81767       -0.03          
5.0998        0.81768       -0.04          
5.6997        0.81769       -0.05          
6.2997        0.81772       -0.06          
6.8997        0.81774       -0.07          
7.4996        0.81773       -0.08          
8.0996        0.81777       -0.09          
8.6996        0.81771       -0.11          
9.2996        0.8178        -0.11          
9.8995        0.81775       -0.12          
10.4995       0.81775       -0.12          
11.0995       0.81777       -0.13          
11.6994       0.81781       -0.15          
12.2994       0.8178        -0.16          
12.8994       0.81783       -0.17          
13.4993       0.81779       -0.17          
14.0993       0.81784       -0.18          
14.6993       0.81779       -0.19          
15.2993       0.81777       -0.20          
15.8992       0.81778       -0.21          
16.4992       0.81778       -0.21          
17.0992       0.8178        -0.22          
17.6991       0.81779       -0.23          
18.2991       0.8178        -0.24          
18.8991       0.81781       -0.25          
19.4990       0.81782       -0.26          
20.0990       0.81779       -0.27          
20.6990       0.81782       -0.28          
21.2990       0.81781       -0.29          
21.8989       0.81779       -0.30          
22.4989       0.81783       -0.31          
23.0989       0.81794       -0.32          
23.6988       0.81783       -0.33          
24.2988       0.81789       -0.34          
24.8988       0.81785       -0.35          
25.4987       0.81789       -0.36          
26.0987       0.81787       -0.37          
26.6987       0.81788       -0.38          
27.2987       0.81789       -0.39          
27.8986       0.81796       -0.40          
28.4986       0.81793       -0.40          
29.0986       0.81798       -0.41          
29.6985       0.81799       -0.42          
30.2985       0.81801       -0.43          
30.8985       0.81798       -0.43          
31.4984       0.8179        -0.44          
32.0984       0.81796       -0.45          
32.6984       0.81803       -0.46          
33.2984       0.81804       -0.47          
33.8983       0.81804       -0.48          
34.4983       0.818         -0.49          
35.0983       0.818         -0.49          
35.6982       0.818         -0.50          
36.2982       0.81805       -0.51          
36.8982       0.81802       -0.52          
37.4981       0.81804       -0.53          
38.0981       0.81804       -0.54          
38.6981       0.81804       -0.55          
39.2981       0.81808       -0.56          
39.8980       0.81807       -0.57          
40.4980       0.8181        -0.58          
41.0980       0.81808       -0.59          
41.6979       0.8181        -0.59          
42.2979       0.81806       -0.61          
42.8979       0.8181        -0.62          
43.4978       0.81809       -0.62          
44.0978       0.81811       -0.63          
44.6978       0.81811       -0.63          
45.2978       0.81812       -0.64          
45.8977       0.81812       -0.66          
46.4977       0.81812       -0.66          
47.0977       0.81814       -0.66          
47.6976       0.81817       -0.67          
48.2976       0.81808       -0.68          
48.8976       0.81816       -0.69          
49.4975       0.81822       -0.71          
50.0975       0.81814       -0.72          
50.6975       0.81818       -0.72          
51.2975       0.81818       -0.73          
51.8974       0.81821       -0.75          
52.4974       0.81823       -0.76          
53.0974       0.81824       -0.77          
53.6973       0.81823       -0.78          
54.2973       0.81822       -0.86          
54.8973       0.81819       -0.80          
55.4972       0.81818       -0.80          
56.0972       0.8182        -0.81          
56.6972       0.81822       -0.82          
57.2972       0.8182        -0.83          
57.8971       0.81822       -0.84          
58.4971       0.81822       -0.85          
59.0971       0.81823       -0.86          
59.6970       0.81827       -0.86          
60.2970       0.81821       -0.87          
60.8970       0.81827       -0.88          
61.4969       0.81828       -0.89          
62.0969       0.81824       -0.89          
62.6969       0.8183        -0.90          
63.2969       0.81827       -0.92          
63.8968       0.8183        -0.92          
64.4968       0.8183        -0.93          
65.0968       0.81831       -0.94          
65.6967       0.81833       -0.95          
66.2967       0.81835       -0.96          
66.8967       0.81831       -0.96          
67.4966       0.81837       -0.98          
68.0966       0.81832       -0.98          
68.6966       0.81833       -0.99          
69.2966       0.81833       -1.00          
69.8965       0.8183        -1.01          
70.4965       0.8183        -1.02          
71.0965       0.81831       -1.03          
71.6964       0.8184        -1.04          
72.2964       0.81839       -1.05          
72.8964       0.81834       -1.06          
73.4963       0.81831       -1.07          
74.0963       0.81834       -1.07          
74.6963       0.81831       -1.08          
75.2963       0.81836       -1.09          
75.8962       0.81831       -1.10          
76.4962       0.81835       -1.11          
77.0962       0.81837       -1.12          
77.6961       0.81836       -1.12          
78.2961       0.81834       -1.13          
78.8961       0.8183        -1.14          
79.4960       0.81838       -1.15          
80.0960       0.81837       -1.16          
80.6960       0.81842       -1.17          
81.2960       0.81836       -1.18          
81.8959       0.81835       -1.19          
82.4959       0.81836       -1.20          
83.0959       0.81843       -1.21          
83.6958       0.81833       -1.22          
84.2958       0.81829       -1.22          
84.8958       0.81834       -1.24          
85.4957       0.81838       -1.25          
86.0957       0.81836       -1.26          
86.6957       0.81836       -1.27          
87.2957       0.81828       -1.28          
87.8956       0.81834       -1.29          
88.4956       0.81834       -1.30          
89.0956       0.81836       -1.30          
89.6955       0.81836       -1.30          
90.2955       0.81836       -1.31          
90.8955       0.81831       -1.32          
91.4954       0.81833       -1.33          
92.0954       0.81825       -1.34          
92.6954       0.81827       -1.35          
93.2954       0.81834       -1.36          
93.8953       0.81839       -1.37          
94.4953       0.81844       -1.38          
95.0953       0.81842       -1.39          
95.6952       0.81842       -1.40          
96.2952       0.8185        -1.41          
96.8952       0.8184        -1.42          
97.4951       0.81845       -1.43          
98.0951       0.81843       -1.44          
98.6951       0.81841       -1.44          
99.2951       0.81847       -1.45          
99.8950       0.81856       -1.46          
100.4950      0.81842       -1.47          
101.0950      0.81846       -1.48          
101.6949      0.81839       -1.49          
102.2949      0.81846       -1.50          
102.8949      0.81839       -1.50          
103.4948      0.81836       -1.52          
104.0948      0.81834       -1.53          
104.6948      0.81831       -1.53          
105.2948      0.81834       -1.54          
105.8947      0.81841       -1.55          
106.4947      0.81834       -1.56          
107.0947      0.81832       -1.56          
107.6946      0.81831       -1.58          
108.2946      0.81828       -1.58          
108.8946      0.81836       -1.59          
109.4945      0.81834       -1.60          
110.0945      0.81837       -1.61          
110.6945      0.81841       -1.62          
111.2945      0.8184        -1.63          
111.8944      0.81843       -1.64          
112.4944      0.81842       -1.65          
113.0944      0.81843       -1.65          
113.6943      0.81843       -1.67          
114.2943      0.81849       -1.68          
114.8943      0.81838       -1.69          
115.4942      0.81851       -1.70          
116.0942      0.81846       -1.70          
116.6942      0.81843       -1.71          
117.2942      0.81842       -1.72          
117.8941      0.81843       -1.73          
118.4941      0.81844       -1.74          
119.0941      0.81841       -1.75          
119.6940      0.81835       -1.76          
120.2940      0.81839       -1.77          
120.8940      0.81837       -1.77          
121.4939      0.81838       -1.78          
122.0939      0.81834       -1.80          
122.6939      0.81835       -1.81          
123.2939      0.81838       -1.81          
123.8938      0.81835       -1.83          
124.4938      0.81842       -1.83          
125.0938      0.81839       -1.84          
125.6937      0.81839       -1.85          
126.2937      0.81838       -1.86          
126.8937      0.81838       -1.87          
127.4936      0.81844       -1.88          
128.0936      0.81841       -1.89          
128.6936      0.81842       -1.90          
129.2936      0.81839       -1.91          
129.8935      0.81844       -1.92          
130.4935      0.81841       -1.93          
131.0935      0.81849       -1.94          
131.6934      0.81846       -1.94          
132.2934      0.81846       -1.95          
132.8934      0.81841       -1.96          
133.4933      0.81837       -1.97          
134.0933      0.8184        -1.98          
134.6933      0.81839       -1.99          
135.2933      0.81841       -2.00          
135.8932      0.81834       -2.00          
136.4932      0.81833       -2.02          
137.0932      0.81839       -2.03          
137.6931      0.81836       -2.03          
138.2931      0.81838       -2.05          
138.8931      0.8184        -2.05          
139.4930      0.81843       -2.07          
140.0930      0.81837       -2.07          
140.6930      0.81835       -2.08          
141.2930      0.81838       -2.09          
141.8929      0.81843       -2.10          
142.4929      0.81842       -2.11          
143.0929      0.8184        -2.12          
143.6928      0.81841       -2.13          
144.2928      0.81838       -2.14          
144.8928      0.81833       -2.15          
145.4927      0.81834       -2.16          
146.0927      0.81834       -2.17          
146.6927      0.81837       -2.17          
147.2927      0.81836       -2.19          
147.8926      0.81841       -2.19          
148.4926      0.81838       -2.20          
149.0926      0.81846       -2.21          
149.6925      0.81841       -2.22          
150.2925      0.81842       -2.23          
150.8925      0.81839       -2.24          
151.4924      0.81845       -2.25          
152.0924      0.81842       -2.26          
152.6924      0.81842       -2.27          
153.2924      0.81843       -2.28          
153.8923      0.81848       -2.29          
154.4923      0.81846       -2.30          
155.0923      0.81846       -2.31          
155.6922      0.81842       -2.32          
156.2922      0.81843       -2.33          
156.8922      0.81838       -2.34          
157.4921      0.81841       -2.35          
158.0921      0.81839       -2.36          
158.6921      0.81841       -2.37          
159.2921      0.81836       -2.38          
159.8920      0.81843       -2.39          
160.4920      0.81843       -2.40          
161.0920      0.81845       -2.41          
161.6919      0.81852       -2.42          
162.2919      0.8185        -2.43          
162.8919      0.81851       -2.44          
163.4918      0.81849       -2.44          
164.0918      0.81854       -2.45          
164.6918      0.81852       -2.46          
165.2918      0.81844       -2.47          
165.8917      0.81848       -2.48          
166.4917      0.81848       -2.49          
167.0917      0.81849       -2.50          
167.6916      0.81848       -2.51          
168.2916      0.81846       -2.51          
168.8916      0.81841       -2.52          
169.4915      0.81845       -2.53          
170.0915      0.81843       -2.54          
170.6915      0.81843       -2.55          
171.2915      0.81846       -2.56          
171.8914      0.81842       -2.57          
172.4914      0.81842       -2.58          
173.0914      0.8184        -2.59          
173.6913      0.81842       -2.60          
174.2913      0.81844       -2.60          
174.8913      0.81839       -2.61          
175.4912      0.81842       -2.62          
176.0912      0.81843       -2.63          
176.6912      0.81845       -2.64          
177.2912      0.81851       -2.65          
177.8911      0.81854       -2.66          
178.4911      0.8185        -2.67          
179.0911      0.8185        -2.68          
179.6910      0.81851       -2.69          
180.2910      0.81852       -2.70          
180.8910      0.81857       -2.71          
181.4909      0.81858       -2.72          
182.0909      0.81857       -2.73          
182.6909      0.81859       -2.73          
183.2909      0.81857       -2.74          
183.8908      0.81852       -2.75          
184.4908      0.81854       -2.76          
185.0908      0.81846       -2.78          
185.6907      0.81845       -2.78          
186.2907      0.81843       -2.79          
186.8907      0.81845       -2.80          
187.4906      0.81844       -2.81          
188.0906      0.81847       -2.81          
188.6906      0.81849       -2.82          
189.2906      0.81849       -2.83          
189.8905      0.81847       -2.84          
190.4905      0.81843       -2.85          
191.0905      0.81846       -2.86          
191.6904      0.81848       -2.87          
192.2904      0.8185        -2.88          
192.8904      0.81851       -2.89          
193.4903      0.81855       -2.89          
194.0903      0.81856       -2.90          
194.6903      0.81858       -2.91          
195.2903      0.81858       -2.92          
195.8902      0.81857       -2.93          
196.4902      0.81858       -2.94          
197.0902      0.81855       -2.95          
197.6901      0.81857       -2.96          
198.2901      0.81856       -2.97          
198.8901      0.8186        -2.98          
199.4900      0.81856       -2.99          
200.0900      0.81847       -3.00          
200.6900      0.81854       -3.00          
201.2900      0.81854       -3.01          
201.8899      0.81851       -3.02          
202.4899      0.81853       -3.03          
203.0899      0.81851       -3.04          
203.6898      0.81854       -3.05          
204.2898      0.8185        -3.06          
204.8898      0.81853       -3.06          
205.4897      0.8185        -3.07          
206.0897      0.81843       -3.08          
206.6897      0.81849       -3.09          
207.2897      0.81853       -3.10          
207.8896      0.81852       -3.11          
208.4896      0.81856       -3.12          
209.0896      0.81862       -3.13          
209.6895      0.81871       -3.14          
210.2895      0.81863       -3.15          
210.8895      0.81872       -3.16          
211.4894      0.8187        -3.17          
212.0894      0.81868       -3.17          
212.6894      0.81869       -3.18          
213.2894      0.81864       -3.20          
213.8893      0.81863       -3.20          
214.4893      0.81863       -3.21          
215.0893      0.81865       -3.22          
215.6892      0.81865       -3.23          
216.2892      0.81865       -3.24          
216.8892      0.81867       -3.25          
217.4891      0.81863       -3.26          
218.0891      0.81861       -3.27          
218.6891      0.81862       -3.27          
219.2891      0.81867       -3.29          
219.8890      0.81867       -3.29          
220.4890      0.81865       -3.30          
221.0890      0.81867       -3.31          
221.6889      0.8187        -3.32          
222.2889      0.81873       -3.33          
222.8889      0.8187        -3.34          
223.4888      0.81873       -3.35          
224.0888      0.81872       -3.35          
224.6888      0.8188        -3.36          
225.2888      0.81878       -3.38          
225.8887      0.81882       -3.38          
226.4887      0.81883       -3.39          
227.0887      0.81883       -3.40          
227.6886      0.81887       -3.41          
228.2886      0.8188        -3.42          
228.8886      0.81883       -3.42          
229.4885      0.8188        -3.43          
230.0885      0.81878       -3.44          
230.6885      0.81879       -3.45          
231.2885      0.81878       -3.46          
231.8884      0.81879       -3.47          
232.4884      0.81877       -3.48          
233.0884      0.81884       -3.49          
233.6883      0.81879       -3.50          
234.2883      0.81886       -3.50          
234.8883      0.81886       -3.51          
235.4882      0.81885       -3.52          
236.0882      0.81888       -3.53          
236.6882      0.81885       -3.54          
237.2882      0.81887       -3.55          
237.8881      0.81888       -3.56          
238.4881      0.81885       -3.57          
239.0881      0.81887       -3.57          
239.6880      0.81889       -3.59          
240.2880      0.81893       -3.59          
240.8880      0.81887       -3.60          
241.4879      0.81894       -3.61          
242.0879      0.81889       -3.62          
242.6879      0.81894       -3.63          
243.2879      0.81898       -3.64          
243.8878      0.81902       -3.65          
244.4878      0.81903       -3.66          
245.0878      0.81904       -3.67          
245.6877      0.81906       -3.68          
246.2877      0.81903       -3.70          
246.8877      0.81899       -3.71          
247.4876      0.8189        -3.72          
248.0876      0.81883       -3.73          
248.6876      0.81877       -3.74          
249.2876      0.81878       -3.75          
249.8875      0.81872       -3.75          
250.4875      0.81865       -3.76          
251.0875      0.81864       -3.77          
251.6874      0.8186        -3.78          
252.2874      0.81861       -3.78          
252.8874      0.8186        -3.79          
253.4873      0.81863       -3.80          
254.0873      0.81865       -3.81          
254.6873      0.81863       -3.81          
255.2873      0.81862       -3.82          
255.8872      0.81863       -3.83          
256.4872      0.81863       -3.84          
257.0872      0.81864       -3.85          
257.6871      0.81867       -3.85          
258.2871      0.81863       -3.86          
258.8871      0.81861       -3.87          
259.4870      0.81861       -3.88          
260.0870      0.81865       -3.88          
260.6870      0.81862       -3.89          
261.2870      0.81862       -3.90          
261.8869      0.81861       -3.91          
262.4869      0.8186        -3.92          
263.0869      0.81858       -3.92          
263.6868      0.81859       -3.93          
264.2868      0.81853       -3.94          
264.8868      0.81851       -3.95          
