!    3/12/2021   10:03:42 
! Ref Plane: 23.990 mm
# MHZ S MA R  50
!
0.3000        0.82052       0.02           
0.9000        0.81742       0.06           
1.4999        0.81758       0.04           
2.0999        0.81759       0.03           
2.6999        0.81763       0.02           
3.2999        0.81762       0.01           
3.8998        0.81766       0.00           
4.4998        0.81765       -0.02          
5.0998        0.81766       -0.03          
5.6997        0.81769       -0.04          
6.2997        0.81773       -0.05          
6.8997        0.81777       -0.06          
7.4996        0.81774       -0.06          
8.0996        0.81775       -0.07          
8.6996        0.81774       -0.09          
9.2996        0.81776       -0.09          
9.8995        0.81776       -0.10          
10.4995       0.81777       -0.11          
11.0995       0.81778       -0.11          
11.6994       0.81779       -0.12          
12.2994       0.81778       -0.13          
12.8994       0.81782       -0.14          
13.4993       0.81781       -0.15          
14.0993       0.81785       -0.15          
14.6993       0.81778       -0.16          
15.2993       0.81776       -0.17          
15.8992       0.81777       -0.18          
16.4992       0.81778       -0.18          
17.0992       0.81781       -0.19          
17.6991       0.81778       -0.20          
18.2991       0.81779       -0.21          
18.8991       0.81782       -0.21          
19.4990       0.81781       -0.22          
20.0990       0.81779       -0.23          
20.6990       0.81779       -0.25          
21.2990       0.81779       -0.25          
21.8989       0.8178        -0.26          
22.4989       0.81782       -0.27          
23.0989       0.81787       -0.28          
23.6988       0.81787       -0.29          
24.2988       0.81786       -0.29          
24.8988       0.81781       -0.31          
25.4987       0.8179        -0.31          
26.0987       0.81787       -0.32          
26.6987       0.8179        -0.33          
27.2987       0.81787       -0.34          
27.8986       0.81794       -0.35          
28.4986       0.81788       -0.35          
29.0986       0.81798       -0.36          
29.6985       0.81791       -0.36          
30.2985       0.81795       -0.37          
30.8985       0.81795       -0.38          
31.4984       0.81789       -0.39          
32.0984       0.81796       -0.40          
32.6984       0.81798       -0.40          
33.2984       0.81798       -0.41          
33.8983       0.81796       -0.42          
34.4983       0.81801       -0.43          
35.0983       0.81799       -0.43          
35.6982       0.81799       -0.44          
36.2982       0.81802       -0.45          
36.8982       0.81804       -0.45          
37.4981       0.81807       -0.46          
38.0981       0.81799       -0.47          
38.6981       0.81804       -0.48          
39.2981       0.81807       -0.49          
39.8980       0.81802       -0.50          
40.4980       0.81805       -0.51          
41.0980       0.81802       -0.52          
41.6979       0.81803       -0.52          
42.2979       0.81803       -0.53          
42.8979       0.8181        -0.54          
43.4978       0.81805       -0.55          
44.0978       0.81807       -0.55          
44.6978       0.8181        -0.56          
45.2978       0.81809       -0.57          
45.8977       0.81808       -0.58          
46.4977       0.81812       -0.58          
47.0977       0.81811       -0.59          
47.6976       0.81813       -0.59          
48.2976       0.8181        -0.60          
48.8976       0.81808       -0.61          
49.4975       0.81815       -0.62          
50.0975       0.81813       -0.63          
50.6975       0.81818       -0.64          
51.2975       0.81816       -0.65          
51.8974       0.81819       -0.66          
52.4974       0.81818       -0.67          
53.0974       0.81816       -0.68          
53.6973       0.8182        -0.69          
54.2973       0.81819       -0.77          
54.8973       0.81816       -0.71          
55.4972       0.81814       -0.71          
56.0972       0.81819       -0.72          
56.6972       0.81818       -0.73          
57.2972       0.81817       -0.74          
57.8971       0.81821       -0.74          
58.4971       0.8182        -0.75          
59.0971       0.81824       -0.76          
59.6970       0.8182        -0.76          
60.2970       0.81821       -0.77          
60.8970       0.81822       -0.78          
61.4969       0.81826       -0.78          
62.0969       0.81821       -0.79          
62.6969       0.81826       -0.80          
63.2969       0.81825       -0.81          
63.8968       0.81824       -0.82          
64.4968       0.81826       -0.83          
65.0968       0.81826       -0.83          
65.6967       0.81829       -0.84          
66.2967       0.81826       -0.85          
66.8967       0.81825       -0.86          
67.4966       0.8183        -0.87          
68.0966       0.81828       -0.88          
68.6966       0.8183        -0.88          
69.2966       0.81827       -0.89          
69.8965       0.81825       -0.90          
70.4965       0.81827       -0.91          
71.0965       0.81828       -0.92          
71.6964       0.81832       -0.92          
72.2964       0.81832       -0.93          
72.8964       0.81828       -0.94          
73.4963       0.81827       -0.95          
74.0963       0.81832       -0.95          
74.6963       0.81829       -0.96          
75.2963       0.8183        -0.97          
75.8962       0.81826       -0.98          
76.4962       0.81829       -0.98          
77.0962       0.81832       -0.99          
77.6961       0.81829       -1.00          
78.2961       0.81833       -1.01          
78.8961       0.81828       -1.02          
79.4960       0.81835       -1.02          
80.0960       0.81835       -1.03          
80.6960       0.81835       -1.04          
81.2960       0.81836       -1.05          
81.8959       0.81835       -1.06          
82.4959       0.81833       -1.07          
83.0959       0.81841       -1.08          
83.6958       0.81834       -1.09          
84.2958       0.81824       -1.09          
84.8958       0.81829       -1.10          
85.4957       0.81834       -1.11          
86.0957       0.81836       -1.12          
86.6957       0.81835       -1.13          
87.2957       0.81829       -1.14          
87.8956       0.81834       -1.15          
88.4956       0.81826       -1.16          
89.0956       0.81831       -1.16          
89.6955       0.81827       -1.17          
90.2955       0.81836       -1.17          
90.8955       0.81826       -1.18          
91.4954       0.8183        -1.18          
92.0954       0.81824       -1.20          
92.6954       0.81822       -1.20          
93.2954       0.81833       -1.21          
93.8953       0.81836       -1.23          
94.4953       0.81838       -1.23          
95.0953       0.81839       -1.24          
95.6952       0.8184        -1.25          
96.2952       0.81844       -1.26          
96.8952       0.81836       -1.27          
97.4951       0.81838       -1.27          
98.0951       0.81838       -1.28          
98.6951       0.81841       -1.29          
99.2951       0.81841       -1.30          
99.8950       0.8185        -1.31          
100.4950      0.81839       -1.32          
101.0950      0.81843       -1.32          
101.6949      0.81832       -1.33          
102.2949      0.81838       -1.34          
102.8949      0.81833       -1.35          
103.4948      0.81833       -1.36          
104.0948      0.81832       -1.37          
104.6948      0.81832       -1.37          
105.2948      0.81832       -1.38          
105.8947      0.81836       -1.39          
106.4947      0.81833       -1.39          
107.0947      0.81826       -1.40          
107.6946      0.81828       -1.41          
108.2946      0.81832       -1.42          
108.8946      0.81829       -1.42          
109.4945      0.81839       -1.44          
110.0945      0.81835       -1.44          
110.6945      0.81835       -1.45          
111.2945      0.81839       -1.46          
111.8944      0.81842       -1.47          
112.4944      0.81838       -1.47          
113.0944      0.81841       -1.48          
113.6943      0.81842       -1.50          
114.2943      0.81844       -1.50          
114.8943      0.81839       -1.51          
115.4942      0.81845       -1.52          
116.0942      0.81844       -1.53          
116.6942      0.81842       -1.53          
117.2942      0.81842       -1.54          
117.8941      0.81843       -1.55          
118.4941      0.8184        -1.56          
119.0941      0.81837       -1.57          
119.6940      0.81835       -1.58          
120.2940      0.81836       -1.59          
120.8940      0.81833       -1.59          
121.4939      0.81833       -1.60          
122.0939      0.81832       -1.61          
122.6939      0.81835       -1.62          
123.2939      0.81836       -1.63          
123.8938      0.81835       -1.64          
124.4938      0.81838       -1.65          
125.0938      0.81835       -1.65          
125.6937      0.81836       -1.66          
126.2937      0.81839       -1.67          
126.8937      0.81837       -1.68          
127.4936      0.81841       -1.69          
128.0936      0.81842       -1.70          
128.6936      0.81843       -1.71          
129.2936      0.81837       -1.71          
129.8935      0.8184        -1.72          
130.4935      0.81843       -1.73          
131.0935      0.81849       -1.74          
131.6934      0.81843       -1.75          
132.2934      0.81845       -1.75          
132.8934      0.81839       -1.76          
133.4933      0.81833       -1.77          
134.0933      0.81839       -1.78          
134.6933      0.81836       -1.79          
135.2933      0.81839       -1.79          
135.8932      0.81835       -1.80          
136.4932      0.81835       -1.81          
137.0932      0.81839       -1.82          
137.6931      0.81838       -1.83          
138.2931      0.81838       -1.84          
138.8931      0.81838       -1.85          
139.4930      0.81843       -1.86          
140.0930      0.81837       -1.87          
140.6930      0.81832       -1.87          
141.2930      0.81836       -1.88          
141.8929      0.81837       -1.89          
142.4929      0.81841       -1.90          
143.0929      0.8184        -1.91          
143.6928      0.81836       -1.92          
144.2928      0.81837       -1.93          
144.8928      0.81835       -1.94          
145.4927      0.81834       -1.95          
146.0927      0.81833       -1.95          
146.6927      0.81835       -1.96          
147.2927      0.81835       -1.97          
147.8926      0.81835       -1.98          
148.4926      0.81842       -1.99          
149.0926      0.81839       -1.99          
149.6925      0.81842       -2.00          
150.2925      0.81841       -2.01          
150.8925      0.81838       -2.02          
151.4924      0.81842       -2.03          
152.0924      0.81841       -2.04          
152.6924      0.81841       -2.05          
153.2924      0.8184        -2.05          
153.8923      0.81844       -2.06          
154.4923      0.8184        -2.07          
155.0923      0.81841       -2.08          
155.6922      0.81843       -2.09          
156.2922      0.8184        -2.10          
156.8922      0.81834       -2.12          
157.4921      0.81841       -2.12          
158.0921      0.81839       -2.13          
158.6921      0.81841       -2.14          
159.2921      0.81838       -2.15          
159.8920      0.8184        -2.16          
160.4920      0.81839       -2.17          
161.0920      0.81844       -2.18          
161.6919      0.81848       -2.18          
162.2919      0.81847       -2.19          
162.8919      0.8185        -2.21          
163.4918      0.81848       -2.21          
164.0918      0.81852       -2.22          
164.6918      0.8185        -2.22          
165.2918      0.81845       -2.23          
165.8917      0.8185        -2.24          
166.4917      0.81849       -2.25          
167.0917      0.81852       -2.26          
167.6916      0.81845       -2.27          
168.2916      0.81842       -2.27          
168.8916      0.81843       -2.28          
169.4915      0.81847       -2.29          
170.0915      0.81842       -2.30          
170.6915      0.81844       -2.31          
171.2915      0.81846       -2.32          
171.8914      0.81842       -2.32          
172.4914      0.81842       -2.33          
173.0914      0.81837       -2.34          
173.6913      0.81842       -2.35          
174.2913      0.81842       -2.36          
174.8913      0.81837       -2.36          
175.4912      0.81841       -2.37          
176.0912      0.81844       -2.38          
176.6912      0.81845       -2.39          
177.2912      0.81847       -2.40          
177.8911      0.8185        -2.41          
178.4911      0.81847       -2.42          
179.0911      0.81851       -2.43          
179.6910      0.8185        -2.43          
180.2910      0.81851       -2.45          
180.8910      0.81854       -2.46          
181.4909      0.81857       -2.46          
182.0909      0.81857       -2.47          
182.6909      0.81852       -2.48          
183.2909      0.81855       -2.49          
183.8908      0.81853       -2.50          
184.4908      0.81856       -2.51          
185.0908      0.81847       -2.52          
185.6907      0.81848       -2.52          
186.2907      0.81844       -2.53          
186.8907      0.81847       -2.54          
187.4906      0.81842       -2.55          
188.0906      0.81846       -2.55          
188.6906      0.81852       -2.56          
189.2906      0.8185        -2.57          
189.8905      0.81846       -2.58          
190.4905      0.81849       -2.58          
191.0905      0.81845       -2.60          
191.6904      0.81843       -2.60          
192.2904      0.81845       -2.61          
192.8904      0.81851       -2.62          
193.4903      0.81853       -2.63          
194.0903      0.81855       -2.64          
194.6903      0.81857       -2.64          
195.2903      0.81857       -2.65          
195.8902      0.81855       -2.66          
196.4902      0.81859       -2.67          
197.0902      0.81856       -2.67          
197.6901      0.81854       -2.69          
198.2901      0.81855       -2.69          
198.8901      0.81856       -2.70          
199.4900      0.81858       -2.71          
200.0900      0.81848       -2.72          
200.6900      0.81854       -2.73          
201.2900      0.81849       -2.73          
201.8899      0.8185        -2.74          
202.4899      0.81846       -2.76          
203.0899      0.81847       -2.76          
203.6898      0.81852       -2.77          
204.2898      0.81852       -2.78          
204.8898      0.81851       -2.79          
205.4897      0.81849       -2.79          
206.0897      0.81848       -2.80          
206.6897      0.81849       -2.81          
207.2897      0.81854       -2.82          
207.8896      0.81853       -2.83          
208.4896      0.81852       -2.84          
209.0896      0.81863       -2.85          
209.6895      0.81869       -2.85          
210.2895      0.81862       -2.86          
210.8895      0.81867       -2.87          
211.4894      0.81867       -2.88          
212.0894      0.8187        -2.89          
212.6894      0.81865       -2.89          
213.2894      0.81867       -2.91          
213.8893      0.81868       -2.91          
214.4893      0.81864       -2.92          
215.0893      0.81861       -2.93          
215.6892      0.81866       -2.94          
216.2892      0.81865       -2.94          
216.8892      0.81864       -2.95          
217.4891      0.81863       -2.96          
218.0891      0.81866       -2.97          
218.6891      0.8186        -2.98          
219.2891      0.81866       -2.99          
219.8890      0.81866       -2.99          
220.4890      0.81869       -3.00          
221.0890      0.8187        -3.01          
221.6889      0.81864       -3.02          
222.2889      0.81874       -3.03          
222.8889      0.81872       -3.04          
223.4888      0.81871       -3.04          
224.0888      0.81875       -3.06          
224.6888      0.81885       -3.06          
225.2888      0.81879       -3.07          
225.8887      0.81879       -3.08          
226.4887      0.81883       -3.09          
227.0887      0.8188        -3.09          
227.6886      0.81887       -3.10          
228.2886      0.81881       -3.11          
228.8886      0.81885       -3.12          
229.4885      0.81883       -3.12          
230.0885      0.81881       -3.13          
230.6885      0.81878       -3.14          
231.2885      0.81882       -3.15          
231.8884      0.81884       -3.15          
232.4884      0.81879       -3.17          
233.0884      0.81882       -3.18          
233.6883      0.8188        -3.19          
234.2883      0.81887       -3.19          
234.8883      0.81889       -3.20          
235.4882      0.81884       -3.21          
236.0882      0.81886       -3.21          
236.6882      0.81891       -3.22          
237.2882      0.8189        -3.23          
237.8881      0.81892       -3.24          
238.4881      0.81894       -3.25          
239.0881      0.81893       -3.26          
239.6880      0.81893       -3.27          
240.2880      0.81895       -3.28          
240.8880      0.81896       -3.29          
241.4879      0.81898       -3.30          
242.0879      0.81897       -3.31          
242.6879      0.81894       -3.32          
243.2879      0.81892       -3.33          
243.8878      0.81887       -3.34          
244.4878      0.81881       -3.35          
245.0878      0.81875       -3.36          
245.6877      0.81871       -3.36          
246.2877      0.81872       -3.37          
246.8877      0.81868       -3.38          
247.4876      0.81866       -3.38          
248.0876      0.81865       -3.38          
248.6876      0.81863       -3.40          
249.2876      0.81867       -3.40          
249.8875      0.81866       -3.41          
250.4875      0.8186        -3.42          
251.0875      0.81865       -3.43          
251.6874      0.8186        -3.44          
252.2874      0.81856       -3.44          
252.8874      0.81863       -3.45          
253.4873      0.81859       -3.46          
254.0873      0.81864       -3.46          
254.6873      0.81863       -3.47          
255.2873      0.81865       -3.48          
255.8872      0.8186        -3.49          
256.4872      0.81859       -3.50          
257.0872      0.81865       -3.50          
257.6871      0.81868       -3.51          
258.2871      0.81863       -3.52          
258.8871      0.81863       -3.53          
259.4870      0.81858       -3.53          
260.0870      0.81866       -3.54          
260.6870      0.81862       -3.55          
261.2870      0.81862       -3.55          
261.8869      0.81862       -3.56          
262.4869      0.81859       -3.57          
263.0869      0.81855       -3.58          
263.6868      0.81855       -3.58          
264.2868      0.81852       -3.59          
264.8868      0.8185        -3.60          
