!    3/12/2021   05:59:06 
! Ref Plane: 23.990 mm
# MHZ S MA R  50
!
0.3000        0.82052       0.01           
0.9000        0.81743       0.04           
1.4999        0.81751       0.02           
2.0999        0.81759       0.01           
2.6999        0.81758       -0.01          
3.2999        0.81759       -0.02          
3.8998        0.81767       -0.03          
4.4998        0.81766       -0.04          
5.0998        0.81768       -0.05          
5.6997        0.81774       -0.06          
6.2997        0.81774       -0.07          
6.8997        0.81776       -0.08          
7.4996        0.81773       -0.09          
8.0996        0.81777       -0.10          
8.6996        0.81776       -0.11          
9.2996        0.81784       -0.12          
9.8995        0.8178        -0.12          
10.4995       0.8178        -0.13          
11.0995       0.81784       -0.14          
11.6994       0.81788       -0.15          
12.2994       0.81786       -0.16          
12.8994       0.81788       -0.16          
13.4993       0.81788       -0.17          
14.0993       0.81787       -0.18          
14.6993       0.81781       -0.19          
15.2993       0.8178        -0.20          
15.8992       0.81786       -0.20          
16.4992       0.81784       -0.21          
17.0992       0.8179        -0.22          
17.6991       0.81786       -0.22          
18.2991       0.81789       -0.24          
18.8991       0.8179        -0.24          
19.4990       0.81789       -0.25          
20.0990       0.8179        -0.26          
20.6990       0.81789       -0.27          
21.2990       0.81789       -0.28          
21.8989       0.8179        -0.29          
22.4989       0.81792       -0.30          
23.0989       0.81801       -0.31          
23.6988       0.81792       -0.32          
24.2988       0.81796       -0.32          
24.8988       0.81793       -0.33          
25.4987       0.81797       -0.34          
26.0987       0.818         -0.35          
26.6987       0.81794       -0.36          
27.2987       0.81798       -0.37          
27.8986       0.81804       -0.38          
28.4986       0.81801       -0.38          
29.0986       0.81812       -0.39          
29.6985       0.81807       -0.39          
30.2985       0.81809       -0.40          
30.8985       0.81805       -0.41          
31.4984       0.81795       -0.42          
32.0984       0.81806       -0.43          
32.6984       0.81813       -0.43          
33.2984       0.81814       -0.44          
33.8983       0.8181        -0.45          
34.4983       0.81815       -0.46          
35.0983       0.81811       -0.46          
35.6982       0.81814       -0.47          
36.2982       0.81815       -0.48          
36.8982       0.81813       -0.49          
37.4981       0.81816       -0.50          
38.0981       0.81812       -0.51          
38.6981       0.81818       -0.52          
39.2981       0.81816       -0.53          
39.8980       0.81817       -0.53          
40.4980       0.8182        -0.54          
41.0980       0.81814       -0.55          
41.6979       0.81822       -0.56          
42.2979       0.81815       -0.57          
42.8979       0.81818       -0.58          
43.4978       0.81819       -0.58          
44.0978       0.8182        -0.59          
44.6978       0.81824       -0.60          
45.2978       0.81823       -0.61          
45.8977       0.81822       -0.61          
46.4977       0.81826       -0.62          
47.0977       0.81827       -0.62          
47.6976       0.81824       -0.63          
48.2976       0.81823       -0.64          
48.8976       0.81823       -0.65          
49.4975       0.8183        -0.66          
50.0975       0.81826       -0.67          
50.6975       0.81829       -0.68          
51.2975       0.81828       -0.69          
51.8974       0.81835       -0.70          
52.4974       0.81832       -0.71          
53.0974       0.81833       -0.72          
53.6973       0.81838       -0.73          
54.2973       0.81835       -0.82          
54.8973       0.8183        -0.75          
55.4972       0.8183        -0.75          
56.0972       0.81832       -0.76          
56.6972       0.81835       -0.77          
57.2972       0.81833       -0.78          
57.8971       0.81836       -0.79          
58.4971       0.81838       -0.79          
59.0971       0.81838       -0.80          
59.6970       0.81836       -0.81          
60.2970       0.81837       -0.81          
60.8970       0.81838       -0.82          
61.4969       0.81838       -0.83          
62.0969       0.81837       -0.84          
62.6969       0.81838       -0.85          
63.2969       0.81839       -0.86          
63.8968       0.81842       -0.87          
64.4968       0.81842       -0.87          
65.0968       0.81843       -0.88          
65.6967       0.81847       -0.89          
66.2967       0.81847       -0.90          
66.8967       0.81841       -0.90          
67.4966       0.81844       -0.91          
68.0966       0.81842       -0.92          
68.6966       0.81843       -0.93          
69.2966       0.81843       -0.94          
69.8965       0.81842       -0.95          
70.4965       0.81845       -0.96          
71.0965       0.81843       -0.97          
71.6964       0.81848       -0.98          
72.2964       0.81848       -0.98          
72.8964       0.81847       -0.99          
73.4963       0.81842       -1.00          
74.0963       0.81846       -1.01          
74.6963       0.81845       -1.02          
75.2963       0.81847       -1.02          
75.8962       0.81841       -1.03          
76.4962       0.81849       -1.04          
77.0962       0.81849       -1.05          
77.6961       0.81845       -1.05          
78.2961       0.81848       -1.06          
78.8961       0.81843       -1.07          
79.4960       0.81847       -1.08          
80.0960       0.8185        -1.09          
80.6960       0.8185        -1.09          
81.2960       0.81847       -1.10          
81.8959       0.81857       -1.12          
82.4959       0.81845       -1.12          
83.0959       0.81854       -1.13          
83.6958       0.8185        -1.14          
84.2958       0.8184        -1.15          
84.8958       0.81843       -1.16          
85.4957       0.81847       -1.17          
86.0957       0.81849       -1.18          
86.6957       0.81844       -1.19          
87.2957       0.81841       -1.20          
87.8956       0.81846       -1.21          
88.4956       0.81845       -1.21          
89.0956       0.81843       -1.22          
89.6955       0.81842       -1.22          
90.2955       0.81847       -1.23          
90.8955       0.81846       -1.24          
91.4954       0.81844       -1.25          
92.0954       0.81836       -1.26          
92.6954       0.81837       -1.27          
93.2954       0.81848       -1.27          
93.8953       0.81851       -1.29          
94.4953       0.81855       -1.30          
95.0953       0.81855       -1.31          
95.6952       0.81853       -1.31          
96.2952       0.81861       -1.32          
96.8952       0.81856       -1.33          
97.4951       0.81856       -1.34          
98.0951       0.81858       -1.35          
98.6951       0.81853       -1.35          
99.2951       0.81857       -1.36          
99.8950       0.81863       -1.37          
100.4950      0.81859       -1.38          
101.0950      0.81857       -1.39          
101.6949      0.8185        -1.40          
102.2949      0.81851       -1.41          
102.8949      0.81849       -1.41          
103.4948      0.81843       -1.43          
104.0948      0.81848       -1.44          
104.6948      0.8185        -1.44          
105.2948      0.81851       -1.45          
105.8947      0.8185        -1.46          
106.4947      0.81842       -1.46          
107.0947      0.81848       -1.47          
107.6946      0.81841       -1.48          
108.2946      0.81843       -1.49          
108.8946      0.81851       -1.50          
109.4945      0.81848       -1.51          
110.0945      0.81851       -1.51          
110.6945      0.81852       -1.52          
111.2945      0.81855       -1.53          
111.8944      0.81857       -1.54          
112.4944      0.81856       -1.55          
113.0944      0.81855       -1.56          
113.6943      0.8186        -1.56          
114.2943      0.8186        -1.57          
114.8943      0.81852       -1.58          
115.4942      0.81863       -1.59          
116.0942      0.81859       -1.60          
116.6942      0.81859       -1.61          
117.2942      0.81857       -1.62          
117.8941      0.81854       -1.62          
118.4941      0.81855       -1.63          
119.0941      0.81857       -1.64          
119.6940      0.81853       -1.65          
120.2940      0.81855       -1.66          
120.8940      0.81847       -1.67          
121.4939      0.81852       -1.68          
122.0939      0.81852       -1.69          
122.6939      0.81851       -1.70          
123.2939      0.81856       -1.70          
123.8938      0.81851       -1.71          
124.4938      0.81859       -1.72          
125.0938      0.81855       -1.73          
125.6937      0.81855       -1.74          
126.2937      0.81854       -1.75          
126.8937      0.81856       -1.76          
127.4936      0.8186        -1.77          
128.0936      0.81856       -1.78          
128.6936      0.81859       -1.79          
129.2936      0.81857       -1.79          
129.8935      0.81857       -1.80          
130.4935      0.81856       -1.81          
131.0935      0.81862       -1.82          
131.6934      0.81863       -1.82          
132.2934      0.81861       -1.83          
132.8934      0.81856       -1.84          
133.4933      0.81852       -1.85          
134.0933      0.81853       -1.86          
134.6933      0.81854       -1.87          
135.2933      0.81855       -1.87          
135.8932      0.81849       -1.88          
136.4932      0.81853       -1.89          
137.0932      0.81855       -1.90          
137.6931      0.81855       -1.91          
138.2931      0.81853       -1.92          
138.8931      0.81852       -1.93          
139.4930      0.81858       -1.94          
140.0930      0.81852       -1.95          
140.6930      0.8185        -1.96          
141.2930      0.81852       -1.96          
141.8929      0.81857       -1.97          
142.4929      0.81856       -1.98          
143.0929      0.81855       -1.99          
143.6928      0.81855       -2.00          
144.2928      0.81852       -2.01          
144.8928      0.81849       -2.02          
145.4927      0.81849       -2.03          
146.0927      0.81846       -2.04          
146.6927      0.81854       -2.04          
147.2927      0.81852       -2.05          
147.8926      0.81854       -2.06          
148.4926      0.81857       -2.07          
149.0926      0.81856       -2.08          
149.6925      0.81859       -2.09          
150.2925      0.81854       -2.10          
150.8925      0.81854       -2.11          
151.4924      0.81858       -2.11          
152.0924      0.81857       -2.12          
152.6924      0.81856       -2.13          
153.2924      0.81858       -2.14          
153.8923      0.81863       -2.15          
154.4923      0.81859       -2.16          
155.0923      0.81859       -2.17          
155.6922      0.81857       -2.18          
156.2922      0.8186        -2.19          
156.8922      0.81852       -2.20          
157.4921      0.81854       -2.20          
158.0921      0.81861       -2.21          
158.6921      0.81861       -2.22          
159.2921      0.81852       -2.23          
159.8920      0.81856       -2.24          
160.4920      0.81861       -2.25          
161.0920      0.81857       -2.26          
161.6919      0.81866       -2.27          
162.2919      0.81863       -2.28          
162.8919      0.81867       -2.29          
163.4918      0.81867       -2.29          
164.0918      0.81863       -2.30          
164.6918      0.81872       -2.30          
165.2918      0.81862       -2.32          
165.8917      0.81866       -2.33          
166.4917      0.81862       -2.33          
167.0917      0.81864       -2.34          
167.6916      0.81861       -2.35          
168.2916      0.8186        -2.36          
168.8916      0.81863       -2.37          
169.4915      0.81857       -2.38          
170.0915      0.81858       -2.38          
170.6915      0.81862       -2.39          
171.2915      0.8186        -2.40          
171.8914      0.81861       -2.41          
172.4914      0.81859       -2.42          
173.0914      0.81853       -2.43          
173.6913      0.81856       -2.44          
174.2913      0.81858       -2.44          
174.8913      0.81859       -2.45          
175.4912      0.81855       -2.46          
176.0912      0.8186        -2.47          
176.6912      0.81861       -2.48          
177.2912      0.81864       -2.49          
177.8911      0.81869       -2.50          
178.4911      0.81864       -2.51          
179.0911      0.81868       -2.52          
179.6910      0.81867       -2.52          
180.2910      0.81867       -2.53          
180.8910      0.81869       -2.54          
181.4909      0.81874       -2.55          
182.0909      0.81871       -2.56          
182.6909      0.81869       -2.57          
183.2909      0.81871       -2.57          
183.8908      0.81867       -2.59          
184.4908      0.81868       -2.60          
185.0908      0.81864       -2.61          
185.6907      0.81862       -2.61          
186.2907      0.81859       -2.62          
186.8907      0.81862       -2.63          
187.4906      0.81858       -2.64          
188.0906      0.81865       -2.64          
188.6906      0.81868       -2.65          
189.2906      0.81863       -2.66          
189.8905      0.81862       -2.67          
190.4905      0.81863       -2.67          
191.0905      0.81862       -2.68          
191.6904      0.81863       -2.69          
192.2904      0.81862       -2.70          
192.8904      0.81865       -2.71          
193.4903      0.81869       -2.71          
194.0903      0.8187        -2.72          
194.6903      0.81873       -2.73          
195.2903      0.81873       -2.74          
195.8902      0.81871       -2.75          
196.4902      0.81869       -2.76          
197.0902      0.81872       -2.76          
197.6901      0.81867       -2.77          
198.2901      0.8187        -2.78          
198.8901      0.81873       -2.79          
199.4900      0.81872       -2.80          
200.0900      0.81863       -2.81          
200.6900      0.81865       -2.82          
201.2900      0.81865       -2.82          
201.8899      0.81862       -2.83          
202.4899      0.81864       -2.85          
203.0899      0.81864       -2.85          
203.6898      0.81863       -2.86          
204.2898      0.81866       -2.86          
204.8898      0.81865       -2.87          
205.4897      0.81864       -2.88          
206.0897      0.81863       -2.89          
206.6897      0.81866       -2.90          
207.2897      0.8187        -2.91          
207.8896      0.81866       -2.92          
208.4896      0.81871       -2.93          
209.0896      0.81876       -2.93          
209.6895      0.8188        -2.94          
210.2895      0.81875       -2.95          
210.8895      0.8188        -2.96          
211.4894      0.81882       -2.97          
212.0894      0.81881       -2.98          
212.6894      0.81882       -2.99          
213.2894      0.8188        -3.00          
213.8893      0.81879       -3.00          
214.4893      0.81875       -3.01          
215.0893      0.81878       -3.02          
215.6892      0.81876       -3.03          
216.2892      0.81879       -3.03          
216.8892      0.81878       -3.05          
217.4891      0.81873       -3.06          
218.0891      0.81875       -3.07          
218.6891      0.81872       -3.07          
219.2891      0.81875       -3.08          
219.8890      0.81879       -3.09          
220.4890      0.81882       -3.09          
221.0890      0.8188        -3.10          
221.6889      0.81881       -3.11          
222.2889      0.81889       -3.12          
222.8889      0.81883       -3.13          
223.4888      0.81882       -3.13          
224.0888      0.81887       -3.15          
224.6888      0.81891       -3.15          
225.2888      0.81887       -3.16          
225.8887      0.81894       -3.17          
226.4887      0.81893       -3.18          
227.0887      0.81894       -3.18          
227.6886      0.81899       -3.19          
228.2886      0.81894       -3.20          
228.8886      0.81897       -3.21          
229.4885      0.81896       -3.21          
230.0885      0.81891       -3.22          
230.6885      0.81894       -3.23          
231.2885      0.81896       -3.24          
231.8884      0.81895       -3.25          
232.4884      0.81894       -3.26          
233.0884      0.81896       -3.27          
233.6883      0.81894       -3.28          
234.2883      0.81901       -3.29          
234.8883      0.81903       -3.29          
235.4882      0.819         -3.30          
236.0882      0.81905       -3.31          
236.6882      0.81902       -3.32          
237.2882      0.8191        -3.33          
237.8881      0.81908       -3.34          
238.4881      0.81909       -3.35          
239.0881      0.81916       -3.35          
239.6880      0.81917       -3.37          
240.2880      0.81918       -3.38          
240.8880      0.81911       -3.39          
241.4879      0.81906       -3.41          
242.0879      0.81899       -3.42          
242.6879      0.81888       -3.43          
243.2879      0.81885       -3.43          
243.8878      0.81884       -3.44          
244.4878      0.81881       -3.44          
245.0878      0.81877       -3.44          
245.6877      0.81875       -3.45          
246.2877      0.81878       -3.46          
246.8877      0.81879       -3.47          
247.4876      0.81879       -3.47          
248.0876      0.81877       -3.48          
248.6876      0.81875       -3.49          
249.2876      0.81877       -3.50          
249.8875      0.8188        -3.51          
250.4875      0.81872       -3.51          
251.0875      0.81873       -3.52          
251.6874      0.8187        -3.53          
252.2874      0.8187        -3.54          
252.8874      0.81873       -3.55          
253.4873      0.81872       -3.55          
254.0873      0.81873       -3.56          
254.6873      0.81871       -3.57          
255.2873      0.81874       -3.57          
255.8872      0.81869       -3.59          
256.4872      0.81869       -3.59          
257.0872      0.81874       -3.60          
257.6871      0.81875       -3.61          
258.2871      0.81872       -3.62          
258.8871      0.8187        -3.62          
259.4870      0.81868       -3.63          
260.0870      0.81874       -3.63          
260.6870      0.81872       -3.64          
261.2870      0.81871       -3.65          
261.8869      0.81868       -3.66          
262.4869      0.81868       -3.67          
263.0869      0.81865       -3.67          
263.6868      0.81866       -3.68          
264.2868      0.81863       -3.69          
264.8868      0.81858       -3.70          
