!    3/12/2021   09:45:56 
! Ref Plane: 23.990 mm
# MHZ S MA R  50
!
0.3000        0.82118       0.04           
0.9000        0.81793       0.10           
1.4999        0.81801       0.09           
2.0999        0.81798       0.08           
2.6999        0.81789       0.06           
3.2999        0.81789       0.05           
3.8998        0.8179        0.03           
4.4998        0.81793       0.02           
5.0998        0.81793       0.01           
5.6997        0.81796       0.00           
6.2997        0.81803       -0.01          
6.8997        0.81799       -0.02          
7.4996        0.81797       -0.03          
8.0996        0.818         -0.04          
8.6996        0.81795       -0.05          
9.2996        0.81801       -0.05          
9.8995        0.81801       -0.06          
10.4995       0.81799       -0.07          
11.0995       0.81803       -0.07          
11.6994       0.81805       -0.09          
12.2994       0.81801       -0.09          
12.8994       0.81808       -0.10          
13.4993       0.81805       -0.11          
14.0993       0.81808       -0.12          
14.6993       0.81804       -0.13          
15.2993       0.81796       -0.13          
15.8992       0.81803       -0.14          
16.4992       0.81805       -0.15          
17.0992       0.81805       -0.16          
17.6991       0.81807       -0.16          
18.2991       0.81801       -0.17          
18.8991       0.81809       -0.18          
19.4990       0.81805       -0.19          
20.0990       0.81811       -0.20          
20.6990       0.81807       -0.21          
21.2990       0.81807       -0.22          
21.8989       0.81811       -0.23          
22.4989       0.81809       -0.23          
23.0989       0.81819       -0.24          
23.6988       0.81814       -0.25          
24.2988       0.81814       -0.26          
24.8988       0.81813       -0.27          
25.4987       0.81817       -0.28          
26.0987       0.81821       -0.29          
26.6987       0.81817       -0.30          
27.2987       0.81815       -0.31          
27.8986       0.81823       -0.31          
28.4986       0.81818       -0.32          
29.0986       0.81828       -0.33          
29.6985       0.81825       -0.34          
30.2985       0.81825       -0.34          
30.8985       0.81826       -0.35          
31.4984       0.81819       -0.36          
32.0984       0.81829       -0.36          
32.6984       0.81828       -0.37          
33.2984       0.8183        -0.38          
33.8983       0.81828       -0.39          
34.4983       0.81826       -0.40          
35.0983       0.81833       -0.40          
35.6982       0.8183        -0.41          
36.2982       0.81838       -0.42          
36.8982       0.8183        -0.43          
37.4981       0.81837       -0.44          
38.0981       0.81832       -0.44          
38.6981       0.81836       -0.46          
39.2981       0.81838       -0.46          
39.8980       0.81836       -0.47          
40.4980       0.81837       -0.48          
41.0980       0.81835       -0.49          
41.6979       0.8184        -0.50          
42.2979       0.81836       -0.50          
42.8979       0.81837       -0.52          
43.4978       0.81837       -0.52          
44.0978       0.81842       -0.53          
44.6978       0.81842       -0.54          
45.2978       0.81842       -0.54          
45.8977       0.8184        -0.55          
46.4977       0.81846       -0.56          
47.0977       0.81849       -0.56          
47.6976       0.81845       -0.57          
48.2976       0.81844       -0.58          
48.8976       0.81845       -0.59          
49.4975       0.81846       -0.60          
50.0975       0.81849       -0.61          
50.6975       0.8185        -0.61          
51.2975       0.81853       -0.63          
51.8974       0.81853       -0.64          
52.4974       0.81851       -0.64          
53.0974       0.81856       -0.66          
53.6973       0.81856       -0.67          
54.2973       0.81855       -0.71          
54.8973       0.81852       -0.68          
55.4972       0.81852       -0.69          
56.0972       0.81857       -0.70          
56.6972       0.81855       -0.71          
57.2972       0.81854       -0.72          
57.8971       0.81859       -0.72          
58.4971       0.81861       -0.73          
59.0971       0.81861       -0.74          
59.6970       0.8186        -0.74          
60.2970       0.8186        -0.75          
60.8970       0.81864       -0.76          
61.4969       0.81867       -0.77          
62.0969       0.8186        -0.77          
62.6969       0.81867       -0.78          
63.2969       0.81866       -0.79          
63.8968       0.81868       -0.80          
64.4968       0.81869       -0.81          
65.0968       0.81873       -0.81          
65.6967       0.81874       -0.82          
66.2967       0.81875       -0.83          
66.8967       0.81871       -0.84          
67.4966       0.81871       -0.85          
68.0966       0.81866       -0.85          
68.6966       0.81872       -0.86          
69.2966       0.81869       -0.87          
69.8965       0.8187        -0.88          
70.4965       0.81875       -0.89          
71.0965       0.81871       -0.90          
71.6964       0.81875       -0.91          
72.2964       0.81879       -0.92          
72.8964       0.81876       -0.92          
73.4963       0.81874       -0.93          
74.0963       0.81877       -0.94          
74.6963       0.81879       -0.94          
75.2963       0.81878       -0.95          
75.8962       0.81877       -0.96          
76.4962       0.81882       -0.97          
77.0962       0.81879       -0.98          
77.6961       0.81874       -0.99          
78.2961       0.81878       -0.99          
78.8961       0.81878       -1.00          
79.4960       0.8188        -1.01          
80.0960       0.81882       -1.02          
80.6960       0.81884       -1.03          
81.2960       0.81883       -1.03          
81.8959       0.81883       -1.05          
82.4959       0.81881       -1.05          
83.0959       0.81889       -1.06          
83.6958       0.81885       -1.07          
84.2958       0.81876       -1.08          
84.8958       0.81883       -1.09          
85.4957       0.81886       -1.10          
86.0957       0.81882       -1.11          
86.6957       0.81887       -1.12          
87.2957       0.81877       -1.13          
87.8956       0.81885       -1.13          
88.4956       0.8188        -1.14          
89.0956       0.81885       -1.15          
89.6955       0.81885       -1.15          
90.2955       0.81888       -1.16          
90.8955       0.81884       -1.16          
91.4954       0.81883       -1.17          
92.0954       0.81879       -1.18          
92.6954       0.81882       -1.19          
93.2954       0.81891       -1.20          
93.8953       0.81897       -1.22          
94.4953       0.819         -1.22          
95.0953       0.819         -1.23          
95.6952       0.819         -1.23          
96.2952       0.81903       -1.24          
96.8952       0.819         -1.26          
97.4951       0.81902       -1.26          
98.0951       0.81902       -1.27          
98.6951       0.81902       -1.28          
99.2951       0.81907       -1.29          
99.8950       0.81909       -1.30          
100.4950      0.81902       -1.31          
101.0950      0.81902       -1.31          
101.6949      0.819         -1.32          
102.2949      0.81904       -1.33          
102.8949      0.81897       -1.34          
103.4948      0.81893       -1.35          
104.0948      0.81896       -1.36          
104.6948      0.81898       -1.36          
105.2948      0.81897       -1.37          
105.8947      0.81896       -1.38          
106.4947      0.81893       -1.39          
107.0947      0.81895       -1.39          
107.6946      0.81895       -1.40          
108.2946      0.81893       -1.41          
108.8946      0.81899       -1.42          
109.4945      0.81899       -1.42          
110.0945      0.81898       -1.44          
110.6945      0.81904       -1.44          
111.2945      0.81904       -1.45          
111.8944      0.81907       -1.46          
112.4944      0.81903       -1.47          
113.0944      0.81908       -1.48          
113.6943      0.81911       -1.49          
114.2943      0.81908       -1.50          
114.8943      0.81906       -1.50          
115.4942      0.8191        -1.52          
116.0942      0.81912       -1.52          
116.6942      0.8191        -1.53          
117.2942      0.8191        -1.54          
117.8941      0.81908       -1.54          
118.4941      0.81909       -1.55          
119.0941      0.81903       -1.56          
119.6940      0.81904       -1.57          
120.2940      0.81907       -1.58          
120.8940      0.81903       -1.59          
121.4939      0.81906       -1.60          
122.0939      0.81903       -1.61          
122.6939      0.81907       -1.62          
123.2939      0.81906       -1.63          
123.8938      0.81904       -1.64          
124.4938      0.81911       -1.64          
125.0938      0.81906       -1.66          
125.6937      0.81907       -1.66          
126.2937      0.8191        -1.67          
126.8937      0.81906       -1.68          
127.4936      0.81915       -1.69          
128.0936      0.81914       -1.70          
128.6936      0.81912       -1.71          
129.2936      0.81911       -1.72          
129.8935      0.81918       -1.73          
130.4935      0.81919       -1.73          
131.0935      0.81921       -1.74          
131.6934      0.81917       -1.75          
132.2934      0.81916       -1.76          
132.8934      0.81916       -1.77          
133.4933      0.81916       -1.77          
134.0933      0.81914       -1.78          
134.6933      0.81916       -1.79          
135.2933      0.81918       -1.80          
135.8932      0.81912       -1.81          
136.4932      0.81913       -1.82          
137.0932      0.81917       -1.83          
137.6931      0.81916       -1.84          
138.2931      0.81918       -1.85          
138.8931      0.81919       -1.86          
139.4930      0.8192        -1.87          
140.0930      0.81918       -1.87          
140.6930      0.81915       -1.88          
141.2930      0.81918       -1.89          
141.8929      0.81918       -1.90          
142.4929      0.81922       -1.91          
143.0929      0.8192        -1.92          
143.6928      0.81916       -1.93          
144.2928      0.81919       -1.94          
144.8928      0.81917       -1.95          
145.4927      0.81917       -1.95          
146.0927      0.81917       -1.96          
146.6927      0.81919       -1.97          
147.2927      0.81917       -1.98          
147.8926      0.81922       -1.99          
148.4926      0.81925       -2.00          
149.0926      0.81927       -2.01          
149.6925      0.81928       -2.02          
150.2925      0.81927       -2.03          
150.8925      0.81923       -2.04          
151.4924      0.81926       -2.04          
152.0924      0.81925       -2.05          
152.6924      0.81929       -2.06          
153.2924      0.81927       -2.07          
153.8923      0.81929       -2.08          
154.4923      0.8193        -2.09          
155.0923      0.8193        -2.10          
155.6922      0.81929       -2.11          
156.2922      0.81927       -2.12          
156.8922      0.81925       -2.14          
157.4921      0.81925       -2.14          
158.0921      0.81927       -2.15          
158.6921      0.81931       -2.16          
159.2921      0.81926       -2.17          
159.8920      0.8193        -2.18          
160.4920      0.81929       -2.19          
161.0920      0.81933       -2.20          
161.6919      0.81933       -2.21          
162.2919      0.81939       -2.22          
162.8919      0.81941       -2.22          
163.4918      0.81938       -2.24          
164.0918      0.81943       -2.24          
164.6918      0.81945       -2.25          
165.2918      0.81941       -2.26          
165.8917      0.81943       -2.27          
166.4917      0.81944       -2.28          
167.0917      0.81947       -2.29          
167.6916      0.81941       -2.29          
168.2916      0.81938       -2.30          
168.8916      0.81938       -2.31          
169.4915      0.81938       -2.32          
170.0915      0.81941       -2.33          
170.6915      0.81939       -2.34          
171.2915      0.81939       -2.35          
171.8914      0.81941       -2.36          
172.4914      0.81938       -2.37          
173.0914      0.81933       -2.37          
173.6913      0.81938       -2.38          
174.2913      0.8194        -2.39          
174.8913      0.81937       -2.39          
175.4912      0.81943       -2.41          
176.0912      0.81944       -2.42          
176.6912      0.81946       -2.43          
177.2912      0.81948       -2.44          
177.8911      0.81951       -2.45          
178.4911      0.81951       -2.46          
179.0911      0.81952       -2.47          
179.6910      0.81952       -2.47          
180.2910      0.81955       -2.48          
180.8910      0.81956       -2.49          
181.4909      0.81961       -2.50          
182.0909      0.81961       -2.51          
182.6909      0.81959       -2.52          
183.2909      0.81961       -2.53          
183.8908      0.8196        -2.54          
184.4908      0.8196        -2.54          
185.0908      0.81952       -2.56          
185.6907      0.81953       -2.57          
186.2907      0.81951       -2.58          
186.8907      0.81953       -2.58          
187.4906      0.81953       -2.59          
188.0906      0.81957       -2.60          
188.6906      0.8196        -2.61          
189.2906      0.81955       -2.62          
189.8905      0.81956       -2.62          
190.4905      0.81957       -2.63          
191.0905      0.8196        -2.64          
191.6904      0.81956       -2.65          
192.2904      0.8196        -2.66          
192.8904      0.81962       -2.67          
193.4903      0.81968       -2.67          
194.0903      0.8197        -2.68          
194.6903      0.81972       -2.69          
195.2903      0.81971       -2.70          
195.8902      0.81968       -2.71          
196.4902      0.81974       -2.72          
197.0902      0.8197        -2.73          
197.6901      0.81966       -2.74          
198.2901      0.81968       -2.74          
198.8901      0.81974       -2.75          
199.4900      0.81972       -2.76          
200.0900      0.81963       -2.77          
200.6900      0.81968       -2.78          
201.2900      0.81966       -2.79          
201.8899      0.81966       -2.80          
202.4899      0.81965       -2.81          
203.0899      0.81969       -2.82          
203.6898      0.81971       -2.83          
204.2898      0.81969       -2.83          
204.8898      0.81974       -2.84          
205.4897      0.81974       -2.84          
206.0897      0.81969       -2.86          
206.6897      0.8197        -2.86          
207.2897      0.81976       -2.88          
207.8896      0.81978       -2.88          
208.4896      0.81979       -2.90          
209.0896      0.81986       -2.90          
209.6895      0.81989       -2.91          
210.2895      0.81987       -2.92          
210.8895      0.81992       -2.93          
211.4894      0.81989       -2.94          
212.0894      0.81992       -2.95          
212.6894      0.8199        -2.96          
213.2894      0.81993       -2.97          
213.8893      0.81991       -2.97          
214.4893      0.8199        -2.98          
215.0893      0.81992       -2.99          
215.6892      0.81991       -3.00          
216.2892      0.81992       -3.01          
216.8892      0.81992       -3.02          
217.4891      0.8199        -3.03          
218.0891      0.81993       -3.04          
218.6891      0.81987       -3.04          
219.2891      0.81994       -3.05          
219.8890      0.81997       -3.06          
220.4890      0.81997       -3.07          
221.0890      0.81998       -3.08          
221.6889      0.82          -3.08          
222.2889      0.82006       -3.09          
222.8889      0.82007       -3.10          
223.4888      0.82003       -3.11          
224.0888      0.82006       -3.12          
224.6888      0.82013       -3.13          
225.2888      0.82012       -3.14          
225.8887      0.82013       -3.15          
226.4887      0.82017       -3.15          
227.0887      0.82017       -3.16          
227.6886      0.82021       -3.17          
228.2886      0.82018       -3.18          
228.8886      0.82018       -3.19          
229.4885      0.8202        -3.19          
230.0885      0.82014       -3.21          
230.6885      0.82019       -3.21          
231.2885      0.82022       -3.22          
231.8884      0.82019       -3.23          
232.4884      0.82018       -3.24          
233.0884      0.82023       -3.25          
233.6883      0.82022       -3.26          
234.2883      0.8203        -3.27          
234.8883      0.82032       -3.28          
235.4882      0.82032       -3.29          
236.0882      0.82037       -3.29          
236.6882      0.82039       -3.31          
237.2882      0.82038       -3.31          
237.8881      0.82037       -3.33          
238.4881      0.82039       -3.34          
239.0881      0.82034       -3.35          
239.6880      0.82026       -3.37          
240.2880      0.82023       -3.37          
240.8880      0.82009       -3.38          
241.4879      0.82009       -3.39          
242.0879      0.82007       -3.39          
242.6879      0.82          -3.40          
243.2879      0.82006       -3.41          
243.8878      0.82005       -3.42          
244.4878      0.82003       -3.42          
245.0878      0.82005       -3.43          
245.6877      0.82005       -3.43          
246.2877      0.82006       -3.44          
246.8877      0.82008       -3.45          
247.4876      0.82007       -3.45          
248.0876      0.82008       -3.46          
248.6876      0.82005       -3.48          
249.2876      0.82008       -3.49          
249.8875      0.82007       -3.50          
250.4875      0.82005       -3.50          
251.0875      0.82007       -3.51          
251.6874      0.82001       -3.52          
252.2874      0.82006       -3.52          
252.8874      0.82009       -3.53          
253.4873      0.82005       -3.54          
254.0873      0.82011       -3.55          
254.6873      0.82009       -3.56          
255.2873      0.82005       -3.57          
255.8872      0.82007       -3.58          
256.4872      0.82005       -3.58          
257.0872      0.82008       -3.59          
257.6871      0.82014       -3.60          
258.2871      0.82008       -3.61          
258.8871      0.82007       -3.62          
259.4870      0.82008       -3.63          
260.0870      0.8201        -3.63          
260.6870      0.8201        -3.64          
261.2870      0.8201        -3.65          
261.8869      0.82006       -3.65          
262.4869      0.82006       -3.66          
263.0869      0.82005       -3.67          
263.6868      0.82007       -3.68          
264.2868      0.82005       -3.69          
264.8868      0.82002       -3.69          
