!    3/12/2021   07:58:00 
! Ref Plane: 23.990 mm
# MHZ S MA R  50
!
0.3000        0.82037       0.05           
0.9000        0.81729       0.08           
1.4999        0.81737       0.05           
2.0999        0.81743       0.03           
2.6999        0.81746       0.03           
3.2999        0.81748       0.02           
3.8998        0.81753       0.00           
4.4998        0.81752       -0.01          
5.0998        0.81756       -0.02          
5.6997        0.81761       -0.03          
6.2997        0.81761       -0.04          
6.8997        0.81766       -0.05          
7.4996        0.81764       -0.06          
8.0996        0.81761       -0.07          
8.6996        0.8176        -0.08          
9.2996        0.8177        -0.09          
9.8995        0.81765       -0.10          
10.4995       0.81767       -0.10          
11.0995       0.81769       -0.11          
11.6994       0.81767       -0.12          
12.2994       0.81766       -0.13          
12.8994       0.81776       -0.14          
13.4993       0.81774       -0.15          
14.0993       0.81772       -0.16          
14.6993       0.81767       -0.16          
15.2993       0.81765       -0.18          
15.8992       0.8177        -0.18          
16.4992       0.81767       -0.19          
17.0992       0.81772       -0.20          
17.6991       0.81767       -0.21          
18.2991       0.81769       -0.21          
18.8991       0.81771       -0.23          
19.4990       0.81771       -0.23          
20.0990       0.81773       -0.24          
20.6990       0.81769       -0.25          
21.2990       0.81772       -0.26          
21.8989       0.81772       -0.27          
22.4989       0.8178        -0.28          
23.0989       0.81781       -0.29          
23.6988       0.81774       -0.30          
24.2988       0.81779       -0.31          
24.8988       0.81776       -0.32          
25.4987       0.81778       -0.33          
26.0987       0.81783       -0.34          
26.6987       0.81778       -0.35          
27.2987       0.81779       -0.36          
27.8986       0.81786       -0.36          
28.4986       0.81785       -0.37          
29.0986       0.81792       -0.38          
29.6985       0.81782       -0.39          
30.2985       0.81789       -0.39          
30.8985       0.81785       -0.40          
31.4984       0.81776       -0.41          
32.0984       0.81784       -0.42          
32.6984       0.8179        -0.42          
33.2984       0.8179        -0.44          
33.8983       0.81787       -0.44          
34.4983       0.81792       -0.45          
35.0983       0.81789       -0.46          
35.6982       0.81791       -0.47          
36.2982       0.81792       -0.47          
36.8982       0.81789       -0.49          
37.4981       0.81798       -0.49          
38.0981       0.81791       -0.50          
38.6981       0.81797       -0.52          
39.2981       0.81798       -0.52          
39.8980       0.81795       -0.53          
40.4980       0.81795       -0.54          
41.0980       0.81798       -0.55          
41.6979       0.81799       -0.56          
42.2979       0.81793       -0.57          
42.8979       0.818         -0.58          
43.4978       0.81799       -0.59          
44.0978       0.818         -0.59          
44.6978       0.81801       -0.60          
45.2978       0.81803       -0.61          
45.8977       0.81799       -0.62          
46.4977       0.81801       -0.62          
47.0977       0.81804       -0.63          
47.6976       0.81802       -0.63          
48.2976       0.81801       -0.64          
48.8976       0.81802       -0.65          
49.4975       0.81808       -0.67          
50.0975       0.81807       -0.68          
50.6975       0.81808       -0.68          
51.2975       0.81807       -0.70          
51.8974       0.8181        -0.71          
52.4974       0.8181        -0.72          
53.0974       0.81812       -0.73          
53.6973       0.81814       -0.74          
54.2973       0.81811       -0.84          
54.8973       0.81809       -0.76          
55.4972       0.81806       -0.76          
56.0972       0.81811       -0.77          
56.6972       0.81809       -0.78          
57.2972       0.81809       -0.79          
57.8971       0.81812       -0.80          
58.4971       0.81818       -0.80          
59.0971       0.81813       -0.81          
59.6970       0.81816       -0.82          
60.2970       0.81813       -0.83          
60.8970       0.81819       -0.84          
61.4969       0.81816       -0.84          
62.0969       0.81814       -0.85          
62.6969       0.81816       -0.86          
63.2969       0.81816       -0.87          
63.8968       0.81815       -0.88          
64.4968       0.81819       -0.89          
65.0968       0.8182        -0.90          
65.6967       0.81822       -0.90          
66.2967       0.81824       -0.91          
66.8967       0.81818       -0.92          
67.4966       0.81823       -0.93          
68.0966       0.81817       -0.94          
68.6966       0.81815       -0.95          
69.2966       0.81818       -0.96          
69.8965       0.81817       -0.97          
70.4965       0.81818       -0.98          
71.0965       0.81817       -0.99          
71.6964       0.81827       -1.00          
72.2964       0.81825       -1.00          
72.8964       0.81818       -1.01          
73.4963       0.81816       -1.02          
74.0963       0.81823       -1.03          
74.6963       0.8182        -1.04          
75.2963       0.8182        -1.04          
75.8962       0.81818       -1.05          
76.4962       0.81824       -1.06          
77.0962       0.81825       -1.07          
77.6961       0.8182        -1.08          
78.2961       0.81821       -1.09          
78.8961       0.81816       -1.09          
79.4960       0.81821       -1.10          
80.0960       0.81824       -1.12          
80.6960       0.81829       -1.12          
81.2960       0.81822       -1.13          
81.8959       0.81824       -1.14          
82.4959       0.81825       -1.15          
83.0959       0.81824       -1.16          
83.6958       0.81825       -1.17          
84.2958       0.81817       -1.18          
84.8958       0.8182        -1.19          
85.4957       0.81821       -1.20          
86.0957       0.81821       -1.21          
86.6957       0.81819       -1.22          
87.2957       0.81814       -1.23          
87.8956       0.81818       -1.24          
88.4956       0.81819       -1.25          
89.0956       0.81821       -1.25          
89.6955       0.81817       -1.25          
90.2955       0.81821       -1.26          
90.8955       0.81818       -1.27          
91.4954       0.81813       -1.28          
92.0954       0.81816       -1.29          
92.6954       0.81813       -1.30          
93.2954       0.81821       -1.31          
93.8953       0.81822       -1.32          
94.4953       0.81826       -1.33          
95.0953       0.81824       -1.34          
95.6952       0.81825       -1.35          
96.2952       0.8183        -1.36          
96.8952       0.81822       -1.37          
97.4951       0.81826       -1.38          
98.0951       0.81828       -1.38          
98.6951       0.81824       -1.39          
99.2951       0.81829       -1.40          
99.8950       0.81831       -1.41          
100.4950      0.81827       -1.42          
101.0950      0.81829       -1.42          
101.6949      0.81822       -1.44          
102.2949      0.81823       -1.44          
102.8949      0.81821       -1.45          
103.4948      0.81817       -1.46          
104.0948      0.81815       -1.47          
104.6948      0.81817       -1.48          
105.2948      0.81817       -1.49          
105.8947      0.81819       -1.50          
106.4947      0.81815       -1.51          
107.0947      0.81814       -1.51          
107.6946      0.81814       -1.52          
108.2946      0.81817       -1.53          
108.8946      0.8182        -1.54          
109.4945      0.81823       -1.55          
110.0945      0.81822       -1.56          
110.6945      0.81821       -1.57          
111.2945      0.81825       -1.58          
111.8944      0.81827       -1.59          
112.4944      0.81825       -1.59          
113.0944      0.81827       -1.60          
113.6943      0.81828       -1.61          
114.2943      0.81831       -1.62          
114.8943      0.81823       -1.63          
115.4942      0.81828       -1.64          
116.0942      0.81828       -1.65          
116.6942      0.81827       -1.65          
117.2942      0.81825       -1.66          
117.8941      0.81824       -1.67          
118.4941      0.81825       -1.68          
119.0941      0.81824       -1.69          
119.6940      0.81816       -1.70          
120.2940      0.81821       -1.71          
120.8940      0.81814       -1.72          
121.4939      0.81817       -1.73          
122.0939      0.81816       -1.74          
122.6939      0.81815       -1.75          
123.2939      0.81819       -1.76          
123.8938      0.81816       -1.77          
124.4938      0.81822       -1.78          
125.0938      0.81817       -1.79          
125.6937      0.81818       -1.79          
126.2937      0.81821       -1.80          
126.8937      0.8182        -1.81          
127.4936      0.81822       -1.82          
128.0936      0.81823       -1.83          
128.6936      0.81824       -1.84          
129.2936      0.81819       -1.85          
129.8935      0.8182        -1.86          
130.4935      0.81823       -1.87          
131.0935      0.81827       -1.88          
131.6934      0.81826       -1.88          
132.2934      0.81827       -1.89          
132.8934      0.81821       -1.90          
133.4933      0.81817       -1.91          
134.0933      0.8182        -1.92          
134.6933      0.81815       -1.93          
135.2933      0.81819       -1.94          
135.8932      0.81813       -1.94          
136.4932      0.81816       -1.95          
137.0932      0.81817       -1.96          
137.6931      0.81817       -1.98          
138.2931      0.81818       -1.99          
138.8931      0.81818       -1.99          
139.4930      0.8182        -2.00          
140.0930      0.81815       -2.01          
140.6930      0.81815       -2.02          
141.2930      0.81815       -2.03          
141.8929      0.81818       -2.04          
142.4929      0.81819       -2.05          
143.0929      0.81815       -2.06          
143.6928      0.81819       -2.07          
144.2928      0.81814       -2.08          
144.8928      0.81811       -2.09          
145.4927      0.81816       -2.10          
146.0927      0.81812       -2.11          
146.6927      0.81816       -2.11          
147.2927      0.81816       -2.13          
147.8926      0.81817       -2.13          
148.4926      0.81813       -2.15          
149.0926      0.81819       -2.15          
149.6925      0.81822       -2.16          
150.2925      0.81815       -2.17          
150.8925      0.81815       -2.18          
151.4924      0.81817       -2.19          
152.0924      0.81814       -2.20          
152.6924      0.81816       -2.20          
153.2924      0.81817       -2.21          
153.8923      0.81819       -2.22          
154.4923      0.8182        -2.24          
155.0923      0.81818       -2.24          
155.6922      0.81816       -2.26          
156.2922      0.81818       -2.27          
156.8922      0.81815       -2.28          
157.4921      0.81815       -2.28          
158.0921      0.81814       -2.29          
158.6921      0.81814       -2.31          
159.2921      0.81812       -2.31          
159.8920      0.81815       -2.33          
160.4920      0.81817       -2.33          
161.0920      0.81818       -2.34          
161.6919      0.81821       -2.35          
162.2919      0.81822       -2.36          
162.8919      0.81826       -2.37          
163.4918      0.81822       -2.38          
164.0918      0.81826       -2.39          
164.6918      0.81824       -2.39          
165.2918      0.8182        -2.41          
165.8917      0.81822       -2.41          
166.4917      0.81824       -2.42          
167.0917      0.81822       -2.43          
167.6916      0.81822       -2.44          
168.2916      0.81817       -2.45          
168.8916      0.81815       -2.46          
169.4915      0.81818       -2.47          
170.0915      0.81817       -2.48          
170.6915      0.81819       -2.49          
171.2915      0.81817       -2.50          
171.8914      0.81815       -2.50          
172.4914      0.81817       -2.52          
173.0914      0.81811       -2.52          
173.6913      0.81812       -2.53          
174.2913      0.81814       -2.54          
174.8913      0.81812       -2.54          
175.4912      0.81812       -2.56          
176.0912      0.8182        -2.56          
176.6912      0.81816       -2.58          
177.2912      0.81818       -2.59          
177.8911      0.81825       -2.60          
178.4911      0.81821       -2.61          
179.0911      0.81822       -2.61          
179.6910      0.8182        -2.62          
180.2910      0.81825       -2.63          
180.8910      0.81824       -2.64          
181.4909      0.81832       -2.65          
182.0909      0.81825       -2.66          
182.6909      0.81826       -2.67          
183.2909      0.81825       -2.68          
183.8908      0.81825       -2.69          
184.4908      0.81827       -2.70          
185.0908      0.81818       -2.71          
185.6907      0.81814       -2.71          
186.2907      0.81813       -2.73          
186.8907      0.81816       -2.74          
187.4906      0.81812       -2.75          
188.0906      0.8182        -2.75          
188.6906      0.81822       -2.76          
189.2906      0.81812       -2.77          
189.8905      0.81817       -2.78          
190.4905      0.81816       -2.78          
191.0905      0.81817       -2.79          
191.6904      0.81815       -2.80          
192.2904      0.8182        -2.81          
192.8904      0.81822       -2.82          
193.4903      0.8182        -2.83          
194.0903      0.81826       -2.84          
194.6903      0.81827       -2.84          
195.2903      0.81828       -2.86          
195.8902      0.81825       -2.86          
196.4902      0.81825       -2.87          
197.0902      0.81824       -2.88          
197.6901      0.81823       -2.89          
198.2901      0.81822       -2.90          
198.8901      0.81826       -2.91          
199.4900      0.81825       -2.92          
200.0900      0.81817       -2.93          
200.6900      0.81821       -2.93          
201.2900      0.81818       -2.94          
201.8899      0.81815       -2.95          
202.4899      0.81814       -2.96          
203.0899      0.81818       -2.97          
203.6898      0.81819       -2.98          
204.2898      0.8182        -2.99          
204.8898      0.81822       -2.99          
205.4897      0.81817       -3.00          
206.0897      0.81814       -3.01          
206.6897      0.81817       -3.02          
207.2897      0.81819       -3.03          
207.8896      0.81821       -3.04          
208.4896      0.81825       -3.05          
209.0896      0.81831       -3.06          
209.6895      0.81836       -3.07          
210.2895      0.8183        -3.08          
210.8895      0.81835       -3.09          
211.4894      0.81837       -3.10          
212.0894      0.81835       -3.11          
212.6894      0.81836       -3.11          
213.2894      0.81834       -3.12          
213.8893      0.81831       -3.13          
214.4893      0.81832       -3.14          
215.0893      0.81831       -3.15          
215.6892      0.81831       -3.16          
216.2892      0.81834       -3.16          
216.8892      0.81833       -3.18          
217.4891      0.8183        -3.18          
218.0891      0.81828       -3.19          
218.6891      0.81828       -3.20          
219.2891      0.81829       -3.21          
219.8890      0.81833       -3.22          
220.4890      0.81836       -3.23          
221.0890      0.81835       -3.24          
221.6889      0.81836       -3.24          
222.2889      0.81838       -3.25          
222.8889      0.81837       -3.26          
223.4888      0.81837       -3.27          
224.0888      0.81842       -3.28          
224.6888      0.81847       -3.29          
225.2888      0.81846       -3.30          
225.8887      0.81847       -3.31          
226.4887      0.81848       -3.31          
227.0887      0.81844       -3.32          
227.6886      0.81851       -3.33          
228.2886      0.81848       -3.34          
228.8886      0.8185        -3.35          
229.4885      0.81851       -3.35          
230.0885      0.81848       -3.36          
230.6885      0.81848       -3.37          
231.2885      0.81848       -3.38          
231.8884      0.81848       -3.39          
232.4884      0.81849       -3.40          
233.0884      0.81852       -3.41          
233.6883      0.81845       -3.42          
234.2883      0.81855       -3.43          
234.8883      0.81856       -3.44          
235.4882      0.81852       -3.45          
236.0882      0.81852       -3.45          
236.6882      0.81858       -3.46          
237.2882      0.81857       -3.47          
237.8881      0.81859       -3.48          
238.4881      0.81862       -3.49          
239.0881      0.81862       -3.50          
239.6880      0.81862       -3.51          
240.2880      0.81863       -3.53          
240.8880      0.81857       -3.54          
241.4879      0.81857       -3.55          
242.0879      0.81848       -3.56          
242.6879      0.8184        -3.57          
243.2879      0.81837       -3.58          
243.8878      0.81839       -3.58          
244.4878      0.81835       -3.59          
245.0878      0.81831       -3.59          
245.6877      0.8183        -3.60          
246.2877      0.81829       -3.60          
246.8877      0.81831       -3.61          
247.4876      0.81829       -3.62          
248.0876      0.81831       -3.63          
248.6876      0.81827       -3.64          
249.2876      0.81831       -3.65          
249.8875      0.81825       -3.65          
250.4875      0.81824       -3.66          
251.0875      0.81825       -3.67          
251.6874      0.81825       -3.68          
252.2874      0.81822       -3.69          
252.8874      0.81824       -3.70          
253.4873      0.81822       -3.70          
254.0873      0.81825       -3.71          
254.6873      0.81825       -3.72          
255.2873      0.81823       -3.72          
255.8872      0.81823       -3.74          
256.4872      0.8182        -3.74          
257.0872      0.81824       -3.75          
257.6871      0.81824       -3.76          
258.2871      0.81822       -3.77          
258.8871      0.81822       -3.77          
259.4870      0.81818       -3.78          
260.0870      0.81825       -3.79          
260.6870      0.81821       -3.80          
261.2870      0.81821       -3.81          
261.8869      0.81817       -3.81          
262.4869      0.81819       -3.82          
263.0869      0.81813       -3.83          
263.6868      0.81814       -3.84          
264.2868      0.81809       -3.85          
264.8868      0.81807       -3.85          
