!    3/12/2021   09:53:49 
! Ref Plane: 23.990 mm
# MHZ S MA R  50
!
0.3000        0.82106       0.07           
0.9000        0.81775       0.12           
1.4999        0.81778       0.10           
2.0999        0.81779       0.09           
2.6999        0.81775       0.07           
3.2999        0.81771       0.06           
3.8998        0.81774       0.04           
4.4998        0.81777       0.03           
5.0998        0.81774       0.02           
5.6997        0.81781       0.01           
6.2997        0.81784       -0.01          
6.8997        0.81784       -0.02          
7.4996        0.81776       -0.03          
8.0996        0.81782       -0.04          
8.6996        0.81781       -0.06          
9.2996        0.81783       -0.06          
9.8995        0.81779       -0.08          
10.4995       0.81783       -0.08          
11.0995       0.81779       -0.09          
11.6994       0.81785       -0.11          
12.2994       0.81782       -0.11          
12.8994       0.81788       -0.12          
13.4993       0.81783       -0.13          
14.0993       0.81785       -0.14          
14.6993       0.81779       -0.16          
15.2993       0.81774       -0.17          
15.8992       0.81779       -0.17          
16.4992       0.81777       -0.18          
17.0992       0.81778       -0.19          
17.6991       0.81779       -0.20          
18.2991       0.8178        -0.21          
18.8991       0.81783       -0.22          
19.4990       0.8178        -0.23          
20.0990       0.81781       -0.24          
20.6990       0.81779       -0.25          
21.2990       0.81779       -0.27          
21.8989       0.81781       -0.28          
22.4989       0.81781       -0.29          
23.0989       0.81787       -0.30          
23.6988       0.81785       -0.31          
24.2988       0.81785       -0.32          
24.8988       0.81783       -0.33          
25.4987       0.81787       -0.34          
26.0987       0.81782       -0.36          
26.6987       0.81786       -0.36          
27.2987       0.81784       -0.37          
27.8986       0.81788       -0.38          
28.4986       0.81787       -0.39          
29.0986       0.8179        -0.40          
29.6985       0.81787       -0.41          
30.2985       0.81794       -0.42          
30.8985       0.81787       -0.42          
31.4984       0.81783       -0.44          
32.0984       0.81789       -0.44          
32.6984       0.81791       -0.46          
33.2984       0.81793       -0.47          
33.8983       0.81793       -0.47          
34.4983       0.81792       -0.48          
35.0983       0.81796       -0.49          
35.6982       0.81793       -0.50          
36.2982       0.81796       -0.51          
36.8982       0.81793       -0.52          
37.4981       0.81798       -0.53          
38.0981       0.81792       -0.54          
38.6981       0.81794       -0.55          
39.2981       0.81799       -0.56          
39.8980       0.81797       -0.57          
40.4980       0.81794       -0.59          
41.0980       0.81792       -0.60          
41.6979       0.818         -0.61          
42.2979       0.81795       -0.62          
42.8979       0.81793       -0.63          
43.4978       0.81794       -0.64          
44.0978       0.81796       -0.65          
44.6978       0.81797       -0.65          
45.2978       0.81797       -0.66          
45.8977       0.81794       -0.67          
46.4977       0.81799       -0.68          
47.0977       0.81801       -0.68          
47.6976       0.81801       -0.69          
48.2976       0.81799       -0.70          
48.8976       0.81798       -0.72          
49.4975       0.81797       -0.73          
50.0975       0.81801       -0.74          
50.6975       0.81801       -0.75          
51.2975       0.81801       -0.76          
51.8974       0.81804       -0.77          
52.4974       0.81807       -0.78          
53.0974       0.81806       -0.79          
53.6973       0.81803       -0.81          
54.2973       0.81802       -0.87          
54.8973       0.81807       -0.83          
55.4972       0.81802       -0.84          
56.0972       0.81805       -0.85          
56.6972       0.81807       -0.86          
57.2972       0.81802       -0.87          
57.8971       0.81805       -0.87          
58.4971       0.81808       -0.88          
59.0971       0.81804       -0.89          
59.6970       0.81808       -0.90          
60.2970       0.81809       -0.91          
60.8970       0.81812       -0.91          
61.4969       0.81808       -0.92          
62.0969       0.81807       -0.93          
62.6969       0.81809       -0.95          
63.2969       0.81809       -0.96          
63.8968       0.81807       -0.97          
64.4968       0.81813       -0.98          
65.0968       0.81815       -0.98          
65.6967       0.81814       -0.99          
66.2967       0.81815       -1.00          
66.8967       0.81816       -1.01          
67.4966       0.81816       -1.02          
68.0966       0.8181        -1.03          
68.6966       0.81812       -1.05          
69.2966       0.81813       -1.05          
69.8965       0.81813       -1.07          
70.4965       0.81811       -1.08          
71.0965       0.81808       -1.08          
71.6964       0.81816       -1.09          
72.2964       0.81817       -1.10          
72.8964       0.81816       -1.11          
73.4963       0.81807       -1.12          
74.0963       0.81814       -1.13          
74.6963       0.81812       -1.14          
75.2963       0.81809       -1.15          
75.8962       0.81808       -1.16          
76.4962       0.81816       -1.17          
77.0962       0.81816       -1.18          
77.6961       0.81812       -1.19          
78.2961       0.81813       -1.19          
78.8961       0.8181        -1.20          
79.4960       0.81818       -1.21          
80.0960       0.8181        -1.23          
80.6960       0.81817       -1.23          
81.2960       0.81815       -1.24          
81.8959       0.81815       -1.25          
82.4959       0.8181        -1.27          
83.0959       0.81819       -1.28          
83.6958       0.81819       -1.28          
84.2958       0.81809       -1.29          
84.8958       0.81806       -1.31          
85.4957       0.81811       -1.32          
86.0957       0.81811       -1.33          
86.6957       0.81809       -1.34          
87.2957       0.81804       -1.35          
87.8956       0.81811       -1.36          
88.4956       0.81805       -1.37          
89.0956       0.8181        -1.37          
89.6955       0.81812       -1.38          
90.2955       0.81814       -1.39          
90.8955       0.81809       -1.39          
91.4954       0.81805       -1.40          
92.0954       0.818         -1.41          
92.6954       0.81805       -1.42          
93.2954       0.81809       -1.43          
93.8953       0.81814       -1.45          
94.4953       0.81818       -1.46          
95.0953       0.81817       -1.47          
95.6952       0.81817       -1.48          
96.2952       0.81827       -1.49          
96.8952       0.8182        -1.50          
97.4951       0.81821       -1.51          
98.0951       0.81817       -1.52          
98.6951       0.8182        -1.53          
99.2951       0.8182        -1.54          
99.8950       0.81823       -1.55          
100.4950      0.81819       -1.56          
101.0950      0.81822       -1.57          
101.6949      0.81816       -1.58          
102.2949      0.81817       -1.59          
102.8949      0.81811       -1.60          
103.4948      0.81808       -1.61          
104.0948      0.81804       -1.62          
104.6948      0.818         -1.63          
105.2948      0.81807       -1.63          
105.8947      0.81809       -1.65          
106.4947      0.81805       -1.65          
107.0947      0.81806       -1.66          
107.6946      0.81804       -1.67          
108.2946      0.81808       -1.68          
108.8946      0.81808       -1.69          
109.4945      0.81803       -1.70          
110.0945      0.81809       -1.71          
110.6945      0.8181        -1.72          
111.2945      0.81815       -1.73          
111.8944      0.81811       -1.74          
112.4944      0.81816       -1.75          
113.0944      0.81813       -1.76          
113.6943      0.81812       -1.77          
114.2943      0.81821       -1.78          
114.8943      0.81808       -1.79          
115.4942      0.81818       -1.80          
116.0942      0.81815       -1.81          
116.6942      0.81815       -1.82          
117.2942      0.81813       -1.83          
117.8941      0.81812       -1.83          
118.4941      0.81814       -1.85          
119.0941      0.8181        -1.86          
119.6940      0.8181        -1.87          
120.2940      0.81808       -1.88          
120.8940      0.81801       -1.89          
121.4939      0.81801       -1.90          
122.0939      0.81803       -1.91          
122.6939      0.81807       -1.92          
123.2939      0.81803       -1.93          
123.8938      0.818         -1.94          
124.4938      0.8181        -1.95          
125.0938      0.81802       -1.96          
125.6937      0.81801       -1.97          
126.2937      0.81806       -1.98          
126.8937      0.81802       -1.99          
127.4936      0.81807       -2.00          
128.0936      0.81809       -2.01          
128.6936      0.8181        -2.03          
129.2936      0.81803       -2.03          
129.8935      0.81809       -2.04          
130.4935      0.81809       -2.05          
131.0935      0.8181        -2.06          
131.6934      0.81808       -2.07          
132.2934      0.81809       -2.08          
132.8934      0.81806       -2.09          
133.4933      0.81804       -2.10          
134.0933      0.81806       -2.11          
134.6933      0.81803       -2.12          
135.2933      0.81807       -2.13          
135.8932      0.81801       -2.14          
136.4932      0.81799       -2.15          
137.0932      0.81804       -2.16          
137.6931      0.818         -2.17          
138.2931      0.81803       -2.18          
138.8931      0.81804       -2.19          
139.4930      0.81802       -2.20          
140.0930      0.81801       -2.21          
140.6930      0.81801       -2.22          
141.2930      0.81802       -2.23          
141.8929      0.81798       -2.24          
142.4929      0.81803       -2.25          
143.0929      0.81803       -2.27          
143.6928      0.81797       -2.27          
144.2928      0.81798       -2.29          
144.8928      0.81796       -2.30          
145.4927      0.81796       -2.31          
146.0927      0.81792       -2.31          
146.6927      0.81797       -2.33          
147.2927      0.81797       -2.34          
147.8926      0.818         -2.35          
148.4926      0.81803       -2.36          
149.0926      0.818         -2.37          
149.6925      0.81799       -2.37          
150.2925      0.81803       -2.39          
150.8925      0.81799       -2.40          
151.4924      0.81798       -2.40          
152.0924      0.818         -2.42          
152.6924      0.81797       -2.43          
153.2924      0.81797       -2.44          
153.8923      0.818         -2.45          
154.4923      0.81797       -2.46          
155.0923      0.818         -2.47          
155.6922      0.81801       -2.48          
156.2922      0.81793       -2.50          
156.8922      0.81797       -2.51          
157.4921      0.81797       -2.51          
158.0921      0.81798       -2.53          
158.6921      0.818         -2.54          
159.2921      0.8179        -2.55          
159.8920      0.81797       -2.56          
160.4920      0.81797       -2.57          
161.0920      0.81797       -2.58          
161.6919      0.81799       -2.59          
162.2919      0.818         -2.60          
162.8919      0.81804       -2.61          
163.4918      0.81803       -2.62          
164.0918      0.81803       -2.63          
164.6918      0.81807       -2.64          
165.2918      0.818         -2.65          
165.8917      0.81802       -2.66          
166.4917      0.81799       -2.67          
167.0917      0.81803       -2.68          
167.6916      0.81802       -2.69          
168.2916      0.81799       -2.70          
168.8916      0.81797       -2.71          
169.4915      0.81798       -2.72          
170.0915      0.81797       -2.73          
170.6915      0.81798       -2.74          
171.2915      0.81796       -2.75          
171.8914      0.81799       -2.76          
172.4914      0.81793       -2.77          
173.0914      0.81792       -2.78          
173.6913      0.81797       -2.79          
174.2913      0.81793       -2.80          
174.8913      0.81791       -2.81          
175.4912      0.81792       -2.82          
176.0912      0.81795       -2.83          
176.6912      0.81795       -2.84          
177.2912      0.81797       -2.85          
177.8911      0.81803       -2.86          
178.4911      0.818         -2.88          
179.0911      0.818         -2.89          
179.6910      0.81803       -2.89          
180.2910      0.818         -2.91          
180.8910      0.81809       -2.92          
181.4909      0.81809       -2.92          
182.0909      0.81804       -2.94          
182.6909      0.818         -2.95          
183.2909      0.81803       -2.96          
183.8908      0.81807       -2.97          
184.4908      0.81802       -2.97          
185.0908      0.81798       -2.99          
185.6907      0.81795       -3.00          
186.2907      0.81796       -3.01          
186.8907      0.81797       -3.02          
187.4906      0.81794       -3.03          
188.0906      0.81797       -3.03          
188.6906      0.81802       -3.05          
189.2906      0.81796       -3.05          
189.8905      0.81793       -3.07          
190.4905      0.81797       -3.07          
191.0905      0.81798       -3.08          
191.6904      0.81796       -3.09          
192.2904      0.818         -3.11          
192.8904      0.81802       -3.11          
193.4903      0.81802       -3.12          
194.0903      0.81807       -3.13          
194.6903      0.81806       -3.14          
195.2903      0.81806       -3.15          
195.8902      0.81804       -3.16          
196.4902      0.81804       -3.17          
197.0902      0.81804       -3.18          
197.6901      0.81802       -3.19          
198.2901      0.81803       -3.20          
198.8901      0.81806       -3.21          
199.4900      0.81805       -3.22          
200.0900      0.81797       -3.23          
200.6900      0.81801       -3.24          
201.2900      0.818         -3.25          
201.8899      0.81798       -3.26          
202.4899      0.81797       -3.28          
203.0899      0.81797       -3.28          
203.6898      0.81801       -3.29          
204.2898      0.81799       -3.30          
204.8898      0.81801       -3.31          
205.4897      0.818         -3.32          
206.0897      0.81792       -3.33          
206.6897      0.81798       -3.34          
207.2897      0.81803       -3.35          
207.8896      0.81805       -3.36          
208.4896      0.81806       -3.37          
209.0896      0.8181        -3.38          
209.6895      0.81818       -3.39          
210.2895      0.81809       -3.40          
210.8895      0.81814       -3.41          
211.4894      0.81815       -3.42          
212.0894      0.81814       -3.43          
212.6894      0.81816       -3.44          
213.2894      0.81812       -3.45          
213.8893      0.81814       -3.46          
214.4893      0.81806       -3.47          
215.0893      0.81808       -3.48          
215.6892      0.81811       -3.49          
216.2892      0.81813       -3.50          
216.8892      0.81815       -3.51          
217.4891      0.81808       -3.52          
218.0891      0.81815       -3.53          
218.6891      0.81807       -3.54          
219.2891      0.81812       -3.55          
219.8890      0.81809       -3.56          
220.4890      0.81817       -3.57          
221.0890      0.81817       -3.58          
221.6889      0.81811       -3.59          
222.2889      0.81815       -3.60          
222.8889      0.81818       -3.61          
223.4888      0.8182        -3.61          
224.0888      0.81823       -3.63          
224.6888      0.81825       -3.64          
225.2888      0.81823       -3.65          
225.8887      0.8183        -3.65          
226.4887      0.81825       -3.67          
227.0887      0.81827       -3.68          
227.6886      0.81827       -3.69          
228.2886      0.81824       -3.69          
228.8886      0.81824       -3.70          
229.4885      0.81826       -3.71          
230.0885      0.81826       -3.72          
230.6885      0.81826       -3.73          
231.2885      0.81826       -3.74          
231.8884      0.81822       -3.75          
232.4884      0.81827       -3.76          
233.0884      0.81831       -3.77          
233.6883      0.81826       -3.78          
234.2883      0.81835       -3.79          
234.8883      0.81832       -3.80          
235.4882      0.81832       -3.81          
236.0882      0.81833       -3.82          
236.6882      0.81836       -3.83          
237.2882      0.81834       -3.84          
237.8881      0.81833       -3.85          
238.4881      0.81831       -3.86          
239.0881      0.81835       -3.87          
239.6880      0.81837       -3.88          
240.2880      0.81841       -3.89          
240.8880      0.81838       -3.90          
241.4879      0.81841       -3.92          
242.0879      0.81836       -3.93          
242.6879      0.81828       -3.95          
243.2879      0.81828       -3.96          
243.8878      0.81825       -3.96          
244.4878      0.81817       -3.97          
245.0878      0.81812       -3.98          
245.6877      0.8181        -3.99          
246.2877      0.81809       -4.00          
246.8877      0.81809       -4.00          
247.4876      0.81807       -4.01          
248.0876      0.81806       -4.02          
248.6876      0.81806       -4.03          
249.2876      0.81807       -4.04          
249.8875      0.81806       -4.05          
250.4875      0.81801       -4.06          
251.0875      0.818         -4.07          
251.6874      0.81799       -4.08          
252.2874      0.81798       -4.09          
252.8874      0.818         -4.10          
253.4873      0.81802       -4.11          
254.0873      0.81803       -4.12          
254.6873      0.81802       -4.12          
255.2873      0.81799       -4.13          
255.8872      0.81799       -4.14          
256.4872      0.81802       -4.15          
257.0872      0.81802       -4.16          
257.6871      0.81804       -4.17          
258.2871      0.81801       -4.18          
258.8871      0.81802       -4.19          
259.4870      0.81799       -4.20          
260.0870      0.81803       -4.20          
260.6870      0.818         -4.21          
261.2870      0.818         -4.22          
261.8869      0.81797       -4.23          
262.4869      0.81797       -4.24          
263.0869      0.81797       -4.25          
263.6868      0.81791       -4.26          
264.2868      0.81794       -4.27          
264.8868      0.81792       -4.28          
