!    3/12/2021   07:53:36 
! Ref Plane: 23.990 mm
# MHZ S MA R  50
!
0.3000        0.82056       0.04           
0.9000        0.81735       0.06           
1.4999        0.81749       0.04           
2.0999        0.81749       0.02           
2.6999        0.81756       0.01           
3.2999        0.81755       0.00           
3.8998        0.81759       -0.02          
4.4998        0.81755       -0.03          
5.0998        0.81759       -0.05          
5.6997        0.8176        -0.06          
6.2997        0.81764       -0.07          
6.8997        0.81766       -0.08          
7.4996        0.81764       -0.10          
8.0996        0.81767       -0.11          
8.6996        0.81764       -0.12          
9.2996        0.81769       -0.13          
9.8995        0.81766       -0.14          
10.4995       0.81769       -0.15          
11.0995       0.81767       -0.16          
11.6994       0.81769       -0.17          
12.2994       0.81764       -0.18          
12.8994       0.81772       -0.19          
13.4993       0.81766       -0.20          
14.0993       0.81765       -0.21          
14.6993       0.81768       -0.22          
15.2993       0.8176        -0.24          
15.8992       0.81765       -0.24          
16.4992       0.81765       -0.25          
17.0992       0.81767       -0.26          
17.6991       0.81765       -0.27          
18.2991       0.81761       -0.28          
18.8991       0.81764       -0.30          
19.4990       0.81764       -0.31          
20.0990       0.81762       -0.32          
20.6990       0.81762       -0.33          
21.2990       0.81764       -0.34          
21.8989       0.81769       -0.35          
22.4989       0.81768       -0.37          
23.0989       0.81772       -0.38          
23.6988       0.81766       -0.39          
24.2988       0.81772       -0.40          
24.8988       0.81769       -0.41          
25.4987       0.81769       -0.42          
26.0987       0.8177        -0.44          
26.6987       0.81768       -0.45          
27.2987       0.81769       -0.46          
27.8986       0.81769       -0.46          
28.4986       0.81774       -0.47          
29.0986       0.81778       -0.48          
29.6985       0.81772       -0.49          
30.2985       0.81777       -0.50          
30.8985       0.81772       -0.51          
31.4984       0.81765       -0.52          
32.0984       0.81772       -0.53          
32.6984       0.81774       -0.54          
33.2984       0.81782       -0.55          
33.8983       0.81776       -0.56          
34.4983       0.81775       -0.58          
35.0983       0.81778       -0.58          
35.6982       0.81776       -0.59          
36.2982       0.81779       -0.60          
36.8982       0.81774       -0.61          
37.4981       0.81781       -0.62          
38.0981       0.81776       -0.64          
38.6981       0.81779       -0.65          
39.2981       0.81783       -0.66          
39.8980       0.81776       -0.67          
40.4980       0.81776       -0.68          
41.0980       0.81781       -0.69          
41.6979       0.81781       -0.70          
42.2979       0.81776       -0.72          
42.8979       0.81779       -0.73          
43.4978       0.81777       -0.73          
44.0978       0.81779       -0.75          
44.6978       0.81781       -0.75          
45.2978       0.81781       -0.77          
45.8977       0.81783       -0.77          
46.4977       0.81782       -0.78          
47.0977       0.81785       -0.78          
47.6976       0.81785       -0.79          
48.2976       0.81781       -0.81          
48.8976       0.81778       -0.82          
49.4975       0.81787       -0.83          
50.0975       0.8178        -0.84          
50.6975       0.81787       -0.85          
51.2975       0.81783       -0.87          
51.8974       0.81784       -0.88          
52.4974       0.81787       -0.89          
53.0974       0.81783       -0.90          
53.6973       0.81785       -0.92          
54.2973       0.81788       -1.03          
54.8973       0.81784       -0.94          
55.4972       0.81785       -0.95          
56.0972       0.81788       -0.96          
56.6972       0.81788       -0.97          
57.2972       0.81784       -0.98          
57.8971       0.81786       -0.99          
58.4971       0.81787       -1.00          
59.0971       0.81786       -1.01          
59.6970       0.81787       -1.02          
60.2970       0.81782       -1.03          
60.8970       0.81793       -1.04          
61.4969       0.81788       -1.05          
62.0969       0.81784       -1.06          
62.6969       0.81789       -1.07          
63.2969       0.81788       -1.08          
63.8968       0.8179        -1.09          
64.4968       0.81791       -1.10          
65.0968       0.8179        -1.11          
65.6967       0.81794       -1.12          
66.2967       0.81795       -1.13          
66.8967       0.81792       -1.14          
67.4966       0.8179        -1.15          
68.0966       0.81789       -1.16          
68.6966       0.81787       -1.17          
69.2966       0.81789       -1.18          
69.8965       0.81791       -1.20          
70.4965       0.81788       -1.21          
71.0965       0.81786       -1.22          
71.6964       0.81791       -1.23          
72.2964       0.81795       -1.24          
72.8964       0.81792       -1.25          
73.4963       0.81785       -1.26          
74.0963       0.8179        -1.27          
74.6963       0.81791       -1.28          
75.2963       0.81786       -1.29          
75.8962       0.81785       -1.30          
76.4962       0.81787       -1.31          
77.0962       0.81789       -1.32          
77.6961       0.81788       -1.33          
78.2961       0.81787       -1.34          
78.8961       0.81785       -1.35          
79.4960       0.81792       -1.36          
80.0960       0.81791       -1.37          
80.6960       0.81794       -1.38          
81.2960       0.81787       -1.39          
81.8959       0.8179        -1.40          
82.4959       0.81783       -1.42          
83.0959       0.81791       -1.43          
83.6958       0.81783       -1.44          
84.2958       0.81781       -1.45          
84.8958       0.81782       -1.46          
85.4957       0.81785       -1.48          
86.0957       0.81789       -1.49          
86.6957       0.81783       -1.50          
87.2957       0.81781       -1.51          
87.8956       0.81786       -1.52          
88.4956       0.81781       -1.53          
89.0956       0.81784       -1.53          
89.6955       0.81781       -1.54          
90.2955       0.81786       -1.55          
90.8955       0.81784       -1.56          
91.4954       0.81777       -1.57          
92.0954       0.81775       -1.58          
92.6954       0.81777       -1.59          
93.2954       0.81782       -1.60          
93.8953       0.81784       -1.62          
94.4953       0.81788       -1.63          
95.0953       0.81786       -1.64          
95.6952       0.81789       -1.65          
96.2952       0.81791       -1.67          
96.8952       0.81784       -1.68          
97.4951       0.81787       -1.68          
98.0951       0.81787       -1.69          
98.6951       0.81791       -1.70          
99.2951       0.8179        -1.72          
99.8950       0.81795       -1.73          
100.4950      0.81786       -1.74          
101.0950      0.81786       -1.74          
101.6949      0.81784       -1.76          
102.2949      0.81785       -1.77          
102.8949      0.81781       -1.78          
103.4948      0.81776       -1.79          
104.0948      0.81775       -1.80          
104.6948      0.8178        -1.81          
105.2948      0.81779       -1.82          
105.8947      0.8178        -1.84          
106.4947      0.81773       -1.84          
107.0947      0.81773       -1.85          
107.6946      0.81771       -1.86          
108.2946      0.8177        -1.87          
108.8946      0.8178        -1.88          
109.4945      0.8178        -1.90          
110.0945      0.81778       -1.90          
110.6945      0.81777       -1.91          
111.2945      0.81778       -1.93          
111.8944      0.81785       -1.94          
112.4944      0.81783       -1.95          
113.0944      0.81784       -1.96          
113.6943      0.81785       -1.97          
114.2943      0.81784       -1.98          
114.8943      0.81778       -1.99          
115.4942      0.81787       -2.01          
116.0942      0.81785       -2.01          
116.6942      0.81784       -2.02          
117.2942      0.8178        -2.03          
117.8941      0.8178        -2.04          
118.4941      0.81781       -2.05          
119.0941      0.81778       -2.06          
119.6940      0.81776       -2.08          
120.2940      0.81774       -2.09          
120.8940      0.81771       -2.10          
121.4939      0.81772       -2.11          
122.0939      0.81769       -2.12          
122.6939      0.81772       -2.13          
123.2939      0.81773       -2.14          
123.8938      0.81771       -2.16          
124.4938      0.81778       -2.17          
125.0938      0.81769       -2.18          
125.6937      0.81775       -2.19          
126.2937      0.81771       -2.20          
126.8937      0.81772       -2.21          
127.4936      0.81776       -2.22          
128.0936      0.81778       -2.23          
128.6936      0.81776       -2.24          
129.2936      0.81775       -2.26          
129.8935      0.81778       -2.26          
130.4935      0.81778       -2.28          
131.0935      0.81781       -2.29          
131.6934      0.81778       -2.29          
132.2934      0.8178        -2.30          
132.8934      0.81775       -2.32          
133.4933      0.8177        -2.33          
134.0933      0.81772       -2.33          
134.6933      0.81773       -2.35          
135.2933      0.81775       -2.36          
135.8932      0.81769       -2.37          
136.4932      0.81767       -2.38          
137.0932      0.8177        -2.39          
137.6931      0.8177        -2.41          
138.2931      0.81774       -2.42          
138.8931      0.81771       -2.43          
139.4930      0.81773       -2.44          
140.0930      0.81769       -2.45          
140.6930      0.81768       -2.46          
141.2930      0.81769       -2.47          
141.8929      0.81769       -2.48          
142.4929      0.81774       -2.49          
143.0929      0.81769       -2.51          
143.6928      0.81769       -2.52          
144.2928      0.81772       -2.53          
144.8928      0.81764       -2.54          
145.4927      0.8176        -2.55          
146.0927      0.81764       -2.56          
146.6927      0.81767       -2.57          
147.2927      0.81768       -2.58          
147.8926      0.81773       -2.59          
148.4926      0.81766       -2.60          
149.0926      0.81776       -2.62          
149.6925      0.81774       -2.63          
150.2925      0.81772       -2.64          
150.8925      0.81772       -2.65          
151.4924      0.81773       -2.65          
152.0924      0.81767       -2.67          
152.6924      0.81767       -2.68          
153.2924      0.81772       -2.69          
153.8923      0.81771       -2.70          
154.4923      0.81771       -2.72          
155.0923      0.81769       -2.73          
155.6922      0.81768       -2.74          
156.2922      0.81768       -2.75          
156.8922      0.81767       -2.76          
157.4921      0.81772       -2.77          
158.0921      0.81768       -2.78          
158.6921      0.81769       -2.79          
159.2921      0.81763       -2.81          
159.8920      0.81766       -2.82          
160.4920      0.81767       -2.83          
161.0920      0.8177        -2.84          
161.6919      0.81776       -2.85          
162.2919      0.81774       -2.86          
162.8919      0.81774       -2.87          
163.4918      0.81775       -2.89          
164.0918      0.81775       -2.90          
164.6918      0.81777       -2.90          
165.2918      0.81768       -2.91          
165.8917      0.81776       -2.92          
166.4917      0.81771       -2.94          
167.0917      0.81773       -2.95          
167.6916      0.8177        -2.96          
168.2916      0.81768       -2.97          
168.8916      0.81766       -2.98          
169.4915      0.81766       -2.99          
170.0915      0.81767       -3.00          
170.6915      0.81766       -3.01          
171.2915      0.81766       -3.02          
171.8914      0.81769       -3.03          
172.4914      0.81761       -3.05          
173.0914      0.81762       -3.05          
173.6913      0.81764       -3.07          
174.2913      0.81767       -3.07          
174.8913      0.81764       -3.08          
175.4912      0.81766       -3.10          
176.0912      0.81766       -3.11          
176.6912      0.81767       -3.12          
177.2912      0.81769       -3.13          
177.8911      0.81775       -3.14          
178.4911      0.81768       -3.15          
179.0911      0.81777       -3.16          
179.6910      0.81774       -3.17          
180.2910      0.81774       -3.18          
180.8910      0.81776       -3.20          
181.4909      0.8178        -3.21          
182.0909      0.81776       -3.22          
182.6909      0.81775       -3.23          
183.2909      0.81775       -3.24          
183.8908      0.81775       -3.25          
184.4908      0.81772       -3.26          
185.0908      0.81771       -3.27          
185.6907      0.81766       -3.28          
186.2907      0.81763       -3.29          
186.8907      0.81766       -3.31          
187.4906      0.81763       -3.32          
188.0906      0.81771       -3.32          
188.6906      0.81769       -3.33          
189.2906      0.81767       -3.34          
189.8905      0.81766       -3.35          
190.4905      0.81767       -3.36          
191.0905      0.81768       -3.37          
191.6904      0.81767       -3.38          
192.2904      0.81768       -3.40          
192.8904      0.81771       -3.41          
193.4903      0.81775       -3.42          
194.0903      0.81776       -3.43          
194.6903      0.81777       -3.44          
195.2903      0.81775       -3.45          
195.8902      0.81774       -3.46          
196.4902      0.81774       -3.47          
197.0902      0.81774       -3.48          
197.6901      0.81777       -3.49          
198.2901      0.8177        -3.51          
198.8901      0.81776       -3.51          
199.4900      0.81772       -3.52          
200.0900      0.81767       -3.53          
200.6900      0.81773       -3.54          
201.2900      0.81766       -3.56          
201.8899      0.81768       -3.57          
202.4899      0.81767       -3.58          
203.0899      0.81768       -3.59          
203.6898      0.81768       -3.60          
204.2898      0.81772       -3.61          
204.8898      0.81769       -3.61          
205.4897      0.81769       -3.63          
206.0897      0.81765       -3.63          
206.6897      0.81767       -3.65          
207.2897      0.81772       -3.66          
207.8896      0.8177        -3.67          
208.4896      0.81776       -3.68          
209.0896      0.81782       -3.69          
209.6895      0.81787       -3.71          
210.2895      0.81779       -3.71          
210.8895      0.81785       -3.72          
211.4894      0.81785       -3.74          
212.0894      0.81787       -3.75          
212.6894      0.81784       -3.76          
213.2894      0.81785       -3.77          
213.8893      0.81783       -3.78          
214.4893      0.81776       -3.79          
215.0893      0.81783       -3.79          
215.6892      0.81782       -3.81          
216.2892      0.81784       -3.82          
216.8892      0.81782       -3.83          
217.4891      0.81777       -3.84          
218.0891      0.81776       -3.86          
218.6891      0.81777       -3.86          
219.2891      0.81775       -3.87          
219.8890      0.81781       -3.88          
220.4890      0.81788       -3.89          
221.0890      0.81786       -3.90          
221.6889      0.81786       -3.91          
222.2889      0.81791       -3.92          
222.8889      0.81787       -3.93          
223.4888      0.81789       -3.94          
224.0888      0.8179        -3.96          
224.6888      0.81793       -3.97          
225.2888      0.81792       -3.98          
225.8887      0.81794       -3.99          
226.4887      0.81795       -4.00          
227.0887      0.81795       -4.00          
227.6886      0.81796       -4.02          
228.2886      0.81797       -4.03          
228.8886      0.81798       -4.04          
229.4885      0.818         -4.05          
230.0885      0.81793       -4.05          
230.6885      0.81796       -4.07          
231.2885      0.81798       -4.08          
231.8884      0.81797       -4.09          
232.4884      0.81797       -4.10          
233.0884      0.81799       -4.11          
233.6883      0.81797       -4.12          
234.2883      0.81801       -4.13          
234.8883      0.81802       -4.14          
235.4882      0.81801       -4.15          
236.0882      0.81803       -4.16          
236.6882      0.81808       -4.18          
237.2882      0.81809       -4.18          
237.8881      0.81808       -4.19          
238.4881      0.8181        -4.21          
239.0881      0.8181        -4.22          
239.6880      0.8181        -4.23          
240.2880      0.81815       -4.25          
240.8880      0.81806       -4.26          
241.4879      0.81805       -4.27          
242.0879      0.81796       -4.28          
242.6879      0.81789       -4.30          
243.2879      0.81786       -4.30          
243.8878      0.81784       -4.31          
244.4878      0.81782       -4.32          
245.0878      0.81782       -4.33          
245.6877      0.81781       -4.34          
246.2877      0.81779       -4.34          
246.8877      0.8178        -4.35          
247.4876      0.8178        -4.36          
248.0876      0.81776       -4.37          
248.6876      0.81778       -4.38          
249.2876      0.81777       -4.40          
249.8875      0.81779       -4.40          
250.4875      0.81772       -4.41          
251.0875      0.81775       -4.42          
251.6874      0.81773       -4.43          
252.2874      0.81772       -4.44          
252.8874      0.81775       -4.45          
253.4873      0.81774       -4.46          
254.0873      0.81774       -4.47          
254.6873      0.81776       -4.48          
255.2873      0.81776       -4.49          
255.8872      0.8177        -4.50          
256.4872      0.81772       -4.51          
257.0872      0.81774       -4.52          
257.6871      0.81776       -4.53          
258.2871      0.8177        -4.54          
258.8871      0.81769       -4.55          
259.4870      0.81773       -4.56          
260.0870      0.81773       -4.57          
260.6870      0.81773       -4.58          
261.2870      0.81772       -4.59          
261.8869      0.8177        -4.60          
262.4869      0.81769       -4.61          
263.0869      0.81766       -4.62          
263.6868      0.81763       -4.63          
264.2868      0.8176        -4.64          
264.8868      0.81762       -4.65          
