!    3/12/2021   05:43:15 
! Ref Plane: 23.990 mm
# MHZ S MA R  50
!
0.3000        0.82129       0.08           
0.9000        0.81789       0.12           
1.4999        0.81797       0.11           
2.0999        0.81786       0.10           
2.6999        0.81784       0.08           
3.2999        0.81782       0.06           
3.8998        0.81787       0.05           
4.4998        0.81788       0.04           
5.0998        0.81783       0.02           
5.6997        0.81788       0.01           
6.2997        0.8179        0.00           
6.8997        0.8179        -0.01          
7.4996        0.81789       -0.03          
8.0996        0.81789       -0.04          
8.6996        0.81786       -0.05          
9.2996        0.8179        -0.06          
9.8995        0.8179        -0.07          
10.4995       0.81785       -0.08          
11.0995       0.81787       -0.08          
11.6994       0.81797       -0.10          
12.2994       0.81789       -0.11          
12.8994       0.81793       -0.11          
13.4993       0.81794       -0.12          
14.0993       0.81789       -0.13          
14.6993       0.81787       -0.14          
15.2993       0.81781       -0.15          
15.8992       0.81786       -0.17          
16.4992       0.81789       -0.17          
17.0992       0.8179        -0.18          
17.6991       0.81792       -0.19          
18.2991       0.81787       -0.20          
18.8991       0.81791       -0.21          
19.4990       0.81789       -0.22          
20.0990       0.81791       -0.23          
20.6990       0.8179        -0.24          
21.2990       0.81784       -0.26          
21.8989       0.81791       -0.27          
22.4989       0.8179        -0.28          
23.0989       0.81796       -0.28          
23.6988       0.81793       -0.29          
24.2988       0.81795       -0.30          
24.8988       0.81793       -0.32          
25.4987       0.81796       -0.32          
26.0987       0.81795       -0.34          
26.6987       0.81796       -0.35          
27.2987       0.81794       -0.36          
27.8986       0.81798       -0.37          
28.4986       0.81797       -0.37          
29.0986       0.81805       -0.38          
29.6985       0.81798       -0.39          
30.2985       0.81803       -0.40          
30.8985       0.81802       -0.41          
31.4984       0.8179        -0.42          
32.0984       0.818         -0.43          
32.6984       0.81801       -0.44          
33.2984       0.81806       -0.45          
33.8983       0.81802       -0.45          
34.4983       0.81803       -0.47          
35.0983       0.81802       -0.48          
35.6982       0.81801       -0.48          
36.2982       0.81804       -0.49          
36.8982       0.81803       -0.50          
37.4981       0.81809       -0.51          
38.0981       0.81803       -0.52          
38.6981       0.81806       -0.53          
39.2981       0.81807       -0.54          
39.8980       0.81808       -0.55          
40.4980       0.81802       -0.56          
41.0980       0.81808       -0.57          
41.6979       0.81808       -0.58          
42.2979       0.81805       -0.59          
42.8979       0.81809       -0.60          
43.4978       0.81804       -0.61          
44.0978       0.81807       -0.62          
44.6978       0.81812       -0.63          
45.2978       0.81809       -0.64          
45.8977       0.81805       -0.65          
46.4977       0.8181        -0.66          
47.0977       0.81811       -0.66          
47.6976       0.81811       -0.66          
48.2976       0.81807       -0.68          
48.8976       0.81812       -0.69          
49.4975       0.81811       -0.70          
50.0975       0.81814       -0.71          
50.6975       0.81812       -0.72          
51.2975       0.81811       -0.73          
51.8974       0.81817       -0.75          
52.4974       0.81814       -0.76          
53.0974       0.81815       -0.77          
53.6973       0.81817       -0.78          
54.2973       0.81815       -0.82          
54.8973       0.81811       -0.80          
55.4972       0.81814       -0.81          
56.0972       0.81815       -0.82          
56.6972       0.81816       -0.83          
57.2972       0.81813       -0.84          
57.8971       0.81817       -0.84          
58.4971       0.81818       -0.85          
59.0971       0.81819       -0.86          
59.6970       0.8182        -0.87          
60.2970       0.81819       -0.88          
60.8970       0.81823       -0.88          
61.4969       0.81821       -0.89          
62.0969       0.81816       -0.90          
62.6969       0.8182        -0.91          
63.2969       0.8182        -0.92          
63.8968       0.81822       -0.93          
64.4968       0.81823       -0.94          
65.0968       0.81826       -0.95          
65.6967       0.81828       -0.96          
66.2967       0.81827       -0.97          
66.8967       0.81821       -0.98          
67.4966       0.81821       -0.99          
68.0966       0.81823       -1.00          
68.6966       0.81821       -1.01          
69.2966       0.81821       -1.02          
69.8965       0.81822       -1.03          
70.4965       0.81823       -1.04          
71.0965       0.81824       -1.05          
71.6964       0.81827       -1.06          
72.2964       0.8183        -1.07          
72.8964       0.81826       -1.08          
73.4963       0.81824       -1.09          
74.0963       0.81827       -1.10          
74.6963       0.81823       -1.10          
75.2963       0.81823       -1.11          
75.8962       0.81823       -1.12          
76.4962       0.81825       -1.13          
77.0962       0.81823       -1.14          
77.6961       0.8182        -1.15          
78.2961       0.81819       -1.15          
78.8961       0.81819       -1.17          
79.4960       0.81825       -1.18          
80.0960       0.81827       -1.18          
80.6960       0.81827       -1.19          
81.2960       0.81825       -1.20          
81.8959       0.81825       -1.21          
82.4959       0.81824       -1.23          
83.0959       0.81828       -1.24          
83.6958       0.81825       -1.24          
84.2958       0.81821       -1.25          
84.8958       0.81823       -1.27          
85.4957       0.81825       -1.28          
86.0957       0.81824       -1.29          
86.6957       0.81822       -1.30          
87.2957       0.81817       -1.31          
87.8956       0.81825       -1.32          
88.4956       0.81818       -1.32          
89.0956       0.81822       -1.33          
89.6955       0.81818       -1.34          
90.2955       0.81823       -1.35          
90.8955       0.81818       -1.35          
91.4954       0.81816       -1.36          
92.0954       0.81814       -1.37          
92.6954       0.81812       -1.38          
93.2954       0.81825       -1.39          
93.8953       0.81826       -1.41          
94.4953       0.81828       -1.42          
95.0953       0.8183        -1.43          
95.6952       0.81827       -1.43          
96.2952       0.81839       -1.45          
96.8952       0.81827       -1.46          
97.4951       0.81832       -1.46          
98.0951       0.81828       -1.47          
98.6951       0.8183        -1.48          
99.2951       0.81829       -1.49          
99.8950       0.81839       -1.50          
100.4950      0.81827       -1.51          
101.0950      0.81828       -1.52          
101.6949      0.81826       -1.53          
102.2949      0.8183        -1.54          
102.8949      0.81821       -1.55          
103.4948      0.81818       -1.56          
104.0948      0.81818       -1.57          
104.6948      0.81819       -1.58          
105.2948      0.81821       -1.59          
105.8947      0.8182        -1.60          
106.4947      0.81815       -1.60          
107.0947      0.81816       -1.61          
107.6946      0.81815       -1.62          
108.2946      0.81813       -1.63          
108.8946      0.81815       -1.64          
109.4945      0.81817       -1.65          
110.0945      0.81819       -1.66          
110.6945      0.81821       -1.67          
111.2945      0.81825       -1.68          
111.8944      0.81823       -1.69          
112.4944      0.81823       -1.69          
113.0944      0.81822       -1.70          
113.6943      0.81822       -1.72          
114.2943      0.81825       -1.73          
114.8943      0.8182        -1.74          
115.4942      0.81826       -1.75          
116.0942      0.81824       -1.75          
116.6942      0.81827       -1.77          
117.2942      0.81824       -1.77          
117.8941      0.81824       -1.78          
118.4941      0.81824       -1.79          
119.0941      0.81818       -1.80          
119.6940      0.81817       -1.81          
120.2940      0.81818       -1.82          
120.8940      0.81814       -1.83          
121.4939      0.81808       -1.84          
122.0939      0.81811       -1.85          
122.6939      0.81816       -1.86          
123.2939      0.81814       -1.87          
123.8938      0.81812       -1.89          
124.4938      0.81817       -1.89          
125.0938      0.81813       -1.90          
125.6937      0.81813       -1.91          
126.2937      0.81815       -1.92          
126.8937      0.81809       -1.93          
127.4936      0.81815       -1.94          
128.0936      0.81821       -1.95          
128.6936      0.8182        -1.97          
129.2936      0.81814       -1.97          
129.8935      0.81819       -1.98          
130.4935      0.8182        -1.99          
131.0935      0.8182        -2.00          
131.6934      0.81819       -2.00          
132.2934      0.81818       -2.02          
132.8934      0.81814       -2.03          
133.4933      0.81813       -2.04          
134.0933      0.81812       -2.05          
134.6933      0.81814       -2.06          
135.2933      0.81816       -2.07          
135.8932      0.8181        -2.08          
136.4932      0.81809       -2.09          
137.0932      0.81812       -2.10          
137.6931      0.81809       -2.11          
138.2931      0.81814       -2.12          
138.8931      0.81812       -2.13          
139.4930      0.81813       -2.14          
140.0930      0.81811       -2.15          
140.6930      0.81805       -2.16          
141.2930      0.81812       -2.17          
141.8929      0.81809       -2.18          
142.4929      0.81805       -2.19          
143.0929      0.81808       -2.20          
143.6928      0.81803       -2.21          
144.2928      0.81807       -2.22          
144.8928      0.81804       -2.23          
145.4927      0.81805       -2.24          
146.0927      0.81804       -2.25          
146.6927      0.81805       -2.26          
147.2927      0.81809       -2.27          
147.8926      0.8181        -2.28          
148.4926      0.81811       -2.29          
149.0926      0.8181        -2.30          
149.6925      0.81809       -2.31          
150.2925      0.81806       -2.32          
150.8925      0.81804       -2.33          
151.4924      0.81808       -2.34          
152.0924      0.81806       -2.35          
152.6924      0.81802       -2.36          
153.2924      0.81802       -2.37          
153.8923      0.81808       -2.37          
154.4923      0.81808       -2.39          
155.0923      0.81806       -2.40          
155.6922      0.81804       -2.41          
156.2922      0.81805       -2.42          
156.8922      0.818         -2.43          
157.4921      0.81802       -2.44          
158.0921      0.81805       -2.45          
158.6921      0.81806       -2.46          
159.2921      0.818         -2.47          
159.8920      0.81804       -2.49          
160.4920      0.818         -2.50          
161.0920      0.81804       -2.50          
161.6919      0.81814       -2.51          
162.2919      0.81808       -2.53          
162.8919      0.81811       -2.53          
163.4918      0.81807       -2.55          
164.0918      0.81813       -2.55          
164.6918      0.81811       -2.56          
165.2918      0.81806       -2.57          
165.8917      0.81809       -2.58          
166.4917      0.81808       -2.59          
167.0917      0.81805       -2.60          
167.6916      0.81807       -2.61          
168.2916      0.81802       -2.62          
168.8916      0.81804       -2.63          
169.4915      0.81803       -2.64          
170.0915      0.81801       -2.65          
170.6915      0.81802       -2.66          
171.2915      0.81801       -2.67          
171.8914      0.81806       -2.68          
172.4914      0.81804       -2.69          
173.0914      0.81795       -2.70          
173.6913      0.81801       -2.71          
174.2913      0.81797       -2.71          
174.8913      0.81796       -2.73          
175.4912      0.818         -2.74          
176.0912      0.818         -2.75          
176.6912      0.81803       -2.76          
177.2912      0.81807       -2.77          
177.8911      0.81808       -2.77          
178.4911      0.81805       -2.79          
179.0911      0.81802       -2.80          
179.6910      0.81808       -2.81          
180.2910      0.81807       -2.82          
180.8910      0.81809       -2.83          
181.4909      0.81816       -2.84          
182.0909      0.81811       -2.85          
182.6909      0.8181        -2.86          
183.2909      0.81811       -2.87          
183.8908      0.8181        -2.88          
184.4908      0.8181        -2.89          
185.0908      0.81804       -2.90          
185.6907      0.81803       -2.90          
186.2907      0.81801       -2.92          
186.8907      0.81802       -2.93          
187.4906      0.818         -2.94          
188.0906      0.81803       -2.94          
188.6906      0.81804       -2.95          
189.2906      0.81799       -2.96          
189.8905      0.81803       -2.97          
190.4905      0.81802       -2.98          
191.0905      0.81802       -2.99          
191.6904      0.81802       -3.00          
192.2904      0.81803       -3.01          
192.8904      0.81805       -3.02          
193.4903      0.81811       -3.03          
194.0903      0.81813       -3.04          
194.6903      0.8181        -3.05          
195.2903      0.81813       -3.06          
195.8902      0.81809       -3.06          
196.4902      0.81812       -3.07          
197.0902      0.81807       -3.08          
197.6901      0.81807       -3.09          
198.2901      0.8181        -3.10          
198.8901      0.8181        -3.11          
199.4900      0.81807       -3.12          
200.0900      0.81799       -3.13          
200.6900      0.81806       -3.14          
201.2900      0.81803       -3.15          
201.8899      0.81797       -3.16          
202.4899      0.81799       -3.17          
203.0899      0.81805       -3.18          
203.6898      0.81804       -3.19          
204.2898      0.81806       -3.20          
204.8898      0.81805       -3.20          
205.4897      0.81801       -3.21          
206.0897      0.81802       -3.22          
206.6897      0.81806       -3.23          
207.2897      0.81807       -3.24          
207.8896      0.81806       -3.25          
208.4896      0.81808       -3.26          
209.0896      0.81816       -3.27          
209.6895      0.81818       -3.28          
210.2895      0.81815       -3.29          
210.8895      0.81822       -3.30          
211.4894      0.8182        -3.31          
212.0894      0.81818       -3.32          
212.6894      0.81818       -3.33          
213.2894      0.8182        -3.34          
213.8893      0.81815       -3.35          
214.4893      0.81812       -3.36          
215.0893      0.81813       -3.37          
215.6892      0.81814       -3.38          
216.2892      0.81814       -3.38          
216.8892      0.81815       -3.40          
217.4891      0.81814       -3.41          
218.0891      0.81815       -3.42          
218.6891      0.81812       -3.42          
219.2891      0.81812       -3.43          
219.8890      0.81817       -3.44          
220.4890      0.8182        -3.45          
221.0890      0.81819       -3.46          
221.6889      0.81819       -3.47          
222.2889      0.81824       -3.48          
222.8889      0.81822       -3.49          
223.4888      0.81821       -3.50          
224.0888      0.81827       -3.50          
224.6888      0.81828       -3.52          
225.2888      0.81829       -3.53          
225.8887      0.81831       -3.54          
226.4887      0.81831       -3.55          
227.0887      0.81832       -3.56          
227.6886      0.81835       -3.57          
228.2886      0.8183        -3.57          
228.8886      0.81832       -3.58          
229.4885      0.81831       -3.59          
230.0885      0.81827       -3.60          
230.6885      0.81829       -3.61          
231.2885      0.81828       -3.62          
231.8884      0.81826       -3.63          
232.4884      0.81823       -3.64          
233.0884      0.81825       -3.65          
233.6883      0.81823       -3.66          
234.2883      0.81834       -3.67          
234.8883      0.81827       -3.68          
235.4882      0.81827       -3.69          
236.0882      0.81829       -3.69          
236.6882      0.81831       -3.71          
237.2882      0.81831       -3.71          
237.8881      0.81827       -3.72          
238.4881      0.81823       -3.73          
239.0881      0.81823       -3.74          
239.6880      0.81821       -3.75          
240.2880      0.81824       -3.76          
240.8880      0.81818       -3.77          
241.4879      0.81821       -3.78          
242.0879      0.8182        -3.79          
242.6879      0.81817       -3.80          
243.2879      0.81817       -3.81          
243.8878      0.81822       -3.81          
244.4878      0.81819       -3.82          
245.0878      0.81819       -3.83          
245.6877      0.81819       -3.84          
246.2877      0.81813       -3.85          
246.8877      0.81817       -3.86          
247.4876      0.81814       -3.86          
248.0876      0.81816       -3.87          
248.6876      0.81814       -3.89          
249.2876      0.81815       -3.90          
249.8875      0.81814       -3.91          
250.4875      0.81807       -3.92          
251.0875      0.81808       -3.92          
251.6874      0.81804       -3.93          
252.2874      0.81806       -3.94          
252.8874      0.81811       -3.95          
253.4873      0.81809       -3.96          
254.0873      0.8181        -3.97          
254.6873      0.81807       -3.98          
255.2873      0.81804       -3.98          
255.8872      0.81805       -4.00          
256.4872      0.81805       -4.00          
257.0872      0.81807       -4.01          
257.6871      0.81807       -4.02          
258.2871      0.81804       -4.03          
258.8871      0.81804       -4.04          
259.4870      0.81801       -4.05          
260.0870      0.81803       -4.05          
260.6870      0.81803       -4.06          
261.2870      0.81803       -4.07          
261.8869      0.81799       -4.08          
262.4869      0.818         -4.09          
263.0869      0.81799       -4.09          
263.6868      0.81798       -4.11          
264.2868      0.81795       -4.11          
264.8868      0.81792       -4.12          
