!    3/12/2021   09:58:37 
! Ref Plane: 23.990 mm
# MHZ S MA R  50
!
0.3000        0.82089       0.05           
0.9000        0.81762       0.09           
1.4999        0.81772       0.07           
2.0999        0.81769       0.06           
2.6999        0.81764       0.04           
3.2999        0.81766       0.03           
3.8998        0.81773       0.01           
4.4998        0.81771       0.00           
5.0998        0.81769       -0.02          
5.6997        0.81772       -0.03          
6.2997        0.81777       -0.04          
6.8997        0.81775       -0.05          
7.4996        0.81774       -0.06          
8.0996        0.81775       -0.07          
8.6996        0.81772       -0.09          
9.2996        0.81776       -0.10          
9.8995        0.81777       -0.10          
10.4995       0.81776       -0.11          
11.0995       0.81772       -0.12          
11.6994       0.81777       -0.14          
12.2994       0.81779       -0.14          
12.8994       0.81785       -0.15          
13.4993       0.81777       -0.16          
14.0993       0.81777       -0.17          
14.6993       0.81774       -0.18          
15.2993       0.81769       -0.19          
15.8992       0.81772       -0.20          
16.4992       0.81773       -0.21          
17.0992       0.81771       -0.22          
17.6991       0.81773       -0.23          
18.2991       0.8177        -0.24          
18.8991       0.81771       -0.25          
19.4990       0.81771       -0.26          
20.0990       0.81774       -0.27          
20.6990       0.81769       -0.28          
21.2990       0.81769       -0.29          
21.8989       0.8177        -0.31          
22.4989       0.81771       -0.32          
23.0989       0.81777       -0.32          
23.6988       0.81777       -0.33          
24.2988       0.81776       -0.35          
24.8988       0.81774       -0.36          
25.4987       0.81778       -0.36          
26.0987       0.81774       -0.38          
26.6987       0.81775       -0.39          
27.2987       0.81773       -0.40          
27.8986       0.81779       -0.41          
28.4986       0.81776       -0.41          
29.0986       0.81779       -0.42          
29.6985       0.81775       -0.43          
30.2985       0.81781       -0.44          
30.8985       0.81779       -0.45          
31.4984       0.81772       -0.46          
32.0984       0.81775       -0.47          
32.6984       0.81779       -0.48          
33.2984       0.81783       -0.49          
33.8983       0.81778       -0.50          
34.4983       0.8178        -0.51          
35.0983       0.81781       -0.52          
35.6982       0.81785       -0.52          
36.2982       0.81785       -0.53          
36.8982       0.81777       -0.54          
37.4981       0.81783       -0.55          
38.0981       0.81778       -0.57          
38.6981       0.81782       -0.58          
39.2981       0.81783       -0.58          
39.8980       0.81783       -0.59          
40.4980       0.81783       -0.60          
41.0980       0.81781       -0.61          
41.6979       0.81779       -0.62          
42.2979       0.81781       -0.64          
42.8979       0.81781       -0.65          
43.4978       0.81776       -0.65          
44.0978       0.81781       -0.67          
44.6978       0.81783       -0.67          
45.2978       0.81782       -0.68          
45.8977       0.81778       -0.69          
46.4977       0.8178        -0.70          
47.0977       0.81785       -0.70          
47.6976       0.81782       -0.71          
48.2976       0.8178        -0.72          
48.8976       0.81784       -0.73          
49.4975       0.81783       -0.75          
50.0975       0.81784       -0.76          
50.6975       0.81785       -0.77          
51.2975       0.81786       -0.78          
51.8974       0.81789       -0.79          
52.4974       0.81784       -0.80          
53.0974       0.81785       -0.81          
53.6973       0.8179        -0.83          
54.2973       0.81786       -0.91          
54.8973       0.81783       -0.84          
55.4972       0.81784       -0.85          
56.0972       0.81784       -0.86          
56.6972       0.81784       -0.87          
57.2972       0.81785       -0.88          
57.8971       0.81783       -0.89          
58.4971       0.81786       -0.90          
59.0971       0.81788       -0.91          
59.6970       0.81786       -0.92          
60.2970       0.81787       -0.92          
60.8970       0.81788       -0.93          
61.4969       0.81787       -0.94          
62.0969       0.81785       -0.95          
62.6969       0.81786       -0.96          
63.2969       0.81783       -0.97          
63.8968       0.81788       -0.98          
64.4968       0.81789       -0.99          
65.0968       0.81788       -1.00          
65.6967       0.81789       -1.01          
66.2967       0.8179        -1.02          
66.8967       0.81788       -1.03          
67.4966       0.81787       -1.04          
68.0966       0.81785       -1.05          
68.6966       0.81786       -1.06          
69.2966       0.81787       -1.07          
69.8965       0.81787       -1.08          
70.4965       0.81786       -1.09          
71.0965       0.81783       -1.09          
71.6964       0.81792       -1.11          
72.2964       0.81788       -1.11          
72.8964       0.81787       -1.12          
73.4963       0.81784       -1.14          
74.0963       0.81788       -1.14          
74.6963       0.81786       -1.15          
75.2963       0.81783       -1.16          
75.8962       0.81786       -1.17          
76.4962       0.81786       -1.18          
77.0962       0.81788       -1.19          
77.6961       0.81785       -1.20          
78.2961       0.8178        -1.20          
78.8961       0.8178        -1.22          
79.4960       0.81785       -1.23          
80.0960       0.81783       -1.24          
80.6960       0.81791       -1.25          
81.2960       0.81784       -1.25          
81.8959       0.81785       -1.27          
82.4959       0.81783       -1.28          
83.0959       0.81785       -1.29          
83.6958       0.81783       -1.30          
84.2958       0.81774       -1.30          
84.8958       0.81775       -1.32          
85.4957       0.81783       -1.33          
86.0957       0.81784       -1.34          
86.6957       0.81776       -1.35          
87.2957       0.81777       -1.36          
87.8956       0.81779       -1.37          
88.4956       0.81776       -1.38          
89.0956       0.81777       -1.38          
89.6955       0.81779       -1.39          
90.2955       0.81777       -1.40          
90.8955       0.81776       -1.40          
91.4954       0.81771       -1.42          
92.0954       0.81765       -1.42          
92.6954       0.81769       -1.43          
93.2954       0.81775       -1.44          
93.8953       0.81783       -1.46          
94.4953       0.8178        -1.47          
95.0953       0.81782       -1.48          
95.6952       0.81782       -1.49          
96.2952       0.81787       -1.50          
96.8952       0.81782       -1.51          
97.4951       0.81783       -1.52          
98.0951       0.81784       -1.53          
98.6951       0.8178        -1.54          
99.2951       0.81784       -1.55          
99.8950       0.81787       -1.56          
100.4950      0.81779       -1.57          
101.0950      0.81782       -1.58          
101.6949      0.81777       -1.59          
102.2949      0.81778       -1.59          
102.8949      0.81772       -1.61          
103.4948      0.81767       -1.62          
104.0948      0.81766       -1.63          
104.6948      0.81767       -1.64          
105.2948      0.81771       -1.64          
105.8947      0.8177        -1.66          
106.4947      0.81766       -1.66          
107.0947      0.81763       -1.67          
107.6946      0.81763       -1.68          
108.2946      0.81766       -1.69          
108.8946      0.81767       -1.70          
109.4945      0.81765       -1.71          
110.0945      0.81766       -1.72          
110.6945      0.8177        -1.73          
111.2945      0.81768       -1.74          
111.8944      0.81772       -1.75          
112.4944      0.81771       -1.76          
113.0944      0.81769       -1.77          
113.6943      0.81773       -1.78          
114.2943      0.81776       -1.79          
114.8943      0.81767       -1.80          
115.4942      0.81774       -1.81          
116.0942      0.81771       -1.82          
116.6942      0.81772       -1.83          
117.2942      0.8177        -1.84          
117.8941      0.81769       -1.85          
118.4941      0.81767       -1.86          
119.0941      0.81763       -1.87          
119.6940      0.81763       -1.88          
120.2940      0.81764       -1.89          
120.8940      0.81758       -1.90          
121.4939      0.81757       -1.91          
122.0939      0.81758       -1.92          
122.6939      0.81762       -1.93          
123.2939      0.81761       -1.94          
123.8938      0.81756       -1.95          
124.4938      0.81763       -1.96          
125.0938      0.81756       -1.97          
125.6937      0.81758       -1.98          
126.2937      0.81759       -1.99          
126.8937      0.81756       -2.00          
127.4936      0.81758       -2.01          
128.0936      0.81764       -2.02          
128.6936      0.81763       -2.03          
129.2936      0.8176        -2.04          
129.8935      0.81761       -2.05          
130.4935      0.8176        -2.06          
131.0935      0.81767       -2.07          
131.6934      0.81765       -2.08          
132.2934      0.8176        -2.08          
132.8934      0.81758       -2.10          
133.4933      0.81756       -2.11          
134.0933      0.8176        -2.12          
134.6933      0.81755       -2.13          
135.2933      0.81757       -2.14          
135.8932      0.81751       -2.14          
136.4932      0.81749       -2.16          
137.0932      0.81752       -2.17          
137.6931      0.81754       -2.18          
138.2931      0.81752       -2.19          
138.8931      0.81755       -2.20          
139.4930      0.81753       -2.21          
140.0930      0.81752       -2.22          
140.6930      0.81748       -2.23          
141.2930      0.81752       -2.24          
141.8929      0.81751       -2.25          
142.4929      0.81747       -2.26          
143.0929      0.81751       -2.27          
143.6928      0.81746       -2.28          
144.2928      0.81749       -2.29          
144.8928      0.81745       -2.30          
145.4927      0.81743       -2.31          
146.0927      0.81741       -2.32          
146.6927      0.81745       -2.33          
147.2927      0.81748       -2.34          
147.8926      0.81753       -2.35          
148.4926      0.81747       -2.36          
149.0926      0.81747       -2.37          
149.6925      0.81752       -2.38          
150.2925      0.81749       -2.39          
150.8925      0.81751       -2.40          
151.4924      0.81749       -2.41          
152.0924      0.8175        -2.42          
152.6924      0.81746       -2.43          
153.2924      0.81745       -2.44          
153.8923      0.81747       -2.45          
154.4923      0.81741       -2.46          
155.0923      0.81747       -2.48          
155.6922      0.81745       -2.49          
156.2922      0.8174        -2.50          
156.8922      0.81738       -2.51          
157.4921      0.81744       -2.52          
158.0921      0.81743       -2.53          
158.6921      0.81744       -2.54          
159.2921      0.81739       -2.55          
159.8920      0.81741       -2.56          
160.4920      0.81741       -2.57          
161.0920      0.81741       -2.58          
161.6919      0.81748       -2.59          
162.2919      0.81746       -2.60          
162.8919      0.81746       -2.61          
163.4918      0.81743       -2.63          
164.0918      0.81749       -2.63          
164.6918      0.81752       -2.64          
165.2918      0.81739       -2.65          
165.8917      0.81744       -2.66          
166.4917      0.81744       -2.67          
167.0917      0.81747       -2.68          
167.6916      0.81745       -2.69          
168.2916      0.8174        -2.70          
168.8916      0.81741       -2.71          
169.4915      0.81743       -2.72          
170.0915      0.81739       -2.73          
170.6915      0.81738       -2.74          
171.2915      0.81738       -2.75          
171.8914      0.81739       -2.76          
172.4914      0.81735       -2.77          
173.0914      0.81731       -2.78          
173.6913      0.81735       -2.79          
174.2913      0.81734       -2.80          
174.8913      0.81731       -2.81          
175.4912      0.81733       -2.82          
176.0912      0.81737       -2.83          
176.6912      0.81738       -2.84          
177.2912      0.81738       -2.85          
177.8911      0.81741       -2.86          
178.4911      0.81739       -2.87          
179.0911      0.8174        -2.88          
179.6910      0.8174        -2.89          
180.2910      0.81741       -2.90          
180.8910      0.81747       -2.91          
181.4909      0.81747       -2.92          
182.0909      0.81743       -2.93          
182.6909      0.8174        -2.94          
183.2909      0.81744       -2.95          
183.8908      0.81744       -2.96          
184.4908      0.81746       -2.97          
185.0908      0.81737       -2.98          
185.6907      0.81734       -2.99          
186.2907      0.81734       -3.00          
186.8907      0.81736       -3.01          
187.4906      0.81732       -3.02          
188.0906      0.81734       -3.03          
188.6906      0.81738       -3.04          
189.2906      0.81734       -3.05          
189.8905      0.8173        -3.06          
190.4905      0.81733       -3.07          
191.0905      0.81734       -3.08          
191.6904      0.81733       -3.08          
192.2904      0.81733       -3.10          
192.8904      0.81737       -3.10          
193.4903      0.81741       -3.11          
194.0903      0.81745       -3.13          
194.6903      0.81744       -3.14          
195.2903      0.81744       -3.14          
195.8902      0.81741       -3.15          
196.4902      0.81741       -3.16          
197.0902      0.81738       -3.17          
197.6901      0.81737       -3.18          
198.2901      0.81737       -3.19          
198.8901      0.81738       -3.20          
199.4900      0.81739       -3.21          
200.0900      0.81728       -3.22          
200.6900      0.81734       -3.23          
201.2900      0.81733       -3.24          
201.8899      0.81729       -3.25          
202.4899      0.81728       -3.26          
203.0899      0.8173        -3.27          
203.6898      0.81733       -3.28          
204.2898      0.81735       -3.29          
204.8898      0.81733       -3.30          
205.4897      0.81734       -3.31          
206.0897      0.81727       -3.32          
206.6897      0.8173        -3.33          
207.2897      0.81731       -3.34          
207.8896      0.81735       -3.35          
208.4896      0.81735       -3.36          
209.0896      0.81741       -3.37          
209.6895      0.81746       -3.38          
210.2895      0.81739       -3.39          
210.8895      0.81747       -3.40          
211.4894      0.81752       -3.41          
212.0894      0.81745       -3.42          
212.6894      0.81743       -3.42          
213.2894      0.81744       -3.44          
213.8893      0.81742       -3.44          
214.4893      0.81737       -3.46          
215.0893      0.81741       -3.46          
215.6892      0.81741       -3.47          
216.2892      0.81743       -3.48          
216.8892      0.81739       -3.50          
217.4891      0.81736       -3.50          
218.0891      0.81733       -3.52          
218.6891      0.81735       -3.52          
219.2891      0.81738       -3.53          
219.8890      0.81742       -3.54          
220.4890      0.81743       -3.55          
221.0890      0.81746       -3.56          
221.6889      0.81739       -3.57          
222.2889      0.81748       -3.58          
222.8889      0.81747       -3.59          
223.4888      0.81745       -3.60          
224.0888      0.81745       -3.61          
224.6888      0.81748       -3.62          
225.2888      0.81746       -3.63          
225.8887      0.81751       -3.63          
226.4887      0.8175        -3.64          
227.0887      0.81753       -3.65          
227.6886      0.81755       -3.67          
228.2886      0.81756       -3.67          
228.8886      0.81751       -3.68          
229.4885      0.81755       -3.69          
230.0885      0.81752       -3.70          
230.6885      0.81751       -3.71          
231.2885      0.81753       -3.72          
231.8884      0.8175        -3.73          
232.4884      0.81754       -3.74          
233.0884      0.8175        -3.75          
233.6883      0.8175        -3.76          
234.2883      0.81757       -3.77          
234.8883      0.81763       -3.78          
235.4882      0.81758       -3.79          
236.0882      0.81762       -3.80          
236.6882      0.81766       -3.81          
237.2882      0.81764       -3.82          
237.8881      0.81765       -3.83          
238.4881      0.81764       -3.84          
239.0881      0.81765       -3.86          
239.6880      0.81757       -3.87          
240.2880      0.81755       -3.88          
240.8880      0.81743       -3.89          
241.4879      0.81737       -3.90          
242.0879      0.8173        -3.91          
242.6879      0.81727       -3.92          
243.2879      0.81728       -3.92          
243.8878      0.81728       -3.93          
244.4878      0.81728       -3.94          
245.0878      0.81724       -3.94          
245.6877      0.81727       -3.95          
246.2877      0.81726       -3.96          
246.8877      0.81729       -3.97          
247.4876      0.81727       -3.97          
248.0876      0.81727       -3.98          
248.6876      0.81726       -4.00          
249.2876      0.81727       -4.01          
249.8875      0.81725       -4.02          
250.4875      0.81719       -4.02          
251.0875      0.81722       -4.03          
251.6874      0.81717       -4.04          
252.2874      0.81718       -4.05          
252.8874      0.81723       -4.06          
253.4873      0.81722       -4.07          
254.0873      0.81721       -4.08          
254.6873      0.81722       -4.09          
255.2873      0.8172        -4.10          
255.8872      0.81721       -4.10          
256.4872      0.81719       -4.11          
257.0872      0.8172        -4.12          
257.6871      0.81721       -4.13          
258.2871      0.81718       -4.14          
258.8871      0.81719       -4.15          
259.4870      0.81713       -4.16          
260.0870      0.81719       -4.16          
260.6870      0.81715       -4.17          
261.2870      0.81716       -4.18          
261.8869      0.81714       -4.19          
262.4869      0.81715       -4.20          
263.0869      0.81714       -4.21          
263.6868      0.8171        -4.22          
264.2868      0.81708       -4.23          
264.8868      0.81707       -4.24          
