!    3/12/2021   06:22:33 
! Ref Plane: 23.990 mm
# MHZ S MA R  50
!
0.3000        0.82031       0.02           
0.9000        0.81714       0.02           
1.4999        0.81725       0.00           
2.0999        0.81736       -0.01          
2.6999        0.81737       -0.03          
3.2999        0.81743       -0.03          
3.8998        0.81748       -0.05          
4.4998        0.81748       -0.06          
5.0998        0.81749       -0.07          
5.6997        0.81762       -0.08          
6.2997        0.81758       -0.09          
6.8997        0.81761       -0.10          
7.4996        0.81759       -0.11          
8.0996        0.81763       -0.12          
8.6996        0.81764       -0.14          
9.2996        0.81769       -0.14          
9.8995        0.81769       -0.15          
10.4995       0.81763       -0.16          
11.0995       0.8177        -0.16          
11.6994       0.81772       -0.18          
12.2994       0.8177        -0.19          
12.8994       0.81774       -0.19          
13.4993       0.81769       -0.20          
14.0993       0.81773       -0.21          
14.6993       0.8177        -0.22          
15.2993       0.81764       -0.23          
15.8992       0.81768       -0.24          
16.4992       0.8177        -0.24          
17.0992       0.81772       -0.25          
17.6991       0.81769       -0.26          
18.2991       0.81772       -0.27          
18.8991       0.81766       -0.28          
19.4990       0.8177        -0.29          
20.0990       0.81775       -0.31          
20.6990       0.81769       -0.31          
21.2990       0.81773       -0.32          
21.8989       0.81772       -0.33          
22.4989       0.81774       -0.34          
23.0989       0.81784       -0.35          
23.6988       0.81776       -0.36          
24.2988       0.81776       -0.37          
24.8988       0.81779       -0.38          
25.4987       0.81778       -0.39          
26.0987       0.81782       -0.40          
26.6987       0.81783       -0.41          
27.2987       0.81781       -0.42          
27.8986       0.81783       -0.43          
28.4986       0.81782       -0.43          
29.0986       0.8179        -0.44          
29.6985       0.81781       -0.45          
30.2985       0.81787       -0.46          
30.8985       0.81785       -0.46          
31.4984       0.8178        -0.47          
32.0984       0.81786       -0.48          
32.6984       0.81792       -0.49          
33.2984       0.81794       -0.50          
33.8983       0.81789       -0.51          
34.4983       0.81789       -0.52          
35.0983       0.81795       -0.52          
35.6982       0.81792       -0.53          
36.2982       0.81792       -0.54          
36.8982       0.81793       -0.55          
37.4981       0.81801       -0.56          
38.0981       0.81794       -0.57          
38.6981       0.81796       -0.58          
39.2981       0.81796       -0.59          
39.8980       0.81796       -0.60          
40.4980       0.81796       -0.61          
41.0980       0.81798       -0.62          
41.6979       0.81795       -0.63          
42.2979       0.81796       -0.64          
42.8979       0.81797       -0.65          
43.4978       0.81797       -0.65          
44.0978       0.81805       -0.66          
44.6978       0.818         -0.67          
45.2978       0.81802       -0.68          
45.8977       0.81801       -0.69          
46.4977       0.81801       -0.70          
47.0977       0.81807       -0.70          
47.6976       0.81802       -0.71          
48.2976       0.81803       -0.72          
48.8976       0.818         -0.73          
49.4975       0.81806       -0.74          
50.0975       0.81805       -0.75          
50.6975       0.81811       -0.76          
51.2975       0.8181        -0.77          
51.8974       0.8181        -0.78          
52.4974       0.81812       -0.79          
53.0974       0.81812       -0.81          
53.6973       0.81814       -0.82          
54.2973       0.81812       -0.94          
54.8973       0.81807       -0.84          
55.4972       0.81804       -0.84          
56.0972       0.81808       -0.85          
56.6972       0.81809       -0.86          
57.2972       0.81808       -0.87          
57.8971       0.81812       -0.87          
58.4971       0.81815       -0.89          
59.0971       0.81813       -0.89          
59.6970       0.8181        -0.90          
60.2970       0.81812       -0.91          
60.8970       0.81818       -0.92          
61.4969       0.81814       -0.92          
62.0969       0.81814       -0.93          
62.6969       0.81817       -0.94          
63.2969       0.81817       -0.96          
63.8968       0.81818       -0.96          
64.4968       0.81821       -0.97          
65.0968       0.81819       -0.98          
65.6967       0.81823       -0.99          
66.2967       0.81821       -1.00          
66.8967       0.81819       -1.01          
67.4966       0.81822       -1.02          
68.0966       0.81816       -1.03          
68.6966       0.81817       -1.04          
69.2966       0.81818       -1.04          
69.8965       0.81816       -1.06          
70.4965       0.81821       -1.06          
71.0965       0.81817       -1.08          
71.6964       0.81822       -1.09          
72.2964       0.81821       -1.10          
72.8964       0.8182        -1.10          
73.4963       0.81817       -1.11          
74.0963       0.81821       -1.12          
74.6963       0.81822       -1.13          
75.2963       0.81817       -1.14          
75.8962       0.81816       -1.14          
76.4962       0.81821       -1.15          
77.0962       0.81821       -1.16          
77.6961       0.81818       -1.17          
78.2961       0.8182        -1.18          
78.8961       0.81812       -1.19          
79.4960       0.81818       -1.20          
80.0960       0.81818       -1.21          
80.6960       0.81823       -1.22          
81.2960       0.81819       -1.22          
81.8959       0.81823       -1.24          
82.4959       0.81821       -1.25          
83.0959       0.81823       -1.26          
83.6958       0.81822       -1.27          
84.2958       0.81817       -1.27          
84.8958       0.81816       -1.29          
85.4957       0.81824       -1.30          
86.0957       0.81822       -1.31          
86.6957       0.81818       -1.32          
87.2957       0.81813       -1.33          
87.8956       0.81821       -1.34          
88.4956       0.81818       -1.35          
89.0956       0.81822       -1.35          
89.6955       0.81819       -1.36          
90.2955       0.81824       -1.36          
90.8955       0.81815       -1.37          
91.4954       0.81813       -1.38          
92.0954       0.81809       -1.40          
92.6954       0.81812       -1.40          
93.2954       0.81818       -1.41          
93.8953       0.81818       -1.43          
94.4953       0.81825       -1.44          
95.0953       0.81821       -1.45          
95.6952       0.81824       -1.45          
96.2952       0.8183        -1.46          
96.8952       0.81826       -1.47          
97.4951       0.81826       -1.48          
98.0951       0.81826       -1.49          
98.6951       0.81825       -1.50          
99.2951       0.81829       -1.51          
99.8950       0.81834       -1.52          
100.4950      0.81824       -1.53          
101.0950      0.81828       -1.53          
101.6949      0.81823       -1.55          
102.2949      0.81828       -1.55          
102.8949      0.81817       -1.56          
103.4948      0.81817       -1.57          
104.0948      0.81816       -1.58          
104.6948      0.81814       -1.59          
105.2948      0.81816       -1.60          
105.8947      0.8182        -1.61          
106.4947      0.81816       -1.62          
107.0947      0.81813       -1.62          
107.6946      0.81813       -1.63          
108.2946      0.81816       -1.64          
108.8946      0.81817       -1.65          
109.4945      0.81817       -1.66          
110.0945      0.81822       -1.67          
110.6945      0.81821       -1.68          
111.2945      0.81822       -1.69          
111.8944      0.81828       -1.70          
112.4944      0.81824       -1.71          
113.0944      0.81826       -1.72          
113.6943      0.81827       -1.73          
114.2943      0.81828       -1.74          
114.8943      0.81826       -1.75          
115.4942      0.81829       -1.75          
116.0942      0.81829       -1.76          
116.6942      0.8183        -1.77          
117.2942      0.81824       -1.78          
117.8941      0.81825       -1.79          
118.4941      0.81825       -1.80          
119.0941      0.81826       -1.81          
119.6940      0.81819       -1.82          
120.2940      0.81818       -1.83          
120.8940      0.8182        -1.84          
121.4939      0.81818       -1.85          
122.0939      0.81818       -1.86          
122.6939      0.81817       -1.87          
123.2939      0.81821       -1.88          
123.8938      0.81818       -1.89          
124.4938      0.81824       -1.90          
125.0938      0.81819       -1.91          
125.6937      0.8182        -1.92          
126.2937      0.81822       -1.93          
126.8937      0.8182        -1.94          
127.4936      0.81825       -1.95          
128.0936      0.81825       -1.96          
128.6936      0.81826       -1.97          
129.2936      0.81825       -1.98          
129.8935      0.81825       -1.98          
130.4935      0.81826       -1.99          
131.0935      0.81831       -2.00          
131.6934      0.8183        -2.01          
132.2934      0.81831       -2.02          
132.8934      0.81824       -2.03          
133.4933      0.81823       -2.04          
134.0933      0.81826       -2.05          
134.6933      0.81825       -2.06          
135.2933      0.81825       -2.06          
135.8932      0.8182        -2.07          
136.4932      0.81819       -2.08          
137.0932      0.81818       -2.09          
137.6931      0.81818       -2.11          
138.2931      0.8182        -2.12          
138.8931      0.81824       -2.12          
139.4930      0.81826       -2.14          
140.0930      0.81822       -2.14          
140.6930      0.81816       -2.15          
141.2930      0.81821       -2.16          
141.8929      0.81822       -2.17          
142.4929      0.81824       -2.18          
143.0929      0.81823       -2.19          
143.6928      0.81819       -2.20          
144.2928      0.81815       -2.21          
144.8928      0.81815       -2.22          
145.4927      0.81817       -2.23          
146.0927      0.81816       -2.24          
146.6927      0.81817       -2.25          
147.2927      0.8182        -2.26          
147.8926      0.81824       -2.27          
148.4926      0.81822       -2.28          
149.0926      0.81824       -2.29          
149.6925      0.81826       -2.30          
150.2925      0.81827       -2.30          
150.8925      0.81823       -2.31          
151.4924      0.81826       -2.32          
152.0924      0.81822       -2.33          
152.6924      0.81824       -2.34          
153.2924      0.81822       -2.35          
153.8923      0.81826       -2.36          
154.4923      0.81824       -2.37          
155.0923      0.81825       -2.38          
155.6922      0.81823       -2.39          
156.2922      0.81821       -2.41          
156.8922      0.81822       -2.41          
157.4921      0.81821       -2.42          
158.0921      0.8182        -2.43          
158.6921      0.81822       -2.44          
159.2921      0.81819       -2.45          
159.8920      0.81823       -2.47          
160.4920      0.81825       -2.47          
161.0920      0.81824       -2.48          
161.6919      0.81829       -2.49          
162.2919      0.8183        -2.50          
162.8919      0.81836       -2.51          
163.4918      0.81832       -2.52          
164.0918      0.81834       -2.53          
164.6918      0.81831       -2.53          
165.2918      0.81832       -2.55          
165.8917      0.81831       -2.55          
166.4917      0.81829       -2.56          
167.0917      0.81832       -2.57          
167.6916      0.81828       -2.58          
168.2916      0.81825       -2.59          
168.8916      0.81825       -2.60          
169.4915      0.81821       -2.61          
170.0915      0.81826       -2.62          
170.6915      0.81829       -2.63          
171.2915      0.81822       -2.64          
171.8914      0.81826       -2.65          
172.4914      0.8182        -2.66          
173.0914      0.8182        -2.66          
173.6913      0.81823       -2.68          
174.2913      0.81824       -2.68          
174.8913      0.81819       -2.69          
175.4912      0.81822       -2.70          
176.0912      0.81824       -2.71          
176.6912      0.81826       -2.73          
177.2912      0.81828       -2.73          
177.8911      0.8183        -2.74          
178.4911      0.81828       -2.75          
179.0911      0.81832       -2.76          
179.6910      0.8183        -2.77          
180.2910      0.81832       -2.78          
180.8910      0.81834       -2.79          
181.4909      0.81837       -2.80          
182.0909      0.81832       -2.81          
182.6909      0.81831       -2.82          
183.2909      0.81835       -2.83          
183.8908      0.81833       -2.84          
184.4908      0.81832       -2.85          
185.0908      0.81827       -2.86          
185.6907      0.81822       -2.86          
186.2907      0.81822       -2.87          
186.8907      0.81825       -2.88          
187.4906      0.81825       -2.89          
188.0906      0.81829       -2.90          
188.6906      0.81831       -2.91          
189.2906      0.81823       -2.92          
189.8905      0.81824       -2.93          
190.4905      0.81827       -2.94          
191.0905      0.81824       -2.94          
191.6904      0.81822       -2.95          
192.2904      0.81827       -2.96          
192.8904      0.81828       -2.97          
193.4903      0.81833       -2.98          
194.0903      0.81835       -2.99          
194.6903      0.81836       -3.00          
195.2903      0.81833       -3.01          
195.8902      0.81835       -3.01          
196.4902      0.81835       -3.03          
197.0902      0.81833       -3.04          
197.6901      0.81832       -3.05          
198.2901      0.81836       -3.06          
198.8901      0.81833       -3.07          
199.4900      0.81832       -3.07          
200.0900      0.81823       -3.08          
200.6900      0.81828       -3.09          
201.2900      0.81827       -3.10          
201.8899      0.81823       -3.11          
202.4899      0.81824       -3.12          
203.0899      0.81823       -3.13          
203.6898      0.81827       -3.14          
204.2898      0.81829       -3.15          
204.8898      0.81829       -3.16          
205.4897      0.81827       -3.16          
206.0897      0.8182        -3.17          
206.6897      0.81828       -3.18          
207.2897      0.81831       -3.20          
207.8896      0.81829       -3.20          
208.4896      0.81832       -3.21          
209.0896      0.81842       -3.23          
209.6895      0.81844       -3.23          
210.2895      0.81835       -3.24          
210.8895      0.81844       -3.25          
211.4894      0.8184        -3.26          
212.0894      0.81841       -3.27          
212.6894      0.81846       -3.28          
213.2894      0.81843       -3.29          
213.8893      0.8184        -3.30          
214.4893      0.81834       -3.31          
215.0893      0.81839       -3.31          
215.6892      0.81837       -3.33          
216.2892      0.81841       -3.33          
216.8892      0.81841       -3.35          
217.4891      0.81834       -3.36          
218.0891      0.81836       -3.37          
218.6891      0.81834       -3.37          
219.2891      0.81839       -3.38          
219.8890      0.81838       -3.39          
220.4890      0.81839       -3.40          
221.0890      0.8184        -3.41          
221.6889      0.81841       -3.42          
222.2889      0.81849       -3.43          
222.8889      0.81843       -3.44          
223.4888      0.81843       -3.45          
224.0888      0.81846       -3.45          
224.6888      0.81851       -3.47          
225.2888      0.81851       -3.48          
225.8887      0.81851       -3.48          
226.4887      0.81857       -3.49          
227.0887      0.81852       -3.50          
227.6886      0.81858       -3.51          
228.2886      0.81855       -3.52          
228.8886      0.81856       -3.53          
229.4885      0.81854       -3.53          
230.0885      0.81851       -3.54          
230.6885      0.81855       -3.56          
231.2885      0.81852       -3.56          
231.8884      0.81853       -3.57          
232.4884      0.81853       -3.58          
233.0884      0.81853       -3.59          
233.6883      0.81853       -3.60          
234.2883      0.8186        -3.61          
234.8883      0.8186        -3.62          
235.4882      0.81859       -3.63          
236.0882      0.81858       -3.63          
236.6882      0.8186        -3.65          
237.2882      0.8186        -3.66          
237.8881      0.81863       -3.66          
238.4881      0.8186        -3.67          
239.0881      0.8186        -3.68          
239.6880      0.81862       -3.70          
240.2880      0.81864       -3.70          
240.8880      0.81861       -3.71          
241.4879      0.81867       -3.72          
242.0879      0.81868       -3.73          
242.6879      0.81865       -3.75          
243.2879      0.81868       -3.76          
243.8878      0.81875       -3.77          
244.4878      0.81872       -3.78          
245.0878      0.81866       -3.79          
245.6877      0.81858       -3.80          
246.2877      0.81853       -3.81          
246.8877      0.81848       -3.82          
247.4876      0.81844       -3.82          
248.0876      0.81842       -3.83          
248.6876      0.81838       -3.84          
249.2876      0.81841       -3.85          
249.8875      0.81838       -3.86          
250.4875      0.81832       -3.87          
251.0875      0.81832       -3.87          
251.6874      0.81829       -3.88          
252.2874      0.81831       -3.89          
252.8874      0.81833       -3.90          
253.4873      0.81836       -3.91          
254.0873      0.81836       -3.92          
254.6873      0.81835       -3.93          
255.2873      0.81833       -3.93          
255.8872      0.81831       -3.94          
256.4872      0.81832       -3.95          
257.0872      0.81834       -3.96          
257.6871      0.81836       -3.97          
258.2871      0.81833       -3.98          
258.8871      0.81833       -3.98          
259.4870      0.81831       -3.99          
260.0870      0.81835       -4.00          
260.6870      0.81832       -4.01          
261.2870      0.81833       -4.01          
261.8869      0.81827       -4.02          
262.4869      0.81828       -4.03          
263.0869      0.81827       -4.04          
263.6868      0.81824       -4.05          
264.2868      0.8182        -4.06          
264.8868      0.81819       -4.07          
