!    3/12/2021   08:03:15 
! Ref Plane: 23.990 mm
# MHZ S MA R  50
!
0.3000        0.82051       0.06           
0.9000        0.81714       0.07           
1.4999        0.81723       0.04           
2.0999        0.81724       0.03           
2.6999        0.81732       0.01           
3.2999        0.81733       0.00           
3.8998        0.81735       -0.01          
4.4998        0.8174        -0.03          
5.0998        0.8174        -0.04          
5.6997        0.81747       -0.05          
6.2997        0.81741       -0.07          
6.8997        0.81749       -0.08          
7.4996        0.81743       -0.09          
8.0996        0.81744       -0.10          
8.6996        0.81743       -0.12          
9.2996        0.81752       -0.12          
9.8995        0.81743       -0.13          
10.4995       0.81742       -0.14          
11.0995       0.81747       -0.15          
11.6994       0.81748       -0.16          
12.2994       0.81747       -0.18          
12.8994       0.81754       -0.19          
13.4993       0.81744       -0.20          
14.0993       0.81742       -0.21          
14.6993       0.81745       -0.22          
15.2993       0.81737       -0.23          
15.8992       0.81743       -0.24          
16.4992       0.81742       -0.24          
17.0992       0.81743       -0.25          
17.6991       0.81744       -0.27          
18.2991       0.8174        -0.28          
18.8991       0.8174        -0.29          
19.4990       0.81741       -0.30          
20.0990       0.81745       -0.31          
20.6990       0.81741       -0.32          
21.2990       0.81739       -0.34          
21.8989       0.8174        -0.35          
22.4989       0.81744       -0.36          
23.0989       0.81745       -0.37          
23.6988       0.81741       -0.38          
24.2988       0.81741       -0.39          
24.8988       0.81738       -0.41          
25.4987       0.81743       -0.41          
26.0987       0.81742       -0.43          
26.6987       0.81746       -0.44          
27.2987       0.81743       -0.45          
27.8986       0.81746       -0.46          
28.4986       0.81746       -0.46          
29.0986       0.81751       -0.47          
29.6985       0.81748       -0.48          
30.2985       0.8175        -0.49          
30.8985       0.81742       -0.50          
31.4984       0.81738       -0.51          
32.0984       0.81746       -0.52          
32.6984       0.8175        -0.53          
33.2984       0.81751       -0.54          
33.8983       0.81748       -0.56          
34.4983       0.81749       -0.57          
35.0983       0.81749       -0.57          
35.6982       0.81751       -0.58          
36.2982       0.81749       -0.59          
36.8982       0.81746       -0.60          
37.4981       0.81752       -0.61          
38.0981       0.81749       -0.63          
38.6981       0.81747       -0.64          
39.2981       0.81749       -0.65          
39.8980       0.81749       -0.66          
40.4980       0.81746       -0.67          
41.0980       0.8175        -0.68          
41.6979       0.81749       -0.69          
42.2979       0.81747       -0.70          
42.8979       0.81746       -0.72          
43.4978       0.81749       -0.72          
44.0978       0.81749       -0.73          
44.6978       0.81753       -0.74          
45.2978       0.81751       -0.75          
45.8977       0.81748       -0.76          
46.4977       0.81749       -0.77          
47.0977       0.81753       -0.77          
47.6976       0.81751       -0.78          
48.2976       0.81753       -0.80          
48.8976       0.81751       -0.81          
49.4975       0.81755       -0.82          
50.0975       0.81749       -0.83          
50.6975       0.81756       -0.84          
51.2975       0.81755       -0.86          
51.8974       0.81755       -0.87          
52.4974       0.81756       -0.88          
53.0974       0.81751       -0.89          
53.6973       0.81755       -0.91          
54.2973       0.81756       -1.02          
54.8973       0.81749       -0.93          
55.4972       0.81745       -0.94          
56.0972       0.81748       -0.95          
56.6972       0.81752       -0.96          
57.2972       0.81749       -0.97          
57.8971       0.81751       -0.98          
58.4971       0.81753       -0.98          
59.0971       0.81755       -0.99          
59.6970       0.81752       -1.01          
60.2970       0.81751       -1.01          
60.8970       0.81755       -1.02          
61.4969       0.81753       -1.03          
62.0969       0.81751       -1.04          
62.6969       0.81753       -1.05          
63.2969       0.8175        -1.07          
63.8968       0.81755       -1.07          
64.4968       0.81755       -1.08          
65.0968       0.81757       -1.10          
65.6967       0.81758       -1.10          
66.2967       0.81758       -1.11          
66.8967       0.81751       -1.13          
67.4966       0.81754       -1.14          
68.0966       0.81752       -1.15          
68.6966       0.8175        -1.16          
69.2966       0.81751       -1.17          
69.8965       0.81748       -1.18          
70.4965       0.81749       -1.19          
71.0965       0.81747       -1.20          
71.6964       0.81756       -1.21          
72.2964       0.81754       -1.22          
72.8964       0.81752       -1.23          
73.4963       0.81748       -1.24          
74.0963       0.81747       -1.25          
74.6963       0.81749       -1.26          
75.2963       0.81748       -1.27          
75.8962       0.81748       -1.28          
76.4962       0.81748       -1.29          
77.0962       0.81751       -1.30          
77.6961       0.81746       -1.31          
78.2961       0.81746       -1.32          
78.8961       0.81738       -1.33          
79.4960       0.81748       -1.34          
80.0960       0.81745       -1.35          
80.6960       0.81749       -1.36          
81.2960       0.81743       -1.37          
81.8959       0.81749       -1.39          
82.4959       0.81741       -1.39          
83.0959       0.8175        -1.41          
83.6958       0.81748       -1.42          
84.2958       0.8174        -1.42          
84.8958       0.8174        -1.44          
85.4957       0.81745       -1.46          
86.0957       0.81738       -1.47          
86.6957       0.81741       -1.48          
87.2957       0.81735       -1.49          
87.8956       0.81739       -1.50          
88.4956       0.81733       -1.51          
89.0956       0.81738       -1.51          
89.6955       0.81739       -1.52          
90.2955       0.81742       -1.53          
90.8955       0.81735       -1.54          
91.4954       0.81731       -1.55          
92.0954       0.81728       -1.56          
92.6954       0.81729       -1.57          
93.2954       0.81736       -1.58          
93.8953       0.81738       -1.60          
94.4953       0.8174        -1.61          
95.0953       0.81743       -1.62          
95.6952       0.8174        -1.63          
96.2952       0.81742       -1.64          
96.8952       0.81737       -1.65          
97.4951       0.81737       -1.66          
98.0951       0.81736       -1.67          
98.6951       0.81737       -1.68          
99.2951       0.81743       -1.69          
99.8950       0.81747       -1.70          
100.4950      0.81739       -1.71          
101.0950      0.81737       -1.72          
101.6949      0.81736       -1.73          
102.2949      0.81737       -1.74          
102.8949      0.81726       -1.75          
103.4948      0.8173        -1.76          
104.0948      0.81727       -1.78          
104.6948      0.81724       -1.78          
105.2948      0.81729       -1.79          
105.8947      0.81728       -1.80          
106.4947      0.81725       -1.81          
107.0947      0.81719       -1.82          
107.6946      0.81719       -1.83          
108.2946      0.8172        -1.84          
108.8946      0.81721       -1.85          
109.4945      0.81724       -1.87          
110.0945      0.81728       -1.87          
110.6945      0.81726       -1.88          
111.2945      0.81731       -1.90          
111.8944      0.81734       -1.91          
112.4944      0.81729       -1.91          
113.0944      0.8173        -1.92          
113.6943      0.81731       -1.94          
114.2943      0.81733       -1.95          
114.8943      0.81728       -1.96          
115.4942      0.81735       -1.97          
116.0942      0.81727       -1.98          
116.6942      0.81728       -1.99          
117.2942      0.81728       -2.00          
117.8941      0.81726       -2.01          
118.4941      0.81726       -2.02          
119.0941      0.81724       -2.03          
119.6940      0.81721       -2.04          
120.2940      0.81718       -2.05          
120.8940      0.81719       -2.06          
121.4939      0.81718       -2.07          
122.0939      0.81718       -2.09          
122.6939      0.81716       -2.10          
123.2939      0.81716       -2.11          
123.8938      0.81712       -2.12          
124.4938      0.81722       -2.13          
125.0938      0.81716       -2.14          
125.6937      0.81717       -2.15          
126.2937      0.81718       -2.16          
126.8937      0.81715       -2.17          
127.4936      0.81721       -2.18          
128.0936      0.81721       -2.19          
128.6936      0.81722       -2.21          
129.2936      0.81719       -2.22          
129.8935      0.8172        -2.23          
130.4935      0.81719       -2.23          
131.0935      0.81721       -2.25          
131.6934      0.8172        -2.25          
132.2934      0.81721       -2.27          
132.8934      0.81714       -2.27          
133.4933      0.81713       -2.29          
134.0933      0.81716       -2.30          
134.6933      0.81714       -2.31          
135.2933      0.81713       -2.31          
135.8932      0.81709       -2.33          
136.4932      0.81708       -2.34          
137.0932      0.8171        -2.35          
137.6931      0.81711       -2.36          
138.2931      0.81709       -2.37          
138.8931      0.81712       -2.38          
139.4930      0.81711       -2.40          
140.0930      0.8171        -2.41          
140.6930      0.81703       -2.41          
141.2930      0.81707       -2.42          
141.8929      0.81707       -2.44          
142.4929      0.81709       -2.45          
143.0929      0.81708       -2.46          
143.6928      0.81704       -2.47          
144.2928      0.81701       -2.48          
144.8928      0.81701       -2.50          
145.4927      0.81704       -2.50          
146.0927      0.81699       -2.51          
146.6927      0.817         -2.53          
147.2927      0.817         -2.54          
147.8926      0.81707       -2.55          
148.4926      0.81706       -2.56          
149.0926      0.81708       -2.57          
149.6925      0.81709       -2.58          
150.2925      0.81704       -2.59          
150.8925      0.81707       -2.60          
151.4924      0.81708       -2.61          
152.0924      0.81706       -2.62          
152.6924      0.81708       -2.63          
153.2924      0.81702       -2.64          
153.8923      0.81707       -2.65          
154.4923      0.81702       -2.67          
155.0923      0.81704       -2.68          
155.6922      0.81707       -2.69          
156.2922      0.817         -2.70          
156.8922      0.81696       -2.71          
157.4921      0.817         -2.72          
158.0921      0.81702       -2.73          
158.6921      0.81699       -2.74          
159.2921      0.81698       -2.76          
159.8920      0.81702       -2.77          
160.4920      0.81699       -2.78          
161.0920      0.81699       -2.79          
161.6919      0.81707       -2.80          
162.2919      0.81707       -2.81          
162.8919      0.81708       -2.82          
163.4918      0.81704       -2.83          
164.0918      0.81707       -2.84          
164.6918      0.81706       -2.85          
165.2918      0.81701       -2.86          
165.8917      0.81707       -2.87          
166.4917      0.81703       -2.88          
167.0917      0.817         -2.90          
167.6916      0.81701       -2.90          
168.2916      0.817         -2.92          
168.8916      0.81697       -2.92          
169.4915      0.81697       -2.94          
170.0915      0.81699       -2.95          
170.6915      0.817         -2.96          
171.2915      0.81701       -2.97          
171.8914      0.81699       -2.98          
172.4914      0.8169        -2.99          
173.0914      0.81693       -3.00          
173.6913      0.81692       -3.01          
174.2913      0.81694       -3.02          
174.8913      0.81692       -3.03          
175.4912      0.81688       -3.04          
176.0912      0.81697       -3.05          
176.6912      0.81695       -3.07          
177.2912      0.81696       -3.08          
177.8911      0.81701       -3.08          
178.4911      0.81701       -3.10          
179.0911      0.81697       -3.11          
179.6910      0.81695       -3.12          
180.2910      0.81704       -3.13          
180.8910      0.81705       -3.14          
181.4909      0.81707       -3.15          
182.0909      0.81702       -3.16          
182.6909      0.81702       -3.17          
183.2909      0.817         -3.18          
183.8908      0.81701       -3.20          
184.4908      0.81698       -3.20          
185.0908      0.81692       -3.22          
185.6907      0.81688       -3.22          
186.2907      0.81692       -3.23          
186.8907      0.81696       -3.25          
187.4906      0.8169        -3.26          
188.0906      0.81691       -3.26          
188.6906      0.81691       -3.27          
189.2906      0.8169        -3.28          
189.8905      0.81689       -3.30          
190.4905      0.81692       -3.30          
191.0905      0.81688       -3.31          
191.6904      0.81692       -3.32          
192.2904      0.81691       -3.33          
192.8904      0.81693       -3.34          
193.4903      0.81697       -3.36          
194.0903      0.81697       -3.37          
194.6903      0.81698       -3.38          
195.2903      0.81699       -3.39          
195.8902      0.81695       -3.39          
196.4902      0.81699       -3.41          
197.0902      0.81694       -3.42          
197.6901      0.81694       -3.43          
198.2901      0.81691       -3.44          
198.8901      0.81696       -3.45          
199.4900      0.81694       -3.46          
200.0900      0.81687       -3.47          
200.6900      0.81691       -3.48          
201.2900      0.8169        -3.49          
201.8899      0.81685       -3.50          
202.4899      0.81685       -3.51          
203.0899      0.81686       -3.52          
203.6898      0.81688       -3.54          
204.2898      0.8169        -3.54          
204.8898      0.81687       -3.55          
205.4897      0.81685       -3.56          
206.0897      0.81682       -3.57          
206.6897      0.81685       -3.58          
207.2897      0.81692       -3.59          
207.8896      0.81689       -3.60          
208.4896      0.81689       -3.61          
209.0896      0.81702       -3.62          
209.6895      0.81699       -3.64          
210.2895      0.81698       -3.65          
210.8895      0.81698       -3.66          
211.4894      0.81699       -3.67          
212.0894      0.817         -3.68          
212.6894      0.81701       -3.69          
213.2894      0.81698       -3.70          
213.8893      0.81698       -3.71          
214.4893      0.81695       -3.72          
215.0893      0.81692       -3.73          
215.6892      0.81695       -3.74          
216.2892      0.81698       -3.75          
216.8892      0.81695       -3.76          
217.4891      0.81693       -3.77          
218.0891      0.81691       -3.78          
218.6891      0.81687       -3.79          
219.2891      0.81689       -3.80          
219.8890      0.81693       -3.81          
220.4890      0.81698       -3.82          
221.0890      0.81701       -3.83          
221.6889      0.81696       -3.84          
222.2889      0.817         -3.85          
222.8889      0.81694       -3.86          
223.4888      0.81697       -3.87          
224.0888      0.817         -3.88          
224.6888      0.81706       -3.89          
225.2888      0.81704       -3.91          
225.8887      0.81707       -3.91          
226.4887      0.81707       -3.93          
227.0887      0.81707       -3.93          
227.6886      0.8171        -3.95          
228.2886      0.81705       -3.95          
228.8886      0.81708       -3.96          
229.4885      0.81706       -3.97          
230.0885      0.81702       -3.98          
230.6885      0.81705       -3.99          
231.2885      0.81706       -4.00          
231.8884      0.81706       -4.01          
232.4884      0.81704       -4.02          
233.0884      0.81707       -4.03          
233.6883      0.81703       -4.04          
234.2883      0.81708       -4.05          
234.8883      0.81712       -4.07          
235.4882      0.81709       -4.08          
236.0882      0.81713       -4.08          
236.6882      0.81712       -4.10          
237.2882      0.81714       -4.10          
237.8881      0.81715       -4.12          
238.4881      0.81715       -4.13          
239.0881      0.81716       -4.14          
239.6880      0.81719       -4.16          
240.2880      0.81716       -4.17          
240.8880      0.81708       -4.18          
241.4879      0.81704       -4.20          
242.0879      0.81698       -4.21          
242.6879      0.81689       -4.22          
243.2879      0.81689       -4.22          
243.8878      0.8169        -4.23          
244.4878      0.81684       -4.24          
245.0878      0.81684       -4.24          
245.6877      0.81682       -4.25          
246.2877      0.81682       -4.26          
246.8877      0.81681       -4.27          
247.4876      0.81679       -4.27          
248.0876      0.81682       -4.29          
248.6876      0.81681       -4.30          
249.2876      0.81682       -4.31          
249.8875      0.8168        -4.32          
250.4875      0.81677       -4.33          
251.0875      0.81677       -4.34          
251.6874      0.8167        -4.35          
252.2874      0.81669       -4.36          
252.8874      0.81674       -4.37          
253.4873      0.81675       -4.38          
254.0873      0.81676       -4.39          
254.6873      0.81677       -4.40          
255.2873      0.81675       -4.41          
255.8872      0.8167        -4.42          
256.4872      0.81673       -4.43          
257.0872      0.81674       -4.44          
257.6871      0.81673       -4.44          
258.2871      0.81669       -4.45          
258.8871      0.81672       -4.46          
259.4870      0.81668       -4.47          
260.0870      0.81671       -4.48          
260.6870      0.8167        -4.49          
261.2870      0.81669       -4.50          
261.8869      0.81661       -4.51          
262.4869      0.81666       -4.52          
263.0869      0.81662       -4.53          
263.6868      0.81658       -4.54          
264.2868      0.81653       -4.54          
264.8868      0.81652       -4.56          
