!    3/12/2021   07:43:00 
! Ref Plane: 23.990 mm
# MHZ S MA R  50
!
0.3000        0.821         0.04           
0.9000        0.81756       0.07           
1.4999        0.81768       0.06           
2.0999        0.81771       0.04           
2.6999        0.81764       0.03           
3.2999        0.81769       0.02           
3.8998        0.81774       0.00           
4.4998        0.81775       -0.01          
5.0998        0.81773       -0.02          
5.6997        0.81778       -0.04          
6.2997        0.81785       -0.05          
6.8997        0.81781       -0.06          
7.4996        0.81778       -0.07          
8.0996        0.81779       -0.09          
8.6996        0.81779       -0.10          
9.2996        0.81782       -0.10          
9.8995        0.81783       -0.12          
10.4995       0.81779       -0.12          
11.0995       0.81784       -0.13          
11.6994       0.81787       -0.15          
12.2994       0.81785       -0.16          
12.8994       0.81786       -0.16          
13.4993       0.81785       -0.17          
14.0993       0.81784       -0.19          
14.6993       0.81779       -0.19          
15.2993       0.81778       -0.21          
15.8992       0.81783       -0.21          
16.4992       0.81779       -0.22          
17.0992       0.8178        -0.23          
17.6991       0.81782       -0.24          
18.2991       0.81779       -0.25          
18.8991       0.81783       -0.26          
19.4990       0.81783       -0.27          
20.0990       0.81784       -0.28          
20.6990       0.8178        -0.30          
21.2990       0.81782       -0.31          
21.8989       0.81788       -0.32          
22.4989       0.81785       -0.33          
23.0989       0.81792       -0.34          
23.6988       0.81787       -0.35          
24.2988       0.81786       -0.36          
24.8988       0.81786       -0.37          
25.4987       0.81794       -0.38          
26.0987       0.81787       -0.39          
26.6987       0.81788       -0.40          
27.2987       0.81789       -0.41          
27.8986       0.81791       -0.42          
28.4986       0.81792       -0.43          
29.0986       0.81794       -0.44          
29.6985       0.81794       -0.45          
30.2985       0.81795       -0.46          
30.8985       0.8179        -0.47          
31.4984       0.81785       -0.48          
32.0984       0.8179        -0.49          
32.6984       0.81794       -0.50          
33.2984       0.818         -0.51          
33.8983       0.81793       -0.51          
34.4983       0.81794       -0.53          
35.0983       0.81802       -0.53          
35.6982       0.81796       -0.54          
36.2982       0.81798       -0.55          
36.8982       0.81796       -0.56          
37.4981       0.818         -0.57          
38.0981       0.81795       -0.59          
38.6981       0.81802       -0.59          
39.2981       0.81802       -0.60          
39.8980       0.81802       -0.62          
40.4980       0.81798       -0.63          
41.0980       0.81799       -0.64          
41.6979       0.81799       -0.65          
42.2979       0.81799       -0.66          
42.8979       0.81799       -0.67          
43.4978       0.81799       -0.68          
44.0978       0.81804       -0.69          
44.6978       0.81806       -0.69          
45.2978       0.81807       -0.70          
45.8977       0.81801       -0.71          
46.4977       0.81801       -0.72          
47.0977       0.81805       -0.72          
47.6976       0.81802       -0.73          
48.2976       0.81803       -0.75          
48.8976       0.81802       -0.76          
49.4975       0.81806       -0.77          
50.0975       0.81805       -0.78          
50.6975       0.81805       -0.79          
51.2975       0.81806       -0.80          
51.8974       0.81814       -0.81          
52.4974       0.81809       -0.82          
53.0974       0.8181        -0.84          
53.6973       0.81816       -0.85          
54.2973       0.8181        -0.93          
54.8973       0.81807       -0.87          
55.4972       0.81807       -0.88          
56.0972       0.81811       -0.89          
56.6972       0.8181        -0.90          
57.2972       0.81809       -0.91          
57.8971       0.81813       -0.92          
58.4971       0.8181        -0.92          
59.0971       0.81812       -0.93          
59.6970       0.81813       -0.94          
60.2970       0.81812       -0.95          
60.8970       0.81818       -0.96          
61.4969       0.81815       -0.97          
62.0969       0.81812       -0.98          
62.6969       0.81812       -0.99          
63.2969       0.81809       -1.00          
63.8968       0.81813       -1.01          
64.4968       0.81817       -1.02          
65.0968       0.81816       -1.03          
65.6967       0.81819       -1.04          
66.2967       0.8182        -1.05          
66.8967       0.81815       -1.06          
67.4966       0.81816       -1.07          
68.0966       0.81817       -1.08          
68.6966       0.81817       -1.09          
69.2966       0.81814       -1.10          
69.8965       0.81814       -1.11          
70.4965       0.81817       -1.12          
71.0965       0.81818       -1.13          
71.6964       0.81822       -1.14          
72.2964       0.8182        -1.15          
72.8964       0.81816       -1.16          
73.4963       0.81815       -1.17          
74.0963       0.81819       -1.18          
74.6963       0.81822       -1.19          
75.2963       0.81813       -1.19          
75.8962       0.81817       -1.21          
76.4962       0.81819       -1.21          
77.0962       0.81819       -1.22          
77.6961       0.81817       -1.23          
78.2961       0.81818       -1.24          
78.8961       0.81812       -1.25          
79.4960       0.8182        -1.26          
80.0960       0.8182        -1.27          
80.6960       0.8182        -1.28          
81.2960       0.81822       -1.29          
81.8959       0.81822       -1.30          
82.4959       0.81819       -1.32          
83.0959       0.81824       -1.33          
83.6958       0.81822       -1.33          
84.2958       0.81817       -1.34          
84.8958       0.81812       -1.36          
85.4957       0.81817       -1.37          
86.0957       0.8182        -1.38          
86.6957       0.81815       -1.39          
87.2957       0.81812       -1.40          
87.8956       0.81815       -1.41          
88.4956       0.81813       -1.42          
89.0956       0.81815       -1.42          
89.6955       0.81818       -1.43          
90.2955       0.81815       -1.44          
90.8955       0.81813       -1.44          
91.4954       0.81806       -1.45          
92.0954       0.8181        -1.47          
92.6954       0.81812       -1.47          
93.2954       0.81821       -1.48          
93.8953       0.81819       -1.50          
94.4953       0.81825       -1.51          
95.0953       0.81822       -1.52          
95.6952       0.81823       -1.53          
96.2952       0.81832       -1.54          
96.8952       0.8182        -1.56          
97.4951       0.81827       -1.56          
98.0951       0.81821       -1.57          
98.6951       0.81823       -1.58          
99.2951       0.81825       -1.59          
99.8950       0.81831       -1.60          
100.4950      0.81824       -1.61          
101.0950      0.81825       -1.62          
101.6949      0.81818       -1.63          
102.2949      0.8182        -1.64          
102.8949      0.81817       -1.65          
103.4948      0.81814       -1.66          
104.0948      0.81813       -1.67          
104.6948      0.81809       -1.68          
105.2948      0.81817       -1.69          
105.8947      0.81815       -1.70          
106.4947      0.81812       -1.71          
107.0947      0.81808       -1.71          
107.6946      0.81812       -1.72          
108.2946      0.81809       -1.73          
108.8946      0.81812       -1.74          
109.4945      0.81814       -1.75          
110.0945      0.81816       -1.76          
110.6945      0.81818       -1.77          
111.2945      0.81821       -1.78          
111.8944      0.81821       -1.80          
112.4944      0.8182        -1.80          
113.0944      0.81821       -1.81          
113.6943      0.81827       -1.82          
114.2943      0.81828       -1.83          
114.8943      0.81816       -1.84          
115.4942      0.81829       -1.86          
116.0942      0.81823       -1.86          
116.6942      0.81824       -1.87          
117.2942      0.81822       -1.88          
117.8941      0.8182        -1.89          
118.4941      0.81823       -1.90          
119.0941      0.81819       -1.91          
119.6940      0.81814       -1.92          
120.2940      0.81817       -1.93          
120.8940      0.81812       -1.94          
121.4939      0.81811       -1.95          
122.0939      0.81811       -1.97          
122.6939      0.81815       -1.98          
123.2939      0.81817       -1.98          
123.8938      0.8181        -2.00          
124.4938      0.81816       -2.00          
125.0938      0.81811       -2.02          
125.6937      0.81812       -2.02          
126.2937      0.81813       -2.04          
126.8937      0.81812       -2.05          
127.4936      0.81817       -2.06          
128.0936      0.8182        -2.07          
128.6936      0.81819       -2.08          
129.2936      0.81817       -2.09          
129.8935      0.81818       -2.10          
130.4935      0.81821       -2.11          
131.0935      0.81822       -2.12          
131.6934      0.8182        -2.12          
132.2934      0.81819       -2.13          
132.8934      0.81816       -2.15          
133.4933      0.81815       -2.15          
134.0933      0.81816       -2.16          
134.6933      0.81816       -2.17          
135.2933      0.81818       -2.18          
135.8932      0.81812       -2.19          
136.4932      0.81811       -2.20          
137.0932      0.81815       -2.21          
137.6931      0.81812       -2.23          
138.2931      0.81815       -2.24          
138.8931      0.81817       -2.25          
139.4930      0.81817       -2.26          
140.0930      0.81815       -2.27          
140.6930      0.81811       -2.28          
141.2930      0.81815       -2.29          
141.8929      0.81811       -2.30          
142.4929      0.81813       -2.31          
143.0929      0.81817       -2.32          
143.6928      0.8181        -2.33          
144.2928      0.81812       -2.34          
144.8928      0.81808       -2.35          
145.4927      0.8181        -2.36          
146.0927      0.81806       -2.37          
146.6927      0.81813       -2.38          
147.2927      0.81812       -2.39          
147.8926      0.81815       -2.40          
148.4926      0.81812       -2.41          
149.0926      0.81814       -2.42          
149.6925      0.81816       -2.43          
150.2925      0.81816       -2.44          
150.8925      0.81817       -2.45          
151.4924      0.81815       -2.46          
152.0924      0.81814       -2.47          
152.6924      0.81814       -2.48          
153.2924      0.81811       -2.49          
153.8923      0.81816       -2.50          
154.4923      0.81814       -2.52          
155.0923      0.81815       -2.52          
155.6922      0.81814       -2.54          
156.2922      0.81808       -2.55          
156.8922      0.81806       -2.56          
157.4921      0.81811       -2.57          
158.0921      0.81813       -2.58          
158.6921      0.81814       -2.59          
159.2921      0.81807       -2.60          
159.8920      0.8181        -2.61          
160.4920      0.81811       -2.62          
161.0920      0.81814       -2.63          
161.6919      0.81817       -2.65          
162.2919      0.81814       -2.66          
162.8919      0.81824       -2.66          
163.4918      0.81815       -2.67          
164.0918      0.81822       -2.68          
164.6918      0.8182        -2.69          
165.2918      0.81818       -2.70          
165.8917      0.81821       -2.71          
166.4917      0.81815       -2.72          
167.0917      0.81821       -2.73          
167.6916      0.81817       -2.74          
168.2916      0.81812       -2.75          
168.8916      0.81813       -2.76          
169.4915      0.81816       -2.77          
170.0915      0.81817       -2.78          
170.6915      0.81816       -2.79          
171.2915      0.81814       -2.80          
171.8914      0.81816       -2.81          
172.4914      0.81809       -2.82          
173.0914      0.81806       -2.83          
173.6913      0.81811       -2.84          
174.2913      0.81811       -2.85          
174.8913      0.81808       -2.86          
175.4912      0.81809       -2.87          
176.0912      0.81812       -2.88          
176.6912      0.81815       -2.89          
177.2912      0.81816       -2.90          
177.8911      0.81821       -2.91          
178.4911      0.81815       -2.92          
179.0911      0.81818       -2.94          
179.6910      0.8182        -2.95          
180.2910      0.81822       -2.95          
180.8910      0.81828       -2.97          
181.4909      0.81827       -2.98          
182.0909      0.81829       -2.99          
182.6909      0.8182        -3.00          
183.2909      0.81825       -3.01          
183.8908      0.81823       -3.02          
184.4908      0.81823       -3.03          
185.0908      0.81817       -3.04          
185.6907      0.81815       -3.05          
186.2907      0.81812       -3.06          
186.8907      0.81815       -3.07          
187.4906      0.81812       -3.08          
188.0906      0.81817       -3.08          
188.6906      0.81818       -3.09          
189.2906      0.81814       -3.10          
189.8905      0.81815       -3.12          
190.4905      0.81814       -3.13          
191.0905      0.81816       -3.13          
191.6904      0.81816       -3.14          
192.2904      0.81818       -3.15          
192.8904      0.81823       -3.16          
193.4903      0.81823       -3.17          
194.0903      0.81827       -3.18          
194.6903      0.81825       -3.19          
195.2903      0.81826       -3.20          
195.8902      0.81826       -3.21          
196.4902      0.81827       -3.22          
197.0902      0.8182        -3.23          
197.6901      0.81823       -3.24          
198.2901      0.81819       -3.25          
198.8901      0.81826       -3.26          
199.4900      0.81822       -3.27          
200.0900      0.81815       -3.28          
200.6900      0.8182        -3.29          
201.2900      0.81819       -3.30          
201.8899      0.81819       -3.31          
202.4899      0.81818       -3.32          
203.0899      0.81817       -3.33          
203.6898      0.81818       -3.35          
204.2898      0.81821       -3.35          
204.8898      0.81821       -3.36          
205.4897      0.81817       -3.37          
206.0897      0.81816       -3.38          
206.6897      0.8182        -3.39          
207.2897      0.81819       -3.40          
207.8896      0.81824       -3.41          
208.4896      0.81822       -3.42          
209.0896      0.81829       -3.43          
209.6895      0.81836       -3.45          
210.2895      0.81826       -3.45          
210.8895      0.81835       -3.46          
211.4894      0.81838       -3.47          
212.0894      0.81831       -3.48          
212.6894      0.81833       -3.49          
213.2894      0.81833       -3.50          
213.8893      0.81836       -3.51          
214.4893      0.81826       -3.52          
215.0893      0.8183        -3.53          
215.6892      0.81835       -3.54          
216.2892      0.81834       -3.55          
216.8892      0.81832       -3.56          
217.4891      0.81826       -3.57          
218.0891      0.81834       -3.59          
218.6891      0.81829       -3.59          
219.2891      0.81831       -3.60          
219.8890      0.81832       -3.61          
220.4890      0.81838       -3.62          
221.0890      0.81836       -3.63          
221.6889      0.81835       -3.64          
222.2889      0.81842       -3.65          
222.8889      0.8184        -3.66          
223.4888      0.81838       -3.67          
224.0888      0.81843       -3.68          
224.6888      0.81848       -3.69          
225.2888      0.81842       -3.70          
225.8887      0.81849       -3.71          
226.4887      0.8185        -3.72          
227.0887      0.81847       -3.73          
227.6886      0.81852       -3.74          
228.2886      0.81851       -3.75          
228.8886      0.8185        -3.76          
229.4885      0.81851       -3.77          
230.0885      0.81849       -3.77          
230.6885      0.81848       -3.78          
231.2885      0.81848       -3.79          
231.8884      0.81849       -3.80          
232.4884      0.8185        -3.81          
233.0884      0.81848       -3.82          
233.6883      0.81848       -3.83          
234.2883      0.81853       -3.84          
234.8883      0.81856       -3.86          
235.4882      0.81853       -3.87          
236.0882      0.81857       -3.87          
236.6882      0.8186        -3.88          
237.2882      0.81861       -3.89          
237.8881      0.81861       -3.90          
238.4881      0.81858       -3.91          
239.0881      0.81861       -3.92          
239.6880      0.81861       -3.94          
240.2880      0.81863       -3.95          
240.8880      0.8186        -3.96          
241.4879      0.81857       -3.98          
242.0879      0.81854       -3.99          
242.6879      0.81845       -4.00          
243.2879      0.81841       -4.01          
243.8878      0.81839       -4.02          
244.4878      0.81837       -4.02          
245.0878      0.81834       -4.03          
245.6877      0.81832       -4.04          
246.2877      0.8183        -4.05          
246.8877      0.81833       -4.05          
247.4876      0.81829       -4.06          
248.0876      0.81833       -4.07          
248.6876      0.81832       -4.08          
249.2876      0.81829       -4.09          
249.8875      0.81828       -4.10          
250.4875      0.81822       -4.11          
251.0875      0.81826       -4.12          
251.6874      0.8182        -4.13          
252.2874      0.8182        -4.14          
252.8874      0.81825       -4.15          
253.4873      0.81826       -4.16          
254.0873      0.81828       -4.17          
254.6873      0.81825       -4.17          
255.2873      0.81822       -4.18          
255.8872      0.81823       -4.19          
256.4872      0.81821       -4.20          
257.0872      0.81827       -4.21          
257.6871      0.81828       -4.22          
258.2871      0.81823       -4.23          
258.8871      0.81821       -4.24          
259.4870      0.8182        -4.25          
260.0870      0.81827       -4.25          
260.6870      0.81823       -4.26          
261.2870      0.81821       -4.27          
261.8869      0.8182        -4.28          
262.4869      0.8182        -4.29          
263.0869      0.81822       -4.30          
263.6868      0.81815       -4.31          
264.2868      0.81815       -4.32          
264.8868      0.81816       -4.33          
