!    3/12/2021   06:33:53 
! Ref Plane: 23.990 mm
# MHZ S MA R  50
!
0.3000        0.82032       0.06           
0.9000        0.81699       0.04           
1.4999        0.81714       0.02           
2.0999        0.81721       0.01           
2.6999        0.81725       0.00           
3.2999        0.8173        0.00           
3.8998        0.81735       -0.02          
4.4998        0.81737       -0.03          
5.0998        0.81741       -0.03          
5.6997        0.81752       -0.04          
6.2997        0.81752       -0.06          
6.8997        0.81753       -0.06          
7.4996        0.81753       -0.07          
8.0996        0.81754       -0.08          
8.6996        0.81753       -0.09          
9.2996        0.81761       -0.10          
9.8995        0.81764       -0.10          
10.4995       0.81758       -0.11          
11.0995       0.81761       -0.11          
11.6994       0.81762       -0.13          
12.2994       0.81764       -0.13          
12.8994       0.8177        -0.14          
13.4993       0.81765       -0.15          
14.0993       0.81767       -0.15          
14.6993       0.81764       -0.16          
15.2993       0.8176        -0.17          
15.8992       0.81766       -0.18          
16.4992       0.8177        -0.18          
17.0992       0.81767       -0.19          
17.6991       0.81765       -0.20          
18.2991       0.81765       -0.21          
18.8991       0.81772       -0.22          
19.4990       0.81769       -0.23          
20.0990       0.81775       -0.24          
20.6990       0.81768       -0.24          
21.2990       0.81771       -0.25          
21.8989       0.81774       -0.26          
22.4989       0.81774       -0.27          
23.0989       0.81781       -0.28          
23.6988       0.81774       -0.29          
24.2988       0.8178        -0.29          
24.8988       0.8178        -0.30          
25.4987       0.81777       -0.31          
26.0987       0.81777       -0.32          
26.6987       0.81784       -0.33          
27.2987       0.81784       -0.34          
27.8986       0.81789       -0.34          
28.4986       0.81789       -0.35          
29.0986       0.81795       -0.36          
29.6985       0.81788       -0.36          
30.2985       0.8179        -0.37          
30.8985       0.81786       -0.37          
31.4984       0.81784       -0.38          
32.0984       0.81791       -0.39          
32.6984       0.81796       -0.40          
33.2984       0.81801       -0.41          
33.8983       0.81795       -0.41          
34.4983       0.81797       -0.43          
35.0983       0.81796       -0.43          
35.6982       0.81803       -0.44          
36.2982       0.81798       -0.45          
36.8982       0.81794       -0.45          
37.4981       0.81804       -0.46          
38.0981       0.81804       -0.47          
38.6981       0.81802       -0.48          
39.2981       0.81804       -0.48          
39.8980       0.81805       -0.50          
40.4980       0.81805       -0.51          
41.0980       0.81807       -0.51          
41.6979       0.81808       -0.52          
42.2979       0.81803       -0.53          
42.8979       0.81808       -0.54          
43.4978       0.81804       -0.55          
44.0978       0.81808       -0.55          
44.6978       0.81813       -0.56          
45.2978       0.81815       -0.57          
45.8977       0.81811       -0.57          
46.4977       0.81807       -0.58          
47.0977       0.8182        -0.58          
47.6976       0.81817       -0.59          
48.2976       0.81814       -0.60          
48.8976       0.81817       -0.61          
49.4975       0.81823       -0.62          
50.0975       0.81819       -0.63          
50.6975       0.81824       -0.63          
51.2975       0.81825       -0.65          
51.8974       0.81825       -0.66          
52.4974       0.81831       -0.67          
53.0974       0.81831       -0.68          
53.6973       0.8183        -0.69          
54.2973       0.81829       -0.82          
54.8973       0.81824       -0.71          
55.4972       0.81822       -0.71          
56.0972       0.81826       -0.72          
56.6972       0.81822       -0.73          
57.2972       0.81824       -0.74          
57.8971       0.81828       -0.74          
58.4971       0.81831       -0.75          
59.0971       0.81832       -0.76          
59.6970       0.81833       -0.76          
60.2970       0.81834       -0.77          
60.8970       0.81837       -0.77          
61.4969       0.81835       -0.78          
62.0969       0.81832       -0.79          
62.6969       0.81836       -0.81          
63.2969       0.81835       -0.81          
63.8968       0.81837       -0.82          
64.4968       0.81842       -0.83          
65.0968       0.8184        -0.83          
65.6967       0.81842       -0.84          
66.2967       0.81841       -0.85          
66.8967       0.81839       -0.86          
67.4966       0.81844       -0.87          
68.0966       0.81842       -0.87          
68.6966       0.81838       -0.88          
69.2966       0.81839       -0.89          
69.8965       0.81844       -0.90          
70.4965       0.81841       -0.91          
71.0965       0.81842       -0.92          
71.6964       0.81846       -0.93          
72.2964       0.81846       -0.94          
72.8964       0.81847       -0.94          
73.4963       0.81845       -0.95          
74.0963       0.81849       -0.96          
74.6963       0.8185        -0.96          
75.2963       0.81849       -0.97          
75.8962       0.81843       -0.98          
76.4962       0.81847       -0.99          
77.0962       0.81849       -0.99          
77.6961       0.81845       -1.00          
78.2961       0.81847       -1.01          
78.8961       0.81842       -1.02          
79.4960       0.81846       -1.03          
80.0960       0.81848       -1.04          
80.6960       0.81855       -1.04          
81.2960       0.81851       -1.05          
81.8959       0.81853       -1.06          
82.4959       0.81851       -1.07          
83.0959       0.81857       -1.08          
83.6958       0.81852       -1.09          
84.2958       0.8185        -1.10          
84.8958       0.81846       -1.11          
85.4957       0.81851       -1.12          
86.0957       0.81852       -1.13          
86.6957       0.81853       -1.14          
87.2957       0.81846       -1.15          
87.8956       0.81852       -1.15          
88.4956       0.81847       -1.16          
89.0956       0.81853       -1.16          
89.6955       0.81853       -1.17          
90.2955       0.81852       -1.18          
90.8955       0.8185        -1.18          
91.4954       0.81848       -1.19          
92.0954       0.8184        -1.20          
92.6954       0.81844       -1.21          
93.2954       0.81851       -1.22          
93.8953       0.81859       -1.24          
94.4953       0.8186        -1.25          
95.0953       0.81854       -1.25          
95.6952       0.81858       -1.25          
96.2952       0.81864       -1.26          
96.8952       0.81861       -1.27          
97.4951       0.81863       -1.28          
98.0951       0.81864       -1.29          
98.6951       0.81863       -1.30          
99.2951       0.81864       -1.30          
99.8950       0.81873       -1.31          
100.4950      0.81862       -1.32          
101.0950      0.81866       -1.33          
101.6949      0.81861       -1.34          
102.2949      0.81866       -1.34          
102.8949      0.81859       -1.35          
103.4948      0.81854       -1.36          
104.0948      0.81855       -1.37          
104.6948      0.81857       -1.38          
105.2948      0.81859       -1.39          
105.8947      0.8186        -1.40          
106.4947      0.81859       -1.40          
107.0947      0.81853       -1.41          
107.6946      0.81852       -1.42          
108.2946      0.81856       -1.42          
108.8946      0.81859       -1.43          
109.4945      0.81859       -1.44          
110.0945      0.81862       -1.45          
110.6945      0.81865       -1.46          
111.2945      0.81866       -1.47          
111.8944      0.81871       -1.47          
112.4944      0.81868       -1.48          
113.0944      0.81869       -1.49          
113.6943      0.81873       -1.50          
114.2943      0.81874       -1.51          
114.8943      0.81872       -1.52          
115.4942      0.81875       -1.53          
116.0942      0.81872       -1.53          
116.6942      0.81874       -1.54          
117.2942      0.81872       -1.55          
117.8941      0.81874       -1.56          
118.4941      0.81869       -1.57          
119.0941      0.81869       -1.57          
119.6940      0.81864       -1.58          
120.2940      0.81868       -1.59          
120.8940      0.81867       -1.60          
121.4939      0.81867       -1.61          
122.0939      0.81866       -1.62          
122.6939      0.81865       -1.63          
123.2939      0.81869       -1.64          
123.8938      0.81865       -1.64          
124.4938      0.81872       -1.65          
125.0938      0.81867       -1.66          
125.6937      0.81872       -1.67          
126.2937      0.81873       -1.68          
126.8937      0.81871       -1.69          
127.4936      0.81871       -1.70          
128.0936      0.81874       -1.71          
128.6936      0.81876       -1.72          
129.2936      0.81872       -1.73          
129.8935      0.81871       -1.73          
130.4935      0.81874       -1.74          
131.0935      0.8188        -1.75          
131.6934      0.81879       -1.75          
132.2934      0.8188        -1.76          
132.8934      0.81875       -1.77          
133.4933      0.81871       -1.78          
134.0933      0.81873       -1.79          
134.6933      0.81873       -1.80          
135.2933      0.81874       -1.80          
135.8932      0.81872       -1.81          
136.4932      0.8187        -1.82          
137.0932      0.81875       -1.83          
137.6931      0.81875       -1.84          
138.2931      0.81877       -1.85          
138.8931      0.81876       -1.86          
139.4930      0.81878       -1.87          
140.0930      0.81873       -1.88          
140.6930      0.81873       -1.88          
141.2930      0.81873       -1.89          
141.8929      0.81876       -1.90          
142.4929      0.81878       -1.91          
143.0929      0.81877       -1.92          
143.6928      0.81875       -1.93          
144.2928      0.81877       -1.94          
144.8928      0.81873       -1.95          
145.4927      0.81872       -1.95          
146.0927      0.81873       -1.96          
146.6927      0.81875       -1.97          
147.2927      0.81876       -1.98          
147.8926      0.8188        -1.99          
148.4926      0.81878       -2.00          
149.0926      0.81882       -2.01          
149.6925      0.81882       -2.01          
150.2925      0.81881       -2.03          
150.8925      0.8188        -2.03          
151.4924      0.81883       -2.04          
152.0924      0.81883       -2.05          
152.6924      0.81886       -2.06          
153.2924      0.81882       -2.07          
153.8923      0.81886       -2.08          
154.4923      0.81883       -2.09          
155.0923      0.81884       -2.10          
155.6922      0.81883       -2.11          
156.2922      0.81882       -2.12          
156.8922      0.81882       -2.13          
157.4921      0.81877       -2.13          
158.0921      0.81885       -2.14          
158.6921      0.81884       -2.15          
159.2921      0.81882       -2.16          
159.8920      0.81885       -2.17          
160.4920      0.81886       -2.18          
161.0920      0.81888       -2.19          
161.6919      0.81895       -2.20          
162.2919      0.81896       -2.21          
162.8919      0.81896       -2.22          
163.4918      0.81897       -2.22          
164.0918      0.81899       -2.23          
164.6918      0.81899       -2.24          
165.2918      0.81894       -2.24          
165.8917      0.81893       -2.25          
166.4917      0.81894       -2.26          
167.0917      0.81897       -2.27          
167.6916      0.81895       -2.28          
168.2916      0.81893       -2.29          
168.8916      0.81887       -2.30          
169.4915      0.81892       -2.30          
170.0915      0.81889       -2.32          
170.6915      0.81892       -2.32          
171.2915      0.81892       -2.33          
171.8914      0.81895       -2.34          
172.4914      0.81889       -2.35          
173.0914      0.8189        -2.36          
173.6913      0.81894       -2.37          
174.2913      0.81891       -2.37          
174.8913      0.81889       -2.38          
175.4912      0.81889       -2.39          
176.0912      0.81893       -2.40          
176.6912      0.81897       -2.41          
177.2912      0.81901       -2.42          
177.8911      0.81899       -2.43          
178.4911      0.81896       -2.44          
179.0911      0.81903       -2.45          
179.6910      0.81905       -2.45          
180.2910      0.81904       -2.46          
180.8910      0.81907       -2.47          
181.4909      0.81906       -2.48          
182.0909      0.81906       -2.49          
182.6909      0.81908       -2.50          
183.2909      0.81909       -2.51          
183.8908      0.81907       -2.52          
184.4908      0.81907       -2.52          
185.0908      0.819         -2.53          
185.6907      0.81902       -2.54          
186.2907      0.81901       -2.55          
186.8907      0.81906       -2.56          
187.4906      0.819         -2.57          
188.0906      0.81902       -2.57          
188.6906      0.81904       -2.58          
189.2906      0.81903       -2.59          
189.8905      0.81903       -2.60          
190.4905      0.81905       -2.61          
191.0905      0.81905       -2.61          
191.6904      0.81906       -2.62          
192.2904      0.81904       -2.63          
192.8904      0.81904       -2.64          
193.4903      0.81912       -2.65          
194.0903      0.81914       -2.65          
194.6903      0.81917       -2.66          
195.2903      0.81913       -2.67          
195.8902      0.81914       -2.68          
196.4902      0.81913       -2.69          
197.0902      0.81911       -2.70          
197.6901      0.81912       -2.71          
198.2901      0.81914       -2.72          
198.8901      0.81915       -2.72          
199.4900      0.81913       -2.73          
200.0900      0.8191        -2.74          
200.6900      0.81916       -2.75          
201.2900      0.81912       -2.76          
201.8899      0.81908       -2.77          
202.4899      0.81908       -2.78          
203.0899      0.81909       -2.79          
203.6898      0.8191        -2.80          
204.2898      0.81911       -2.80          
204.8898      0.81915       -2.81          
205.4897      0.81912       -2.82          
206.0897      0.81907       -2.82          
206.6897      0.81908       -2.83          
207.2897      0.81914       -2.84          
207.8896      0.81914       -2.85          
208.4896      0.81919       -2.86          
209.0896      0.81926       -2.87          
209.6895      0.81931       -2.88          
210.2895      0.81925       -2.89          
210.8895      0.8193        -2.89          
211.4894      0.81931       -2.91          
212.0894      0.81927       -2.91          
212.6894      0.81932       -2.92          
213.2894      0.81928       -2.93          
213.8893      0.8193        -2.94          
214.4893      0.81928       -2.95          
215.0893      0.81929       -2.95          
215.6892      0.81933       -2.96          
216.2892      0.81932       -2.97          
216.8892      0.81931       -2.98          
217.4891      0.81929       -2.99          
218.0891      0.81931       -3.00          
218.6891      0.81927       -3.01          
219.2891      0.81925       -3.02          
219.8890      0.81932       -3.02          
220.4890      0.81933       -3.03          
221.0890      0.81935       -3.04          
221.6889      0.81934       -3.05          
222.2889      0.81938       -3.06          
222.8889      0.81934       -3.06          
223.4888      0.81941       -3.07          
224.0888      0.81941       -3.08          
224.6888      0.81946       -3.09          
225.2888      0.81947       -3.10          
225.8887      0.81952       -3.11          
226.4887      0.81953       -3.12          
227.0887      0.8195        -3.12          
227.6886      0.81955       -3.13          
228.2886      0.8195        -3.14          
228.8886      0.81951       -3.15          
229.4885      0.81951       -3.15          
230.0885      0.81948       -3.16          
230.6885      0.81945       -3.17          
231.2885      0.81952       -3.18          
231.8884      0.81952       -3.19          
232.4884      0.81947       -3.20          
233.0884      0.81953       -3.21          
233.6883      0.8195        -3.22          
234.2883      0.81957       -3.22          
234.8883      0.81958       -3.23          
235.4882      0.81958       -3.24          
236.0882      0.81959       -3.25          
236.6882      0.81961       -3.25          
237.2882      0.81962       -3.26          
237.8881      0.8196        -3.27          
238.4881      0.81961       -3.28          
239.0881      0.81964       -3.29          
239.6880      0.81964       -3.30          
240.2880      0.81969       -3.31          
240.8880      0.8197        -3.32          
241.4879      0.81973       -3.33          
242.0879      0.81974       -3.34          
242.6879      0.81969       -3.36          
243.2879      0.81971       -3.37          
243.8878      0.81969       -3.38          
244.4878      0.8196        -3.39          
245.0878      0.81951       -3.39          
245.6877      0.81943       -3.40          
246.2877      0.81943       -3.40          
246.8877      0.81939       -3.41          
247.4876      0.81937       -3.41          
248.0876      0.8194        -3.42          
248.6876      0.81939       -3.43          
249.2876      0.81941       -3.44          
249.8875      0.8194        -3.45          
250.4875      0.81934       -3.45          
251.0875      0.81937       -3.46          
251.6874      0.81932       -3.47          
252.2874      0.81932       -3.48          
252.8874      0.81937       -3.48          
253.4873      0.81935       -3.49          
254.0873      0.81939       -3.50          
254.6873      0.81938       -3.51          
255.2873      0.81939       -3.51          
255.8872      0.8193        -3.53          
256.4872      0.81936       -3.53          
257.0872      0.81938       -3.54          
257.6871      0.81937       -3.55          
258.2871      0.81934       -3.56          
258.8871      0.81936       -3.56          
259.4870      0.81933       -3.57          
260.0870      0.81938       -3.57          
260.6870      0.81939       -3.58          
261.2870      0.81937       -3.59          
261.8869      0.8193        -3.60          
262.4869      0.81931       -3.61          
263.0869      0.81925       -3.61          
263.6868      0.81925       -3.62          
264.2868      0.81923       -3.63          
264.8868      0.81921       -3.64          
