!    3/12/2021   10:25:04 
! Ref Plane: 23.990 mm
# MHZ S MA R  50
!
0.3000        0.81994       0.01           
0.9000        0.81699       0.02           
1.4999        0.81706       -0.01          
2.0999        0.81721       -0.02          
2.6999        0.81725       -0.02          
3.2999        0.81726       -0.03          
3.8998        0.81738       -0.04          
4.4998        0.81741       -0.06          
5.0998        0.8174        -0.06          
5.6997        0.81753       -0.07          
6.2997        0.81751       -0.08          
6.8997        0.81754       -0.09          
7.4996        0.81755       -0.10          
8.0996        0.81753       -0.10          
8.6996        0.81756       -0.11          
9.2996        0.81761       -0.12          
9.8995        0.81759       -0.13          
10.4995       0.81758       -0.14          
11.0995       0.81763       -0.14          
11.6994       0.81766       -0.15          
12.2994       0.81765       -0.16          
12.8994       0.81773       -0.16          
13.4993       0.81769       -0.17          
14.0993       0.81767       -0.18          
14.6993       0.81767       -0.18          
15.2993       0.81763       -0.19          
15.8992       0.81765       -0.20          
16.4992       0.81769       -0.20          
17.0992       0.8177        -0.21          
17.6991       0.81768       -0.22          
18.2991       0.81766       -0.23          
18.8991       0.81768       -0.24          
19.4990       0.81772       -0.24          
20.0990       0.81774       -0.25          
20.6990       0.81771       -0.26          
21.2990       0.81772       -0.27          
21.8989       0.8177        -0.28          
22.4989       0.81778       -0.28          
23.0989       0.8178        -0.29          
23.6988       0.81776       -0.30          
24.2988       0.8178        -0.31          
24.8988       0.81776       -0.32          
25.4987       0.81784       -0.32          
26.0987       0.81775       -0.33          
26.6987       0.81785       -0.34          
27.2987       0.81782       -0.35          
27.8986       0.81786       -0.36          
28.4986       0.81783       -0.36          
29.0986       0.81791       -0.37          
29.6985       0.81782       -0.38          
30.2985       0.81793       -0.38          
30.8985       0.81787       -0.39          
31.4984       0.81781       -0.40          
32.0984       0.81786       -0.40          
32.6984       0.81789       -0.41          
33.2984       0.81797       -0.42          
33.8983       0.81791       -0.42          
34.4983       0.8179        -0.43          
35.0983       0.81797       -0.43          
35.6982       0.81798       -0.45          
36.2982       0.81795       -0.45          
36.8982       0.81796       -0.46          
37.4981       0.81799       -0.47          
38.0981       0.81796       -0.48          
38.6981       0.81799       -0.49          
39.2981       0.81797       -0.49          
39.8980       0.81801       -0.50          
40.4980       0.81798       -0.51          
41.0980       0.81802       -0.52          
41.6979       0.81804       -0.53          
42.2979       0.818         -0.53          
42.8979       0.81804       -0.54          
43.4978       0.81802       -0.55          
44.0978       0.81804       -0.56          
44.6978       0.81804       -0.56          
45.2978       0.81806       -0.57          
45.8977       0.81805       -0.58          
46.4977       0.81807       -0.58          
47.0977       0.81812       -0.58          
47.6976       0.8181        -0.59          
48.2976       0.81811       -0.59          
48.8976       0.81811       -0.61          
49.4975       0.81808       -0.62          
50.0975       0.81809       -0.63          
50.6975       0.8182        -0.63          
51.2975       0.81814       -0.64          
51.8974       0.81817       -0.66          
52.4974       0.81822       -0.66          
53.0974       0.81821       -0.68          
53.6973       0.81824       -0.69          
54.2973       0.81824       -0.82          
54.8973       0.81814       -0.72          
55.4972       0.81816       -0.71          
56.0972       0.81819       -0.72          
56.6972       0.81818       -0.72          
57.2972       0.81817       -0.73          
57.8971       0.81821       -0.74          
58.4971       0.81822       -0.75          
59.0971       0.81823       -0.75          
59.6970       0.81823       -0.76          
60.2970       0.81822       -0.76          
60.8970       0.81827       -0.77          
61.4969       0.81824       -0.78          
62.0969       0.8182        -0.78          
62.6969       0.81826       -0.80          
63.2969       0.81822       -0.80          
63.8968       0.81824       -0.81          
64.4968       0.81827       -0.82          
65.0968       0.81826       -0.83          
65.6967       0.8183        -0.83          
66.2967       0.8183        -0.84          
66.8967       0.81828       -0.85          
67.4966       0.81829       -0.86          
68.0966       0.81826       -0.87          
68.6966       0.81827       -0.87          
69.2966       0.81827       -0.88          
69.8965       0.81826       -0.89          
70.4965       0.81826       -0.90          
71.0965       0.81827       -0.91          
71.6964       0.81829       -0.91          
72.2964       0.81833       -0.92          
72.8964       0.81829       -0.93          
73.4963       0.8183        -0.94          
74.0963       0.81833       -0.94          
74.6963       0.81833       -0.95          
75.2963       0.81829       -0.96          
75.8962       0.81829       -0.97          
76.4962       0.81834       -0.97          
77.0962       0.81832       -0.98          
77.6961       0.81831       -0.99          
78.2961       0.8183        -1.00          
78.8961       0.81824       -1.00          
79.4960       0.8183        -1.01          
80.0960       0.81832       -1.02          
80.6960       0.81833       -1.03          
81.2960       0.81835       -1.04          
81.8959       0.81834       -1.04          
82.4959       0.81833       -1.05          
83.0959       0.81839       -1.06          
83.6958       0.81839       -1.07          
84.2958       0.81831       -1.08          
84.8958       0.81826       -1.09          
85.4957       0.81832       -1.10          
86.0957       0.81829       -1.11          
86.6957       0.81832       -1.12          
87.2957       0.81822       -1.13          
87.8956       0.81833       -1.13          
88.4956       0.81825       -1.14          
89.0956       0.81837       -1.15          
89.6955       0.81829       -1.15          
90.2955       0.81834       -1.16          
90.8955       0.81831       -1.16          
91.4954       0.81829       -1.17          
92.0954       0.8182        -1.18          
92.6954       0.81823       -1.19          
93.2954       0.81832       -1.20          
93.8953       0.81835       -1.22          
94.4953       0.81837       -1.22          
95.0953       0.81835       -1.23          
95.6952       0.81837       -1.23          
96.2952       0.81841       -1.24          
96.8952       0.81837       -1.25          
97.4951       0.81842       -1.26          
98.0951       0.81839       -1.26          
98.6951       0.8184        -1.27          
99.2951       0.81844       -1.28          
99.8950       0.81851       -1.29          
100.4950      0.81844       -1.30          
101.0950      0.81841       -1.30          
101.6949      0.81839       -1.32          
102.2949      0.81837       -1.32          
102.8949      0.81834       -1.33          
103.4948      0.8183        -1.34          
104.0948      0.81831       -1.35          
104.6948      0.81828       -1.36          
105.2948      0.81831       -1.36          
105.8947      0.81837       -1.37          
106.4947      0.81835       -1.37          
107.0947      0.81835       -1.38          
107.6946      0.81828       -1.39          
108.2946      0.81829       -1.40          
108.8946      0.81834       -1.41          
109.4945      0.81834       -1.42          
110.0945      0.81839       -1.42          
110.6945      0.81837       -1.43          
111.2945      0.81839       -1.44          
111.8944      0.81847       -1.45          
112.4944      0.81842       -1.45          
113.0944      0.81844       -1.46          
113.6943      0.81848       -1.47          
114.2943      0.81847       -1.48          
114.8943      0.81844       -1.49          
115.4942      0.81851       -1.50          
116.0942      0.81846       -1.50          
116.6942      0.81844       -1.51          
117.2942      0.81847       -1.52          
117.8941      0.81846       -1.53          
118.4941      0.81843       -1.54          
119.0941      0.81841       -1.54          
119.6940      0.81839       -1.55          
120.2940      0.81842       -1.56          
120.8940      0.81838       -1.57          
121.4939      0.8184        -1.57          
122.0939      0.81836       -1.58          
122.6939      0.8184        -1.59          
123.2939      0.81841       -1.60          
123.8938      0.81839       -1.61          
124.4938      0.81843       -1.62          
125.0938      0.8184        -1.63          
125.6937      0.81844       -1.64          
126.2937      0.81844       -1.64          
126.8937      0.81843       -1.65          
127.4936      0.81846       -1.66          
128.0936      0.81845       -1.67          
128.6936      0.81847       -1.68          
129.2936      0.81843       -1.69          
129.8935      0.81844       -1.70          
130.4935      0.81848       -1.70          
131.0935      0.81848       -1.71          
131.6934      0.81848       -1.72          
132.2934      0.81852       -1.72          
132.8934      0.81844       -1.73          
133.4933      0.81842       -1.74          
134.0933      0.81841       -1.75          
134.6933      0.81844       -1.76          
135.2933      0.81845       -1.76          
135.8932      0.81841       -1.77          
136.4932      0.81843       -1.78          
137.0932      0.81844       -1.79          
137.6931      0.81841       -1.80          
138.2931      0.81845       -1.81          
138.8931      0.81843       -1.81          
139.4930      0.81849       -1.83          
140.0930      0.8184        -1.83          
140.6930      0.81841       -1.84          
141.2930      0.81843       -1.84          
141.8929      0.81846       -1.86          
142.4929      0.81845       -1.86          
143.0929      0.81839       -1.87          
143.6928      0.81842       -1.88          
144.2928      0.81843       -1.89          
144.8928      0.81839       -1.90          
145.4927      0.81842       -1.91          
146.0927      0.81837       -1.92          
146.6927      0.81843       -1.92          
147.2927      0.81841       -1.93          
147.8926      0.81846       -1.94          
148.4926      0.81848       -1.95          
149.0926      0.81852       -1.96          
149.6925      0.81847       -1.96          
150.2925      0.81852       -1.97          
150.8925      0.81846       -1.98          
151.4924      0.8185        -1.99          
152.0924      0.81848       -2.00          
152.6924      0.81849       -2.01          
153.2924      0.81851       -2.01          
153.8923      0.81854       -2.02          
154.4923      0.81849       -2.03          
155.0923      0.81853       -2.04          
155.6922      0.81848       -2.05          
156.2922      0.81846       -2.06          
156.8922      0.8185        -2.07          
157.4921      0.81847       -2.07          
158.0921      0.81853       -2.08          
158.6921      0.81849       -2.09          
159.2921      0.81844       -2.10          
159.8920      0.81852       -2.11          
160.4920      0.81849       -2.12          
161.0920      0.81854       -2.12          
161.6919      0.81858       -2.14          
162.2919      0.81859       -2.14          
162.8919      0.81859       -2.15          
163.4918      0.81857       -2.16          
164.0918      0.81861       -2.16          
164.6918      0.81861       -2.17          
165.2918      0.81853       -2.18          
165.8917      0.8186        -2.19          
166.4917      0.81858       -2.20          
167.0917      0.81857       -2.20          
167.6916      0.81852       -2.21          
168.2916      0.81851       -2.22          
168.8916      0.81853       -2.23          
169.4915      0.81856       -2.24          
170.0915      0.81858       -2.25          
170.6915      0.81857       -2.25          
171.2915      0.81854       -2.26          
171.8914      0.8186        -2.27          
172.4914      0.81851       -2.28          
173.0914      0.81848       -2.28          
173.6913      0.81852       -2.29          
174.2913      0.81853       -2.30          
174.8913      0.81851       -2.30          
175.4912      0.81851       -2.32          
176.0912      0.81857       -2.32          
176.6912      0.81856       -2.34          
177.2912      0.81859       -2.34          
177.8911      0.81864       -2.35          
178.4911      0.81858       -2.36          
179.0911      0.81862       -2.37          
179.6910      0.81866       -2.37          
180.2910      0.81865       -2.38          
180.8910      0.81867       -2.39          
181.4909      0.81867       -2.40          
182.0909      0.81866       -2.41          
182.6909      0.81865       -2.42          
183.2909      0.81865       -2.42          
183.8908      0.81865       -2.43          
184.4908      0.81864       -2.44          
185.0908      0.81858       -2.45          
185.6907      0.81861       -2.46          
186.2907      0.81859       -2.47          
186.8907      0.81857       -2.48          
187.4906      0.81855       -2.48          
188.0906      0.81857       -2.49          
188.6906      0.81862       -2.49          
189.2906      0.81858       -2.50          
189.8905      0.81858       -2.51          
190.4905      0.81859       -2.52          
191.0905      0.81859       -2.52          
191.6904      0.81861       -2.53          
192.2904      0.81862       -2.54          
192.8904      0.81867       -2.55          
193.4903      0.81866       -2.56          
194.0903      0.81869       -2.56          
194.6903      0.81869       -2.57          
195.2903      0.81869       -2.58          
195.8902      0.81866       -2.59          
196.4902      0.81871       -2.60          
197.0902      0.81868       -2.60          
197.6901      0.81867       -2.61          
198.2901      0.81867       -2.62          
198.8901      0.81869       -2.63          
199.4900      0.81867       -2.64          
200.0900      0.8186        -2.65          
200.6900      0.81867       -2.65          
201.2900      0.81865       -2.66          
201.8899      0.81863       -2.67          
202.4899      0.81862       -2.68          
203.0899      0.81862       -2.69          
203.6898      0.81866       -2.69          
204.2898      0.81863       -2.70          
204.8898      0.81868       -2.71          
205.4897      0.81866       -2.71          
206.0897      0.8186        -2.72          
206.6897      0.8186        -2.73          
207.2897      0.81868       -2.74          
207.8896      0.81865       -2.75          
208.4896      0.8187        -2.76          
209.0896      0.81876       -2.77          
209.6895      0.8188        -2.77          
210.2895      0.81877       -2.78          
210.8895      0.81884       -2.79          
211.4894      0.81879       -2.80          
212.0894      0.81884       -2.81          
212.6894      0.81883       -2.81          
213.2894      0.81881       -2.82          
213.8893      0.81879       -2.83          
214.4893      0.81876       -2.84          
215.0893      0.81879       -2.84          
215.6892      0.81879       -2.85          
216.2892      0.81881       -2.86          
216.8892      0.81878       -2.87          
217.4891      0.8188        -2.88          
218.0891      0.81878       -2.89          
218.6891      0.81877       -2.89          
219.2891      0.81876       -2.90          
219.8890      0.81881       -2.91          
220.4890      0.81881       -2.92          
221.0890      0.81882       -2.92          
221.6889      0.81886       -2.93          
222.2889      0.81888       -2.94          
222.8889      0.81885       -2.95          
223.4888      0.81888       -2.96          
224.0888      0.81889       -2.96          
224.6888      0.81894       -2.97          
225.2888      0.81897       -2.98          
225.8887      0.81898       -2.99          
226.4887      0.81902       -3.00          
227.0887      0.81898       -3.00          
227.6886      0.81903       -3.01          
228.2886      0.819         -3.02          
228.8886      0.81901       -3.02          
229.4885      0.81899       -3.03          
230.0885      0.819         -3.04          
230.6885      0.81896       -3.05          
231.2885      0.819         -3.06          
231.8884      0.81903       -3.06          
232.4884      0.81902       -3.07          
233.0884      0.81904       -3.08          
233.6883      0.81904       -3.09          
234.2883      0.81909       -3.10          
234.8883      0.81911       -3.10          
235.4882      0.81914       -3.11          
236.0882      0.81913       -3.12          
236.6882      0.8192        -3.13          
237.2882      0.81922       -3.14          
237.8881      0.81922       -3.15          
238.4881      0.81918       -3.16          
239.0881      0.81918       -3.18          
239.6880      0.81907       -3.19          
240.2880      0.81901       -3.20          
240.8880      0.81892       -3.20          
241.4879      0.81886       -3.21          
242.0879      0.81883       -3.22          
242.6879      0.81879       -3.22          
243.2879      0.81881       -3.23          
243.8878      0.81884       -3.23          
244.4878      0.81884       -3.24          
245.0878      0.81881       -3.24          
245.6877      0.81881       -3.25          
246.2877      0.81882       -3.26          
246.8877      0.81883       -3.26          
247.4876      0.81883       -3.27          
248.0876      0.81885       -3.27          
248.6876      0.81882       -3.29          
249.2876      0.81883       -3.29          
249.8875      0.8188        -3.30          
250.4875      0.81876       -3.30          
251.0875      0.81879       -3.31          
251.6874      0.81876       -3.32          
252.2874      0.81875       -3.33          
252.8874      0.8188        -3.34          
253.4873      0.81877       -3.34          
254.0873      0.81878       -3.35          
254.6873      0.81879       -3.36          
255.2873      0.81881       -3.37          
255.8872      0.81877       -3.38          
256.4872      0.81877       -3.38          
257.0872      0.81879       -3.39          
257.6871      0.81881       -3.39          
258.2871      0.81876       -3.40          
258.8871      0.81875       -3.41          
259.4870      0.81874       -3.41          
260.0870      0.81881       -3.42          
260.6870      0.81879       -3.42          
261.2870      0.81877       -3.43          
261.8869      0.81872       -3.44          
262.4869      0.81873       -3.45          
263.0869      0.81869       -3.45          
263.6868      0.81868       -3.46          
264.2868      0.81865       -3.47          
264.8868      0.81862       -3.48          
