!    3/12/2021   06:41:51 
! Ref Plane: 23.990 mm
# MHZ S MA R  50
!
0.3000        0.82021       0.03           
0.9000        0.81675       0.03           
1.4999        0.81692       -0.01          
2.0999        0.81705       -0.02          
2.6999        0.81718       -0.03          
3.2999        0.81716       -0.04          
3.8998        0.81719       -0.05          
4.4998        0.81726       -0.07          
5.0998        0.8173        -0.07          
5.6997        0.81735       -0.08          
6.2997        0.81743       -0.10          
6.8997        0.81739       -0.10          
7.4996        0.81742       -0.11          
8.0996        0.81742       -0.12          
8.6996        0.81742       -0.13          
9.2996        0.81746       -0.14          
9.8995        0.81744       -0.15          
10.4995       0.81743       -0.16          
11.0995       0.81746       -0.17          
11.6994       0.81753       -0.18          
12.2994       0.81747       -0.19          
12.8994       0.81754       -0.20          
13.4993       0.81754       -0.21          
14.0993       0.81752       -0.21          
14.6993       0.81751       -0.22          
15.2993       0.81742       -0.23          
15.8992       0.8175        -0.24          
16.4992       0.81752       -0.24          
17.0992       0.81754       -0.25          
17.6991       0.81748       -0.26          
18.2991       0.81749       -0.27          
18.8991       0.81751       -0.29          
19.4990       0.81756       -0.29          
20.0990       0.81757       -0.30          
20.6990       0.81756       -0.31          
21.2990       0.81755       -0.32          
21.8989       0.81753       -0.34          
22.4989       0.81758       -0.34          
23.0989       0.81766       -0.35          
23.6988       0.81756       -0.36          
24.2988       0.81761       -0.37          
24.8988       0.81759       -0.38          
25.4987       0.81764       -0.39          
26.0987       0.81758       -0.40          
26.6987       0.81762       -0.41          
27.2987       0.81761       -0.42          
27.8986       0.81765       -0.43          
28.4986       0.8177        -0.44          
29.0986       0.81773       -0.44          
29.6985       0.81768       -0.45          
30.2985       0.81773       -0.46          
30.8985       0.81768       -0.46          
31.4984       0.81763       -0.48          
32.0984       0.81769       -0.48          
32.6984       0.81773       -0.49          
33.2984       0.81775       -0.50          
33.8983       0.81772       -0.51          
34.4983       0.81771       -0.52          
35.0983       0.81774       -0.53          
35.6982       0.81773       -0.54          
36.2982       0.81781       -0.54          
36.8982       0.81773       -0.55          
37.4981       0.81776       -0.56          
38.0981       0.81776       -0.57          
38.6981       0.81778       -0.58          
39.2981       0.81777       -0.59          
39.8980       0.8178        -0.60          
40.4980       0.81776       -0.61          
41.0980       0.81782       -0.62          
41.6979       0.81779       -0.63          
42.2979       0.81782       -0.64          
42.8979       0.81784       -0.65          
43.4978       0.81778       -0.66          
44.0978       0.81781       -0.67          
44.6978       0.81784       -0.67          
45.2978       0.81784       -0.68          
45.8977       0.81782       -0.69          
46.4977       0.81785       -0.70          
47.0977       0.81792       -0.70          
47.6976       0.81788       -0.71          
48.2976       0.81789       -0.72          
48.8976       0.81793       -0.73          
49.4975       0.81791       -0.74          
50.0975       0.81788       -0.75          
50.6975       0.81793       -0.76          
51.2975       0.81794       -0.77          
51.8974       0.81791       -0.79          
52.4974       0.81798       -0.79          
53.0974       0.81797       -0.81          
53.6973       0.81801       -0.83          
54.2973       0.818         -0.96          
54.8973       0.8179        -0.86          
55.4972       0.81791       -0.85          
56.0972       0.81793       -0.86          
56.6972       0.81793       -0.87          
57.2972       0.81789       -0.88          
57.8971       0.81794       -0.88          
58.4971       0.81797       -0.89          
59.0971       0.81799       -0.90          
59.6970       0.81795       -0.91          
60.2970       0.81797       -0.91          
60.8970       0.81801       -0.92          
61.4969       0.81798       -0.93          
62.0969       0.81799       -0.94          
62.6969       0.81795       -0.95          
63.2969       0.81794       -0.96          
63.8968       0.81798       -0.97          
64.4968       0.81803       -0.98          
65.0968       0.818         -0.99          
65.6967       0.81805       -1.00          
66.2967       0.81804       -1.01          
66.8967       0.81802       -1.01          
67.4966       0.81802       -1.02          
68.0966       0.818         -1.03          
68.6966       0.81797       -1.04          
69.2966       0.81801       -1.05          
69.8965       0.81799       -1.07          
70.4965       0.81797       -1.08          
71.0965       0.81797       -1.09          
71.6964       0.81805       -1.09          
72.2964       0.81804       -1.10          
72.8964       0.81801       -1.11          
73.4963       0.81799       -1.12          
74.0963       0.81804       -1.13          
74.6963       0.81803       -1.14          
75.2963       0.81798       -1.15          
75.8962       0.81796       -1.16          
76.4962       0.81803       -1.16          
77.0962       0.81806       -1.17          
77.6961       0.81798       -1.18          
78.2961       0.81801       -1.19          
78.8961       0.81797       -1.20          
79.4960       0.818         -1.21          
80.0960       0.81802       -1.22          
80.6960       0.81803       -1.23          
81.2960       0.81803       -1.24          
81.8959       0.81802       -1.25          
82.4959       0.81803       -1.26          
83.0959       0.81808       -1.27          
83.6958       0.81803       -1.28          
84.2958       0.81802       -1.29          
84.8958       0.81797       -1.30          
85.4957       0.81804       -1.31          
86.0957       0.81797       -1.32          
86.6957       0.81803       -1.33          
87.2957       0.81792       -1.34          
87.8956       0.81799       -1.35          
88.4956       0.81794       -1.36          
89.0956       0.818         -1.37          
89.6955       0.81798       -1.37          
90.2955       0.81799       -1.38          
90.8955       0.81797       -1.39          
91.4954       0.8179        -1.40          
92.0954       0.81791       -1.41          
92.6954       0.8179        -1.42          
93.2954       0.81799       -1.42          
93.8953       0.81797       -1.45          
94.4953       0.81798       -1.46          
95.0953       0.81804       -1.46          
95.6952       0.81802       -1.47          
96.2952       0.81809       -1.48          
96.8952       0.81805       -1.49          
97.4951       0.81805       -1.50          
98.0951       0.81805       -1.50          
98.6951       0.81806       -1.52          
99.2951       0.81808       -1.53          
99.8950       0.81813       -1.53          
100.4950      0.81806       -1.54          
101.0950      0.81809       -1.55          
101.6949      0.81806       -1.57          
102.2949      0.81804       -1.57          
102.8949      0.81797       -1.58          
103.4948      0.81795       -1.59          
104.0948      0.81793       -1.60          
104.6948      0.81796       -1.61          
105.2948      0.81798       -1.62          
105.8947      0.818         -1.63          
106.4947      0.81798       -1.64          
107.0947      0.81795       -1.64          
107.6946      0.8179        -1.65          
108.2946      0.81791       -1.66          
108.8946      0.818         -1.67          
109.4945      0.81803       -1.68          
110.0945      0.81799       -1.69          
110.6945      0.818         -1.70          
111.2945      0.81802       -1.71          
111.8944      0.81809       -1.72          
112.4944      0.81803       -1.73          
113.0944      0.81807       -1.73          
113.6943      0.81805       -1.74          
114.2943      0.81808       -1.76          
114.8943      0.81804       -1.77          
115.4942      0.81812       -1.78          
116.0942      0.8181        -1.79          
116.6942      0.81808       -1.80          
117.2942      0.8181        -1.80          
117.8941      0.81806       -1.81          
118.4941      0.81806       -1.82          
119.0941      0.81803       -1.83          
119.6940      0.81798       -1.84          
120.2940      0.81801       -1.85          
120.8940      0.81799       -1.86          
121.4939      0.81799       -1.87          
122.0939      0.81796       -1.88          
122.6939      0.818         -1.89          
123.2939      0.818         -1.90          
123.8938      0.81798       -1.91          
124.4938      0.81804       -1.92          
125.0938      0.81801       -1.93          
125.6937      0.81803       -1.94          
126.2937      0.81805       -1.95          
126.8937      0.81801       -1.96          
127.4936      0.81807       -1.97          
128.0936      0.81802       -1.98          
128.6936      0.81806       -1.99          
129.2936      0.81799       -2.00          
129.8935      0.81804       -2.01          
130.4935      0.81803       -2.02          
131.0935      0.81809       -2.03          
131.6934      0.81806       -2.03          
132.2934      0.81806       -2.04          
132.8934      0.818         -2.05          
133.4933      0.81802       -2.06          
134.0933      0.81801       -2.07          
134.6933      0.81801       -2.08          
135.2933      0.81804       -2.09          
135.8932      0.81797       -2.10          
136.4932      0.81796       -2.11          
137.0932      0.81802       -2.12          
137.6931      0.81798       -2.13          
138.2931      0.81801       -2.14          
138.8931      0.81805       -2.15          
139.4930      0.81801       -2.16          
140.0930      0.818         -2.17          
140.6930      0.81799       -2.18          
141.2930      0.81799       -2.19          
141.8929      0.81801       -2.20          
142.4929      0.81802       -2.21          
143.0929      0.81801       -2.22          
143.6928      0.81796       -2.22          
144.2928      0.81796       -2.24          
144.8928      0.818         -2.25          
145.4927      0.818         -2.26          
146.0927      0.81794       -2.26          
146.6927      0.818         -2.28          
147.2927      0.81799       -2.29          
147.8926      0.81801       -2.29          
148.4926      0.81799       -2.30          
149.0926      0.81803       -2.31          
149.6925      0.81801       -2.32          
150.2925      0.81803       -2.33          
150.8925      0.81803       -2.34          
151.4924      0.81801       -2.35          
152.0924      0.81803       -2.36          
152.6924      0.81804       -2.37          
153.2924      0.81803       -2.37          
153.8923      0.81804       -2.38          
154.4923      0.81803       -2.40          
155.0923      0.81802       -2.41          
155.6922      0.81805       -2.42          
156.2922      0.81803       -2.43          
156.8922      0.81797       -2.44          
157.4921      0.818         -2.45          
158.0921      0.81805       -2.46          
158.6921      0.81804       -2.47          
159.2921      0.81802       -2.48          
159.8920      0.81805       -2.49          
160.4920      0.81806       -2.50          
161.0920      0.81802       -2.51          
161.6919      0.81808       -2.52          
162.2919      0.81809       -2.53          
162.8919      0.81815       -2.54          
163.4918      0.81805       -2.55          
164.0918      0.81814       -2.55          
164.6918      0.81816       -2.56          
165.2918      0.81805       -2.57          
165.8917      0.81809       -2.58          
166.4917      0.81808       -2.59          
167.0917      0.81809       -2.60          
167.6916      0.81804       -2.61          
168.2916      0.81805       -2.62          
168.8916      0.81802       -2.63          
169.4915      0.81802       -2.64          
170.0915      0.81803       -2.65          
170.6915      0.81803       -2.66          
171.2915      0.81805       -2.67          
171.8914      0.81804       -2.67          
172.4914      0.818         -2.68          
173.0914      0.818         -2.70          
173.6913      0.81799       -2.70          
174.2913      0.81802       -2.71          
174.8913      0.818         -2.72          
175.4912      0.81801       -2.73          
176.0912      0.81806       -2.74          
176.6912      0.81805       -2.75          
177.2912      0.81805       -2.76          
177.8911      0.81811       -2.77          
178.4911      0.81807       -2.78          
179.0911      0.81807       -2.79          
179.6910      0.81811       -2.80          
180.2910      0.81809       -2.81          
180.8910      0.81816       -2.82          
181.4909      0.81815       -2.83          
182.0909      0.81811       -2.84          
182.6909      0.81808       -2.85          
183.2909      0.81813       -2.86          
183.8908      0.81812       -2.87          
184.4908      0.8181        -2.87          
185.0908      0.81806       -2.89          
185.6907      0.81803       -2.89          
186.2907      0.81804       -2.91          
186.8907      0.81806       -2.91          
187.4906      0.81804       -2.92          
188.0906      0.81805       -2.93          
188.6906      0.81806       -2.94          
189.2906      0.81805       -2.95          
189.8905      0.81805       -2.96          
190.4905      0.81804       -2.96          
191.0905      0.81802       -2.97          
191.6904      0.81809       -2.98          
192.2904      0.81808       -2.99          
192.8904      0.8181        -3.00          
193.4903      0.81812       -3.01          
194.0903      0.81817       -3.02          
194.6903      0.81816       -3.03          
195.2903      0.81814       -3.04          
195.8902      0.81811       -3.04          
196.4902      0.81813       -3.06          
197.0902      0.81808       -3.07          
197.6901      0.81808       -3.08          
198.2901      0.81807       -3.08          
198.8901      0.81814       -3.09          
199.4900      0.81814       -3.10          
200.0900      0.81802       -3.11          
200.6900      0.81809       -3.12          
201.2900      0.81805       -3.13          
201.8899      0.81802       -3.14          
202.4899      0.81801       -3.15          
203.0899      0.81802       -3.16          
203.6898      0.81808       -3.17          
204.2898      0.81805       -3.18          
204.8898      0.81807       -3.19          
205.4897      0.81805       -3.19          
206.0897      0.81797       -3.21          
206.6897      0.81801       -3.22          
207.2897      0.81805       -3.23          
207.8896      0.81806       -3.24          
208.4896      0.81808       -3.25          
209.0896      0.81818       -3.25          
209.6895      0.81821       -3.26          
210.2895      0.81817       -3.27          
210.8895      0.81822       -3.28          
211.4894      0.81821       -3.29          
212.0894      0.81822       -3.30          
212.6894      0.81821       -3.31          
213.2894      0.81821       -3.32          
213.8893      0.8182        -3.33          
214.4893      0.81814       -3.34          
215.0893      0.81816       -3.35          
215.6892      0.81815       -3.36          
216.2892      0.81821       -3.36          
216.8892      0.8182        -3.38          
217.4891      0.81817       -3.38          
218.0891      0.81815       -3.40          
218.6891      0.81815       -3.40          
219.2891      0.81814       -3.41          
219.8890      0.81817       -3.42          
220.4890      0.81818       -3.43          
221.0890      0.81819       -3.44          
221.6889      0.8182        -3.45          
222.2889      0.81827       -3.46          
222.8889      0.81824       -3.47          
223.4888      0.81825       -3.48          
224.0888      0.81823       -3.49          
224.6888      0.81827       -3.49          
225.2888      0.81832       -3.51          
225.8887      0.81833       -3.51          
226.4887      0.81836       -3.52          
227.0887      0.81827       -3.53          
227.6886      0.81836       -3.54          
228.2886      0.81834       -3.55          
228.8886      0.81833       -3.56          
229.4885      0.81832       -3.56          
230.0885      0.81824       -3.57          
230.6885      0.81829       -3.58          
231.2885      0.81831       -3.59          
231.8884      0.81834       -3.60          
232.4884      0.81831       -3.61          
233.0884      0.81831       -3.62          
233.6883      0.8183        -3.63          
234.2883      0.81835       -3.64          
234.8883      0.81837       -3.65          
235.4882      0.81835       -3.66          
236.0882      0.81836       -3.67          
236.6882      0.8184        -3.68          
237.2882      0.81839       -3.68          
237.8881      0.81838       -3.69          
238.4881      0.81837       -3.70          
239.0881      0.81836       -3.71          
239.6880      0.81837       -3.73          
240.2880      0.81843       -3.73          
240.8880      0.81842       -3.74          
241.4879      0.81846       -3.75          
242.0879      0.81846       -3.76          
242.6879      0.81848       -3.77          
243.2879      0.81851       -3.79          
243.8878      0.81852       -3.80          
244.4878      0.81849       -3.82          
245.0878      0.81843       -3.82          
245.6877      0.8183        -3.83          
246.2877      0.81824       -3.84          
246.8877      0.8182        -3.85          
247.4876      0.81816       -3.85          
248.0876      0.81818       -3.86          
248.6876      0.81813       -3.87          
249.2876      0.81817       -3.88          
249.8875      0.81811       -3.89          
250.4875      0.81808       -3.89          
251.0875      0.81808       -3.90          
251.6874      0.81807       -3.91          
252.2874      0.81806       -3.92          
252.8874      0.81808       -3.93          
253.4873      0.81808       -3.93          
254.0873      0.81809       -3.94          
254.6873      0.81811       -3.95          
255.2873      0.81808       -3.96          
255.8872      0.81806       -3.97          
256.4872      0.81807       -3.98          
257.0872      0.81808       -3.99          
257.6871      0.81809       -3.99          
258.2871      0.81807       -4.01          
258.8871      0.81808       -4.01          
259.4870      0.81807       -4.02          
260.0870      0.81811       -4.03          
260.6870      0.81807       -4.03          
261.2870      0.81808       -4.04          
261.8869      0.81803       -4.05          
262.4869      0.81802       -4.06          
263.0869      0.81798       -4.06          
263.6868      0.81793       -4.07          
264.2868      0.81791       -4.08          
264.8868      0.81792       -4.09          
