!    3/12/2021   10:39:16 
! Ref Plane: 23.990 mm
# MHZ S MA R  50
!
0.3000        0.81983       -0.01          
0.9000        0.81667       -0.03          
1.4999        0.81685       -0.06          
2.0999        0.81704       -0.07          
2.6999        0.8171        -0.07          
3.2999        0.81711       -0.08          
3.8998        0.81726       -0.09          
4.4998        0.81728       -0.10          
5.0998        0.81731       -0.11          
5.6997        0.81738       -0.12          
6.2997        0.81743       -0.13          
6.8997        0.81747       -0.14          
7.4996        0.81744       -0.15          
8.0996        0.81747       -0.16          
8.6996        0.81744       -0.17          
9.2996        0.81751       -0.17          
9.8995        0.81749       -0.18          
10.4995       0.81751       -0.19          
11.0995       0.81752       -0.20          
11.6994       0.81754       -0.21          
12.2994       0.81755       -0.22          
12.8994       0.8176        -0.22          
13.4993       0.81757       -0.23          
14.0993       0.81758       -0.24          
14.6993       0.81756       -0.25          
15.2993       0.81747       -0.26          
15.8992       0.81758       -0.26          
16.4992       0.81756       -0.27          
17.0992       0.81758       -0.28          
17.6991       0.81758       -0.29          
18.2991       0.8176        -0.29          
18.8991       0.8176        -0.31          
19.4990       0.81765       -0.31          
20.0990       0.8176        -0.33          
20.6990       0.81762       -0.34          
21.2990       0.81765       -0.35          
21.8989       0.81766       -0.35          
22.4989       0.81771       -0.36          
23.0989       0.81776       -0.37          
23.6988       0.81762       -0.38          
24.2988       0.81769       -0.39          
24.8988       0.81767       -0.40          
25.4987       0.81772       -0.41          
26.0987       0.81769       -0.42          
26.6987       0.81773       -0.42          
27.2987       0.8177        -0.44          
27.8986       0.81773       -0.44          
28.4986       0.81776       -0.45          
29.0986       0.81788       -0.46          
29.6985       0.81778       -0.46          
30.2985       0.81781       -0.47          
30.8985       0.81781       -0.48          
31.4984       0.81776       -0.49          
32.0984       0.81783       -0.50          
32.6984       0.81785       -0.50          
33.2984       0.8179        -0.51          
33.8983       0.81783       -0.52          
34.4983       0.81787       -0.53          
35.0983       0.8179        -0.53          
35.6982       0.81789       -0.55          
36.2982       0.81794       -0.55          
36.8982       0.81789       -0.56          
37.4981       0.81788       -0.57          
38.0981       0.8179        -0.58          
38.6981       0.81794       -0.59          
39.2981       0.81789       -0.60          
39.8980       0.81798       -0.61          
40.4980       0.81793       -0.62          
41.0980       0.81796       -0.63          
41.6979       0.81797       -0.64          
42.2979       0.81794       -0.65          
42.8979       0.81801       -0.66          
43.4978       0.81796       -0.66          
44.0978       0.818         -0.67          
44.6978       0.818         -0.68          
45.2978       0.81801       -0.69          
45.8977       0.81803       -0.69          
46.4977       0.81804       -0.70          
47.0977       0.81808       -0.70          
47.6976       0.81807       -0.71          
48.2976       0.81804       -0.72          
48.8976       0.81807       -0.73          
49.4975       0.81813       -0.75          
50.0975       0.81805       -0.75          
50.6975       0.81814       -0.76          
51.2975       0.81811       -0.77          
51.8974       0.81811       -0.78          
52.4974       0.81814       -0.79          
53.0974       0.81818       -0.81          
53.6973       0.81822       -0.82          
54.2973       0.81819       -0.95          
54.8973       0.81812       -0.87          
55.4972       0.81812       -0.84          
56.0972       0.81815       -0.86          
56.6972       0.81816       -0.86          
57.2972       0.81814       -0.87          
57.8971       0.81816       -0.88          
58.4971       0.81818       -0.89          
59.0971       0.81818       -0.89          
59.6970       0.81818       -0.90          
60.2970       0.81817       -0.91          
60.8970       0.81822       -0.92          
61.4969       0.81822       -0.92          
62.0969       0.81817       -0.93          
62.6969       0.81821       -0.95          
63.2969       0.8182        -0.95          
63.8968       0.81818       -0.96          
64.4968       0.81823       -0.97          
65.0968       0.81822       -0.98          
65.6967       0.81829       -0.99          
66.2967       0.81826       -1.00          
66.8967       0.81824       -1.00          
67.4966       0.81825       -1.01          
68.0966       0.81826       -1.02          
68.6966       0.81822       -1.03          
69.2966       0.81824       -1.04          
69.8965       0.81825       -1.05          
70.4965       0.81824       -1.06          
71.0965       0.81824       -1.07          
71.6964       0.81832       -1.08          
72.2964       0.8183        -1.09          
72.8964       0.81824       -1.10          
73.4963       0.81824       -1.11          
74.0963       0.81825       -1.12          
74.6963       0.8183        -1.12          
75.2963       0.81826       -1.13          
75.8962       0.81824       -1.14          
76.4962       0.8183        -1.15          
77.0962       0.81831       -1.16          
77.6961       0.81826       -1.17          
78.2961       0.81827       -1.18          
78.8961       0.81825       -1.18          
79.4960       0.81827       -1.20          
80.0960       0.81831       -1.20          
80.6960       0.8183        -1.21          
81.2960       0.81831       -1.22          
81.8959       0.8183        -1.23          
82.4959       0.81829       -1.24          
83.0959       0.81835       -1.25          
83.6958       0.81832       -1.26          
84.2958       0.81825       -1.27          
84.8958       0.81824       -1.28          
85.4957       0.81827       -1.29          
86.0957       0.81834       -1.31          
86.6957       0.81831       -1.31          
87.2957       0.81819       -1.32          
87.8956       0.81831       -1.33          
88.4956       0.81826       -1.34          
89.0956       0.81829       -1.35          
89.6955       0.81829       -1.35          
90.2955       0.8183        -1.36          
90.8955       0.81826       -1.37          
91.4954       0.81826       -1.38          
92.0954       0.81817       -1.39          
92.6954       0.81816       -1.40          
93.2954       0.81833       -1.40          
93.8953       0.81829       -1.43          
94.4953       0.81835       -1.43          
95.0953       0.81832       -1.44          
95.6952       0.8183        -1.45          
96.2952       0.81842       -1.46          
96.8952       0.81837       -1.47          
97.4951       0.81836       -1.48          
98.0951       0.81837       -1.48          
98.6951       0.81839       -1.49          
99.2951       0.8184        -1.50          
99.8950       0.81848       -1.51          
100.4950      0.81838       -1.52          
101.0950      0.81841       -1.53          
101.6949      0.8184        -1.54          
102.2949      0.81839       -1.55          
102.8949      0.81833       -1.55          
103.4948      0.8183        -1.57          
104.0948      0.81831       -1.58          
104.6948      0.81828       -1.58          
105.2948      0.81831       -1.59          
105.8947      0.81833       -1.60          
106.4947      0.81831       -1.61          
107.0947      0.8183        -1.62          
107.6946      0.8183        -1.63          
108.2946      0.8183        -1.63          
108.8946      0.81833       -1.64          
109.4945      0.81833       -1.65          
110.0945      0.81842       -1.66          
110.6945      0.81838       -1.67          
111.2945      0.81839       -1.68          
111.8944      0.81846       -1.69          
112.4944      0.81845       -1.70          
113.0944      0.81848       -1.71          
113.6943      0.81844       -1.72          
114.2943      0.81846       -1.73          
114.8943      0.81843       -1.74          
115.4942      0.81849       -1.75          
116.0942      0.81847       -1.76          
116.6942      0.81845       -1.77          
117.2942      0.81841       -1.77          
117.8941      0.81847       -1.78          
118.4941      0.81844       -1.79          
119.0941      0.81846       -1.80          
119.6940      0.81837       -1.81          
120.2940      0.81842       -1.82          
120.8940      0.8184        -1.83          
121.4939      0.81839       -1.84          
122.0939      0.81841       -1.85          
122.6939      0.8184        -1.86          
123.2939      0.81842       -1.87          
123.8938      0.81839       -1.88          
124.4938      0.81844       -1.89          
125.0938      0.81844       -1.89          
125.6937      0.81844       -1.91          
126.2937      0.81845       -1.92          
126.8937      0.81841       -1.92          
127.4936      0.81847       -1.94          
128.0936      0.81847       -1.95          
128.6936      0.81849       -1.95          
129.2936      0.81846       -1.96          
129.8935      0.8185        -1.97          
130.4935      0.81852       -1.98          
131.0935      0.81851       -1.99          
131.6934      0.81851       -2.00          
132.2934      0.81854       -2.00          
132.8934      0.81848       -2.01          
133.4933      0.81847       -2.02          
134.0933      0.81847       -2.03          
134.6933      0.81847       -2.04          
135.2933      0.81849       -2.05          
135.8932      0.81845       -2.06          
136.4932      0.81841       -2.07          
137.0932      0.81849       -2.08          
137.6931      0.81847       -2.09          
138.2931      0.81849       -2.10          
138.8931      0.81848       -2.11          
139.4930      0.81849       -2.12          
140.0930      0.81847       -2.13          
140.6930      0.81842       -2.13          
141.2930      0.81847       -2.14          
141.8929      0.81851       -2.15          
142.4929      0.81849       -2.16          
143.0929      0.81848       -2.17          
143.6928      0.81846       -2.18          
144.2928      0.81849       -2.20          
144.8928      0.81844       -2.20          
145.4927      0.81852       -2.21          
146.0927      0.81845       -2.22          
146.6927      0.8185        -2.23          
147.2927      0.8185        -2.24          
147.8926      0.81852       -2.25          
148.4926      0.81852       -2.26          
149.0926      0.81857       -2.27          
149.6925      0.81852       -2.28          
150.2925      0.81858       -2.29          
150.8925      0.81853       -2.30          
151.4924      0.81853       -2.30          
152.0924      0.81858       -2.31          
152.6924      0.81859       -2.32          
153.2924      0.81856       -2.33          
153.8923      0.81857       -2.34          
154.4923      0.81862       -2.35          
155.0923      0.81858       -2.36          
155.6922      0.81859       -2.37          
156.2922      0.81857       -2.38          
156.8922      0.81851       -2.39          
157.4921      0.81853       -2.40          
158.0921      0.81857       -2.41          
158.6921      0.81862       -2.42          
159.2921      0.81857       -2.43          
159.8920      0.81863       -2.44          
160.4920      0.81858       -2.45          
161.0920      0.81861       -2.46          
161.6919      0.81864       -2.47          
162.2919      0.81864       -2.48          
162.8919      0.81867       -2.49          
163.4918      0.8187        -2.49          
164.0918      0.81871       -2.50          
164.6918      0.8187        -2.51          
165.2918      0.81864       -2.52          
165.8917      0.81865       -2.53          
166.4917      0.8187        -2.54          
167.0917      0.81866       -2.55          
167.6916      0.81861       -2.56          
168.2916      0.81865       -2.57          
168.8916      0.81861       -2.58          
169.4915      0.81864       -2.59          
170.0915      0.81864       -2.59          
170.6915      0.81865       -2.60          
171.2915      0.81866       -2.62          
171.8914      0.81868       -2.62          
172.4914      0.81861       -2.63          
173.0914      0.81858       -2.64          
173.6913      0.81861       -2.65          
174.2913      0.81867       -2.65          
174.8913      0.8186        -2.66          
175.4912      0.81858       -2.68          
176.0912      0.81867       -2.69          
176.6912      0.81866       -2.70          
177.2912      0.81868       -2.71          
177.8911      0.81869       -2.71          
178.4911      0.81869       -2.73          
179.0911      0.81869       -2.73          
179.6910      0.81869       -2.74          
180.2910      0.81873       -2.75          
180.8910      0.81874       -2.76          
181.4909      0.81876       -2.77          
182.0909      0.81876       -2.78          
182.6909      0.81873       -2.79          
183.2909      0.81876       -2.80          
183.8908      0.81875       -2.81          
184.4908      0.81876       -2.82          
185.0908      0.81864       -2.83          
185.6907      0.81863       -2.84          
186.2907      0.81866       -2.85          
186.8907      0.81868       -2.86          
187.4906      0.81866       -2.87          
188.0906      0.81869       -2.87          
188.6906      0.81875       -2.88          
189.2906      0.81869       -2.89          
189.8905      0.81872       -2.90          
190.4905      0.8187        -2.91          
191.0905      0.81869       -2.91          
191.6904      0.81868       -2.92          
192.2904      0.8187        -2.94          
192.8904      0.81873       -2.94          
193.4903      0.81874       -2.95          
194.0903      0.81879       -2.96          
194.6903      0.8188        -2.97          
195.2903      0.8188        -2.98          
195.8902      0.81874       -2.99          
196.4902      0.81877       -3.00          
197.0902      0.81876       -3.01          
197.6901      0.81877       -3.02          
198.2901      0.81876       -3.03          
198.8901      0.81877       -3.03          
199.4900      0.81874       -3.05          
200.0900      0.8187        -3.06          
200.6900      0.81872       -3.07          
201.2900      0.81872       -3.07          
201.8899      0.81868       -3.08          
202.4899      0.8187        -3.10          
203.0899      0.81873       -3.10          
203.6898      0.81875       -3.11          
204.2898      0.81871       -3.12          
204.8898      0.81873       -3.13          
205.4897      0.81869       -3.14          
206.0897      0.81867       -3.14          
206.6897      0.81869       -3.15          
207.2897      0.81875       -3.16          
207.8896      0.81873       -3.18          
208.4896      0.81873       -3.19          
209.0896      0.81888       -3.19          
209.6895      0.81889       -3.21          
210.2895      0.81884       -3.22          
210.8895      0.8189        -3.22          
211.4894      0.81886       -3.23          
212.0894      0.81892       -3.24          
212.6894      0.8189        -3.25          
213.2894      0.81886       -3.26          
213.8893      0.81888       -3.27          
214.4893      0.81882       -3.28          
215.0893      0.81885       -3.29          
215.6892      0.81886       -3.30          
216.2892      0.81888       -3.30          
216.8892      0.81889       -3.32          
217.4891      0.81886       -3.33          
218.0891      0.81886       -3.34          
218.6891      0.81884       -3.34          
219.2891      0.81881       -3.36          
219.8890      0.81886       -3.36          
220.4890      0.81886       -3.37          
221.0890      0.8189        -3.38          
221.6889      0.81893       -3.39          
222.2889      0.81895       -3.40          
222.8889      0.81892       -3.41          
223.4888      0.81895       -3.42          
224.0888      0.81895       -3.43          
224.6888      0.81898       -3.43          
225.2888      0.81902       -3.45          
225.8887      0.81905       -3.45          
226.4887      0.81909       -3.46          
227.0887      0.81906       -3.47          
227.6886      0.8191        -3.48          
228.2886      0.8191        -3.49          
228.8886      0.81908       -3.50          
229.4885      0.8191        -3.50          
230.0885      0.81902       -3.51          
230.6885      0.81905       -3.52          
231.2885      0.81908       -3.53          
231.8884      0.81909       -3.54          
232.4884      0.81907       -3.55          
233.0884      0.8191        -3.56          
233.6883      0.8191        -3.57          
234.2883      0.81918       -3.58          
234.8883      0.81919       -3.59          
235.4882      0.81919       -3.60          
236.0882      0.81922       -3.61          
236.6882      0.81925       -3.62          
237.2882      0.81926       -3.63          
237.8881      0.81929       -3.64          
238.4881      0.81932       -3.65          
239.0881      0.81926       -3.67          
239.6880      0.81921       -3.69          
240.2880      0.81918       -3.70          
240.8880      0.81907       -3.70          
241.4879      0.819         -3.71          
242.0879      0.81893       -3.72          
242.6879      0.8189        -3.73          
243.2879      0.81893       -3.74          
243.8878      0.81896       -3.74          
244.4878      0.81891       -3.75          
245.0878      0.81891       -3.75          
245.6877      0.81889       -3.76          
246.2877      0.8189        -3.77          
246.8877      0.81894       -3.78          
247.4876      0.8189        -3.78          
248.0876      0.81889       -3.79          
248.6876      0.81888       -3.80          
249.2876      0.8189        -3.81          
249.8875      0.81889       -3.82          
250.4875      0.81886       -3.83          
251.0875      0.81889       -3.84          
251.6874      0.81884       -3.85          
252.2874      0.81882       -3.86          
252.8874      0.81887       -3.87          
253.4873      0.81887       -3.87          
254.0873      0.8189        -3.88          
254.6873      0.81889       -3.89          
255.2873      0.81889       -3.90          
255.8872      0.81886       -3.91          
256.4872      0.81889       -3.92          
257.0872      0.81886       -3.92          
257.6871      0.81891       -3.93          
258.2871      0.81883       -3.94          
258.8871      0.81887       -3.95          
259.4870      0.81885       -3.96          
260.0870      0.81891       -3.96          
260.6870      0.81888       -3.97          
261.2870      0.81886       -3.98          
261.8869      0.81883       -3.98          
262.4869      0.81881       -3.99          
263.0869      0.81877       -4.00          
263.6868      0.81876       -4.01          
264.2868      0.81877       -4.02          
264.8868      0.81871       -4.03          
