!    3/12/2021   10:34:58 
! Ref Plane: 23.990 mm
# MHZ S MA R  50
!
0.3000        0.81975       -0.01          
0.9000        0.81667       -0.02          
1.4999        0.81679       -0.05          
2.0999        0.81697       -0.06          
2.6999        0.8171        -0.07          
3.2999        0.81711       -0.07          
3.8998        0.81717       -0.09          
4.4998        0.81725       -0.10          
5.0998        0.81724       -0.10          
5.6997        0.81734       -0.11          
6.2997        0.81737       -0.12          
6.8997        0.81743       -0.13          
7.4996        0.81743       -0.14          
8.0996        0.8174        -0.15          
8.6996        0.81737       -0.16          
9.2996        0.81748       -0.16          
9.8995        0.81741       -0.17          
10.4995       0.81746       -0.18          
11.0995       0.81744       -0.18          
11.6994       0.81748       -0.19          
12.2994       0.81749       -0.20          
12.8994       0.81751       -0.21          
13.4993       0.8175        -0.21          
14.0993       0.81748       -0.23          
14.6993       0.81751       -0.23          
15.2993       0.81743       -0.24          
15.8992       0.81753       -0.25          
16.4992       0.81753       -0.25          
17.0992       0.81757       -0.26          
17.6991       0.81751       -0.27          
18.2991       0.81753       -0.28          
18.8991       0.8175        -0.28          
19.4990       0.81753       -0.29          
20.0990       0.81755       -0.30          
20.6990       0.81754       -0.31          
21.2990       0.81757       -0.32          
21.8989       0.81759       -0.33          
22.4989       0.81759       -0.34          
23.0989       0.81773       -0.35          
23.6988       0.81764       -0.36          
24.2988       0.81762       -0.36          
24.8988       0.81761       -0.37          
25.4987       0.81767       -0.38          
26.0987       0.81764       -0.39          
26.6987       0.81767       -0.39          
27.2987       0.81771       -0.41          
27.8986       0.81766       -0.42          
28.4986       0.81767       -0.42          
29.0986       0.81781       -0.43          
29.6985       0.81769       -0.43          
30.2985       0.81773       -0.44          
30.8985       0.81773       -0.44          
31.4984       0.81768       -0.45          
32.0984       0.81776       -0.46          
32.6984       0.81777       -0.47          
33.2984       0.81783       -0.47          
33.8983       0.81781       -0.48          
34.4983       0.81779       -0.49          
35.0983       0.81778       -0.50          
35.6982       0.81786       -0.51          
36.2982       0.81785       -0.51          
36.8982       0.81782       -0.52          
37.4981       0.81785       -0.53          
38.0981       0.81782       -0.54          
38.6981       0.81783       -0.55          
39.2981       0.81782       -0.55          
39.8980       0.81788       -0.57          
40.4980       0.81788       -0.57          
41.0980       0.81794       -0.58          
41.6979       0.81787       -0.59          
42.2979       0.81789       -0.60          
42.8979       0.81789       -0.61          
43.4978       0.81791       -0.61          
44.0978       0.81792       -0.62          
44.6978       0.81792       -0.63          
45.2978       0.81796       -0.64          
45.8977       0.81793       -0.64          
46.4977       0.81798       -0.65          
47.0977       0.81802       -0.65          
47.6976       0.81797       -0.66          
48.2976       0.81794       -0.66          
48.8976       0.81798       -0.68          
49.4975       0.81799       -0.69          
50.0975       0.81799       -0.70          
50.6975       0.81803       -0.70          
51.2975       0.81799       -0.71          
51.8974       0.81803       -0.73          
52.4974       0.81806       -0.74          
53.0974       0.81808       -0.75          
53.6973       0.8181        -0.76          
54.2973       0.81812       -0.89          
54.8973       0.81804       -0.81          
55.4972       0.81803       -0.78          
56.0972       0.81808       -0.79          
56.6972       0.81805       -0.80          
57.2972       0.81801       -0.81          
57.8971       0.81808       -0.81          
58.4971       0.81812       -0.82          
59.0971       0.81811       -0.83          
59.6970       0.81811       -0.84          
60.2970       0.81807       -0.84          
60.8970       0.81812       -0.85          
61.4969       0.81808       -0.86          
62.0969       0.81811       -0.87          
62.6969       0.81811       -0.88          
63.2969       0.81811       -0.89          
63.8968       0.81814       -0.89          
64.4968       0.81815       -0.90          
65.0968       0.81819       -0.91          
65.6967       0.8182        -0.92          
66.2967       0.81816       -0.92          
66.8967       0.81812       -0.93          
67.4966       0.81816       -0.94          
68.0966       0.81818       -0.95          
68.6966       0.81814       -0.96          
69.2966       0.81813       -0.97          
69.8965       0.81816       -0.98          
70.4965       0.81816       -0.99          
71.0965       0.81812       -0.99          
71.6964       0.8182        -1.00          
72.2964       0.81823       -1.01          
72.8964       0.81817       -1.02          
73.4963       0.81814       -1.03          
74.0963       0.81814       -1.04          
74.6963       0.81818       -1.04          
75.2963       0.81815       -1.05          
75.8962       0.81813       -1.06          
76.4962       0.81818       -1.06          
77.0962       0.81818       -1.07          
77.6961       0.81817       -1.08          
78.2961       0.81818       -1.09          
78.8961       0.81812       -1.10          
79.4960       0.81821       -1.11          
80.0960       0.81824       -1.12          
80.6960       0.81822       -1.13          
81.2960       0.81817       -1.13          
81.8959       0.8182        -1.15          
82.4959       0.81819       -1.15          
83.0959       0.81821       -1.16          
83.6958       0.81825       -1.17          
84.2958       0.81814       -1.18          
84.8958       0.81811       -1.19          
85.4957       0.8182        -1.20          
86.0957       0.81819       -1.21          
86.6957       0.81817       -1.22          
87.2957       0.81811       -1.23          
87.8956       0.81816       -1.24          
88.4956       0.81813       -1.24          
89.0956       0.81818       -1.25          
89.6955       0.81812       -1.26          
90.2955       0.81819       -1.27          
90.8955       0.81816       -1.27          
91.4954       0.81816       -1.28          
92.0954       0.81808       -1.29          
92.6954       0.81812       -1.30          
93.2954       0.81821       -1.30          
93.8953       0.81819       -1.33          
94.4953       0.81821       -1.34          
95.0953       0.8182        -1.34          
95.6952       0.81818       -1.35          
96.2952       0.81825       -1.35          
96.8952       0.81826       -1.36          
97.4951       0.81831       -1.37          
98.0951       0.81825       -1.37          
98.6951       0.81823       -1.39          
99.2951       0.81825       -1.40          
99.8950       0.81836       -1.41          
100.4950      0.81831       -1.42          
101.0950      0.81828       -1.42          
101.6949      0.81827       -1.44          
102.2949      0.81828       -1.44          
102.8949      0.81819       -1.45          
103.4948      0.81819       -1.46          
104.0948      0.81822       -1.47          
104.6948      0.81818       -1.48          
105.2948      0.8182        -1.48          
105.8947      0.81821       -1.49          
106.4947      0.81818       -1.50          
107.0947      0.81818       -1.51          
107.6946      0.81814       -1.52          
108.2946      0.81816       -1.52          
108.8946      0.81822       -1.53          
109.4945      0.81822       -1.54          
110.0945      0.81827       -1.55          
110.6945      0.81827       -1.56          
111.2945      0.8183        -1.56          
111.8944      0.81832       -1.58          
112.4944      0.81829       -1.58          
113.0944      0.8183        -1.59          
113.6943      0.81835       -1.60          
114.2943      0.81833       -1.61          
114.8943      0.81828       -1.62          
115.4942      0.81837       -1.63          
116.0942      0.81835       -1.64          
116.6942      0.81834       -1.65          
117.2942      0.81832       -1.65          
117.8941      0.81834       -1.66          
118.4941      0.81834       -1.67          
119.0941      0.81833       -1.68          
119.6940      0.81825       -1.69          
120.2940      0.81831       -1.69          
120.8940      0.81827       -1.70          
121.4939      0.81825       -1.71          
122.0939      0.81825       -1.72          
122.6939      0.81827       -1.73          
123.2939      0.81829       -1.74          
123.8938      0.81826       -1.75          
124.4938      0.8183        -1.76          
125.0938      0.81828       -1.77          
125.6937      0.81833       -1.78          
126.2937      0.81834       -1.79          
126.8937      0.81829       -1.79          
127.4936      0.81833       -1.81          
128.0936      0.81834       -1.81          
128.6936      0.81836       -1.82          
129.2936      0.8183        -1.83          
129.8935      0.81836       -1.84          
130.4935      0.81832       -1.84          
131.0935      0.81838       -1.86          
131.6934      0.81838       -1.86          
132.2934      0.81841       -1.87          
132.8934      0.81834       -1.88          
133.4933      0.81832       -1.89          
134.0933      0.81834       -1.89          
134.6933      0.81833       -1.91          
135.2933      0.81833       -1.91          
135.8932      0.8183        -1.92          
136.4932      0.8183        -1.93          
137.0932      0.81831       -1.94          
137.6931      0.81833       -1.95          
138.2931      0.81838       -1.96          
138.8931      0.81836       -1.97          
139.4930      0.81837       -1.98          
140.0930      0.81835       -1.99          
140.6930      0.81831       -1.99          
141.2930      0.81831       -2.00          
141.8929      0.81836       -2.01          
142.4929      0.81835       -2.02          
143.0929      0.81835       -2.03          
143.6928      0.81836       -2.04          
144.2928      0.81838       -2.05          
144.8928      0.81835       -2.06          
145.4927      0.81834       -2.07          
146.0927      0.81831       -2.07          
146.6927      0.81836       -2.08          
147.2927      0.81832       -2.09          
147.8926      0.81839       -2.10          
148.4926      0.81841       -2.11          
149.0926      0.81839       -2.12          
149.6925      0.81837       -2.12          
150.2925      0.81839       -2.13          
150.8925      0.81839       -2.14          
151.4924      0.81843       -2.15          
152.0924      0.81841       -2.16          
152.6924      0.81844       -2.17          
153.2924      0.81846       -2.18          
153.8923      0.81843       -2.18          
154.4923      0.81844       -2.20          
155.0923      0.81846       -2.20          
155.6922      0.81839       -2.21          
156.2922      0.8184        -2.23          
156.8922      0.81838       -2.23          
157.4921      0.81841       -2.24          
158.0921      0.81843       -2.25          
158.6921      0.8184        -2.26          
159.2921      0.8184        -2.27          
159.8920      0.81845       -2.28          
160.4920      0.81844       -2.29          
161.0920      0.81846       -2.30          
161.6919      0.8185        -2.30          
162.2919      0.81851       -2.31          
162.8919      0.81853       -2.32          
163.4918      0.81851       -2.33          
164.0918      0.81856       -2.34          
164.6918      0.81856       -2.34          
165.2918      0.8185        -2.35          
165.8917      0.81856       -2.36          
166.4917      0.8185        -2.37          
167.0917      0.81849       -2.38          
167.6916      0.81847       -2.38          
168.2916      0.81849       -2.40          
168.8916      0.81844       -2.40          
169.4915      0.81848       -2.42          
170.0915      0.81848       -2.42          
170.6915      0.8185        -2.43          
171.2915      0.81851       -2.44          
171.8914      0.81851       -2.45          
172.4914      0.81848       -2.46          
173.0914      0.81846       -2.46          
173.6913      0.81845       -2.47          
174.2913      0.81848       -2.48          
174.8913      0.81844       -2.49          
175.4912      0.81848       -2.50          
176.0912      0.8185        -2.51          
176.6912      0.81851       -2.52          
177.2912      0.81856       -2.52          
177.8911      0.81859       -2.53          
178.4911      0.8185        -2.54          
179.0911      0.81857       -2.55          
179.6910      0.81855       -2.56          
180.2910      0.81858       -2.57          
180.8910      0.81859       -2.58          
181.4909      0.81864       -2.59          
182.0909      0.81861       -2.59          
182.6909      0.81863       -2.60          
183.2909      0.81862       -2.61          
183.8908      0.8186        -2.62          
184.4908      0.81859       -2.63          
185.0908      0.81855       -2.64          
185.6907      0.81854       -2.64          
186.2907      0.81851       -2.65          
186.8907      0.81851       -2.67          
187.4906      0.81849       -2.68          
188.0906      0.8185        -2.68          
188.6906      0.81855       -2.69          
189.2906      0.81855       -2.69          
189.8905      0.81857       -2.71          
190.4905      0.81854       -2.71          
191.0905      0.81849       -2.72          
191.6904      0.81853       -2.73          
192.2904      0.81853       -2.74          
192.8904      0.81856       -2.74          
193.4903      0.81862       -2.75          
194.0903      0.81864       -2.76          
194.6903      0.81864       -2.77          
195.2903      0.81866       -2.78          
195.8902      0.81863       -2.79          
196.4902      0.81862       -2.80          
197.0902      0.81858       -2.80          
197.6901      0.81864       -2.81          
198.2901      0.81858       -2.82          
198.8901      0.81864       -2.83          
199.4900      0.81864       -2.84          
200.0900      0.81855       -2.85          
200.6900      0.81861       -2.86          
201.2900      0.81856       -2.86          
201.8899      0.81857       -2.88          
202.4899      0.81857       -2.89          
203.0899      0.81856       -2.89          
203.6898      0.81863       -2.90          
204.2898      0.81859       -2.91          
204.8898      0.8186        -2.91          
205.4897      0.81857       -2.92          
206.0897      0.81854       -2.93          
206.6897      0.81856       -2.94          
207.2897      0.81863       -2.95          
207.8896      0.81856       -2.96          
208.4896      0.81864       -2.97          
209.0896      0.81871       -2.98          
209.6895      0.81877       -2.99          
210.2895      0.81871       -2.99          
210.8895      0.81873       -3.00          
211.4894      0.81872       -3.01          
212.0894      0.81871       -3.02          
212.6894      0.81872       -3.03          
213.2894      0.81879       -3.04          
213.8893      0.81873       -3.04          
214.4893      0.81868       -3.06          
215.0893      0.81874       -3.06          
215.6892      0.81874       -3.07          
216.2892      0.81877       -3.08          
216.8892      0.81873       -3.09          
217.4891      0.81868       -3.10          
218.0891      0.81868       -3.11          
218.6891      0.8187        -3.12          
219.2891      0.8187        -3.13          
219.8890      0.81873       -3.13          
220.4890      0.81874       -3.14          
221.0890      0.81875       -3.15          
221.6889      0.81875       -3.16          
222.2889      0.8188        -3.16          
222.8889      0.81876       -3.17          
223.4888      0.81881       -3.18          
224.0888      0.81883       -3.19          
224.6888      0.81889       -3.20          
225.2888      0.81887       -3.21          
225.8887      0.81891       -3.22          
226.4887      0.8189        -3.23          
227.0887      0.81892       -3.23          
227.6886      0.81894       -3.24          
228.2886      0.81891       -3.25          
228.8886      0.8189        -3.26          
229.4885      0.81891       -3.26          
230.0885      0.81885       -3.27          
230.6885      0.81891       -3.28          
231.2885      0.8189        -3.29          
231.8884      0.81889       -3.30          
232.4884      0.81888       -3.31          
233.0884      0.81893       -3.32          
233.6883      0.81892       -3.32          
234.2883      0.81899       -3.33          
234.8883      0.819         -3.34          
235.4882      0.81898       -3.35          
236.0882      0.81901       -3.36          
236.6882      0.81906       -3.37          
237.2882      0.81909       -3.37          
237.8881      0.81906       -3.38          
238.4881      0.81912       -3.39          
239.0881      0.81911       -3.40          
239.6880      0.81913       -3.42          
240.2880      0.81911       -3.43          
240.8880      0.81911       -3.44          
241.4879      0.81904       -3.46          
242.0879      0.81897       -3.47          
242.6879      0.81886       -3.48          
243.2879      0.81885       -3.48          
243.8878      0.81882       -3.48          
244.4878      0.8188        -3.49          
245.0878      0.81877       -3.50          
245.6877      0.81874       -3.50          
246.2877      0.81876       -3.51          
246.8877      0.81876       -3.52          
247.4876      0.81875       -3.52          
248.0876      0.81877       -3.53          
248.6876      0.81873       -3.54          
249.2876      0.81875       -3.55          
249.8875      0.81875       -3.56          
250.4875      0.81873       -3.56          
251.0875      0.81872       -3.57          
251.6874      0.81869       -3.58          
252.2874      0.81867       -3.58          
252.8874      0.81875       -3.59          
253.4873      0.81871       -3.60          
254.0873      0.81874       -3.61          
254.6873      0.81876       -3.62          
255.2873      0.81871       -3.63          
255.8872      0.81865       -3.64          
256.4872      0.8187        -3.64          
257.0872      0.81874       -3.65          
257.6871      0.81875       -3.66          
258.2871      0.81869       -3.67          
258.8871      0.81869       -3.67          
259.4870      0.81868       -3.68          
260.0870      0.81872       -3.68          
260.6870      0.8187        -3.69          
261.2870      0.81869       -3.70          
261.8869      0.81867       -3.71          
262.4869      0.81865       -3.72          
263.0869      0.81858       -3.72          
263.6868      0.8186        -3.73          
264.2868      0.81858       -3.74          
264.8868      0.81856       -3.75          
