!    3/12/2021   10:10:09 
! Ref Plane: 23.990 mm
# MHZ S MA R  50
!
0.3000        0.82023       0.01           
0.9000        0.81724       0.04           
1.4999        0.81741       0.02           
2.0999        0.81745       0.00           
2.6999        0.81743       -0.01          
3.2999        0.81749       -0.02          
3.8998        0.81755       -0.03          
4.4998        0.81755       -0.05          
5.0998        0.81759       -0.06          
5.6997        0.81763       -0.07          
6.2997        0.81763       -0.08          
6.8997        0.81764       -0.09          
7.4996        0.81766       -0.10          
8.0996        0.81767       -0.11          
8.6996        0.81765       -0.12          
9.2996        0.8177        -0.13          
9.8995        0.81766       -0.14          
10.4995       0.81768       -0.15          
11.0995       0.8177        -0.15          
11.6994       0.81772       -0.17          
12.2994       0.81769       -0.18          
12.8994       0.81776       -0.18          
13.4993       0.81771       -0.19          
14.0993       0.81771       -0.20          
14.6993       0.81766       -0.21          
15.2993       0.81761       -0.22          
15.8992       0.81768       -0.22          
16.4992       0.81771       -0.23          
17.0992       0.81771       -0.24          
17.6991       0.81769       -0.25          
18.2991       0.8177        -0.26          
18.8991       0.81769       -0.27          
19.4990       0.81771       -0.28          
20.0990       0.81772       -0.29          
20.6990       0.81766       -0.30          
21.2990       0.8177        -0.31          
21.8989       0.81775       -0.32          
22.4989       0.81774       -0.33          
23.0989       0.81783       -0.34          
23.6988       0.81774       -0.34          
24.2988       0.81775       -0.36          
24.8988       0.81778       -0.37          
25.4987       0.81778       -0.38          
26.0987       0.81777       -0.39          
26.6987       0.81779       -0.40          
27.2987       0.8178        -0.41          
27.8986       0.81784       -0.41          
28.4986       0.81781       -0.42          
29.0986       0.81787       -0.43          
29.6985       0.81781       -0.44          
30.2985       0.81791       -0.45          
30.8985       0.81785       -0.45          
31.4984       0.81775       -0.46          
32.0984       0.81787       -0.47          
32.6984       0.81787       -0.48          
33.2984       0.81787       -0.49          
33.8983       0.81785       -0.49          
34.4983       0.81792       -0.51          
35.0983       0.81791       -0.51          
35.6982       0.81786       -0.52          
36.2982       0.81792       -0.53          
36.8982       0.81785       -0.54          
37.4981       0.81795       -0.55          
38.0981       0.81788       -0.56          
38.6981       0.81792       -0.57          
39.2981       0.81792       -0.58          
39.8980       0.81794       -0.59          
40.4980       0.81792       -0.60          
41.0980       0.81797       -0.61          
41.6979       0.81798       -0.62          
42.2979       0.81794       -0.63          
42.8979       0.81796       -0.64          
43.4978       0.81792       -0.65          
44.0978       0.81797       -0.65          
44.6978       0.81797       -0.66          
45.2978       0.81797       -0.67          
45.8977       0.81795       -0.68          
46.4977       0.81798       -0.68          
47.0977       0.81804       -0.69          
47.6976       0.81799       -0.70          
48.2976       0.818         -0.70          
48.8976       0.81801       -0.72          
49.4975       0.81805       -0.73          
50.0975       0.81801       -0.74          
50.6975       0.81805       -0.75          
51.2975       0.818         -0.76          
51.8974       0.81805       -0.77          
52.4974       0.81806       -0.78          
53.0974       0.81806       -0.80          
53.6973       0.81808       -0.81          
54.2973       0.81808       -0.93          
54.8973       0.81804       -0.83          
55.4972       0.81803       -0.83          
56.0972       0.81806       -0.84          
56.6972       0.81804       -0.85          
57.2972       0.81802       -0.86          
57.8971       0.81807       -0.86          
58.4971       0.81809       -0.88          
59.0971       0.81811       -0.88          
59.6970       0.8181        -0.89          
60.2970       0.81809       -0.90          
60.8970       0.81814       -0.91          
61.4969       0.81807       -0.92          
62.0969       0.8181        -0.92          
62.6969       0.81813       -0.93          
63.2969       0.81811       -0.95          
63.8968       0.81811       -0.95          
64.4968       0.81816       -0.96          
65.0968       0.81814       -0.97          
65.6967       0.81819       -0.98          
66.2967       0.81817       -0.99          
66.8967       0.81813       -1.00          
67.4966       0.81815       -1.01          
68.0966       0.81813       -1.02          
68.6966       0.81811       -1.03          
69.2966       0.81814       -1.03          
69.8965       0.8181        -1.05          
70.4965       0.81811       -1.06          
71.0965       0.81812       -1.07          
71.6964       0.81818       -1.08          
72.2964       0.81819       -1.08          
72.8964       0.81816       -1.09          
73.4963       0.81815       -1.10          
74.0963       0.81819       -1.11          
74.6963       0.81816       -1.12          
75.2963       0.81816       -1.13          
75.8962       0.81809       -1.13          
76.4962       0.81817       -1.14          
77.0962       0.81817       -1.15          
77.6961       0.81812       -1.16          
78.2961       0.81815       -1.17          
78.8961       0.81813       -1.18          
79.4960       0.81815       -1.19          
80.0960       0.81817       -1.20          
80.6960       0.81818       -1.21          
81.2960       0.81819       -1.22          
81.8959       0.81815       -1.23          
82.4959       0.81817       -1.24          
83.0959       0.81822       -1.25          
83.6958       0.81813       -1.26          
84.2958       0.81809       -1.26          
84.8958       0.81814       -1.28          
85.4957       0.81816       -1.29          
86.0957       0.81815       -1.30          
86.6957       0.81819       -1.32          
87.2957       0.81811       -1.32          
87.8956       0.81816       -1.33          
88.4956       0.81812       -1.34          
89.0956       0.81814       -1.34          
89.6955       0.81812       -1.35          
90.2955       0.81816       -1.36          
90.8955       0.81807       -1.37          
91.4954       0.81809       -1.37          
92.0954       0.81809       -1.38          
92.6954       0.81808       -1.39          
93.2954       0.81816       -1.40          
93.8953       0.81819       -1.42          
94.4953       0.81823       -1.43          
95.0953       0.81819       -1.44          
95.6952       0.81822       -1.45          
96.2952       0.81828       -1.46          
96.8952       0.81822       -1.47          
97.4951       0.81825       -1.48          
98.0951       0.81826       -1.48          
98.6951       0.81825       -1.49          
99.2951       0.81824       -1.50          
99.8950       0.81832       -1.51          
100.4950      0.81823       -1.52          
101.0950      0.81825       -1.53          
101.6949      0.81821       -1.55          
102.2949      0.81825       -1.55          
102.8949      0.81816       -1.56          
103.4948      0.81812       -1.57          
104.0948      0.81813       -1.58          
104.6948      0.81812       -1.59          
105.2948      0.81817       -1.60          
105.8947      0.81816       -1.61          
106.4947      0.81812       -1.62          
107.0947      0.81813       -1.62          
107.6946      0.81809       -1.63          
108.2946      0.81812       -1.64          
108.8946      0.81814       -1.65          
109.4945      0.81817       -1.66          
110.0945      0.81821       -1.67          
110.6945      0.81819       -1.68          
111.2945      0.81823       -1.69          
111.8944      0.81825       -1.70          
112.4944      0.81824       -1.71          
113.0944      0.81824       -1.72          
113.6943      0.81827       -1.73          
114.2943      0.81828       -1.74          
114.8943      0.81822       -1.75          
115.4942      0.81831       -1.76          
116.0942      0.81828       -1.77          
116.6942      0.81825       -1.77          
117.2942      0.81824       -1.78          
117.8941      0.81823       -1.79          
118.4941      0.81826       -1.80          
119.0941      0.81825       -1.81          
119.6940      0.81817       -1.82          
120.2940      0.81822       -1.83          
120.8940      0.81822       -1.84          
121.4939      0.81815       -1.85          
122.0939      0.81815       -1.86          
122.6939      0.8182        -1.87          
123.2939      0.81819       -1.88          
123.8938      0.81817       -1.90          
124.4938      0.81821       -1.90          
125.0938      0.81818       -1.91          
125.6937      0.8182        -1.92          
126.2937      0.81821       -1.93          
126.8937      0.81822       -1.94          
127.4936      0.81826       -1.95          
128.0936      0.81824       -1.96          
128.6936      0.81828       -1.97          
129.2936      0.81824       -1.98          
129.8935      0.81826       -1.99          
130.4935      0.81825       -2.00          
131.0935      0.81831       -2.01          
131.6934      0.8183        -2.02          
132.2934      0.81831       -2.03          
132.8934      0.81823       -2.04          
133.4933      0.81822       -2.04          
134.0933      0.8182        -2.05          
134.6933      0.81823       -2.07          
135.2933      0.81824       -2.07          
135.8932      0.81819       -2.08          
136.4932      0.81818       -2.09          
137.0932      0.81821       -2.11          
137.6931      0.81821       -2.12          
138.2931      0.81827       -2.13          
138.8931      0.81824       -2.13          
139.4930      0.81823       -2.15          
140.0930      0.81824       -2.16          
140.6930      0.8182        -2.16          
141.2930      0.81823       -2.17          
141.8929      0.81826       -2.18          
142.4929      0.81824       -2.19          
143.0929      0.81825       -2.21          
143.6928      0.81824       -2.22          
144.2928      0.81822       -2.23          
144.8928      0.81819       -2.24          
145.4927      0.81818       -2.25          
146.0927      0.81817       -2.25          
146.6927      0.81821       -2.26          
147.2927      0.81822       -2.27          
147.8926      0.8183        -2.28          
148.4926      0.81824       -2.29          
149.0926      0.81832       -2.30          
149.6925      0.81832       -2.31          
150.2925      0.81826       -2.32          
150.8925      0.81829       -2.33          
151.4924      0.81829       -2.34          
152.0924      0.81826       -2.35          
152.6924      0.81831       -2.36          
153.2924      0.81828       -2.37          
153.8923      0.81833       -2.38          
154.4923      0.81831       -2.39          
155.0923      0.8183        -2.40          
155.6922      0.8183        -2.41          
156.2922      0.81832       -2.43          
156.8922      0.81829       -2.44          
157.4921      0.81828       -2.44          
158.0921      0.81828       -2.45          
158.6921      0.81833       -2.46          
159.2921      0.81826       -2.47          
159.8920      0.81831       -2.49          
160.4920      0.81829       -2.50          
161.0920      0.81831       -2.51          
161.6919      0.81838       -2.52          
162.2919      0.81837       -2.53          
162.8919      0.81841       -2.54          
163.4918      0.81837       -2.54          
164.0918      0.81844       -2.55          
164.6918      0.8184        -2.56          
165.2918      0.81836       -2.57          
165.8917      0.81837       -2.58          
166.4917      0.81842       -2.59          
167.0917      0.81837       -2.60          
167.6916      0.81833       -2.61          
168.2916      0.81836       -2.62          
168.8916      0.81833       -2.63          
169.4915      0.81833       -2.64          
170.0915      0.81834       -2.65          
170.6915      0.81838       -2.66          
171.2915      0.81838       -2.67          
171.8914      0.81836       -2.68          
172.4914      0.81833       -2.69          
173.0914      0.81831       -2.70          
173.6913      0.81833       -2.71          
174.2913      0.81834       -2.71          
174.8913      0.81832       -2.72          
175.4912      0.81835       -2.74          
176.0912      0.81834       -2.74          
176.6912      0.81835       -2.76          
177.2912      0.81841       -2.77          
177.8911      0.81842       -2.78          
178.4911      0.8184        -2.79          
179.0911      0.81845       -2.79          
179.6910      0.81843       -2.80          
180.2910      0.81847       -2.81          
180.8910      0.81846       -2.83          
181.4909      0.8185        -2.83          
182.0909      0.81849       -2.84          
182.6909      0.81845       -2.85          
183.2909      0.81847       -2.86          
183.8908      0.81848       -2.88          
184.4908      0.81847       -2.88          
185.0908      0.8184        -2.89          
185.6907      0.81841       -2.90          
186.2907      0.81836       -2.91          
186.8907      0.81839       -2.92          
187.4906      0.81836       -2.93          
188.0906      0.81842       -2.94          
188.6906      0.81845       -2.95          
189.2906      0.81842       -2.95          
189.8905      0.81837       -2.97          
190.4905      0.81839       -2.98          
191.0905      0.8184        -2.98          
191.6904      0.81841       -2.99          
192.2904      0.81842       -3.00          
192.8904      0.81845       -3.01          
193.4903      0.81849       -3.02          
194.0903      0.81852       -3.03          
194.6903      0.81852       -3.04          
195.2903      0.81853       -3.05          
195.8902      0.81853       -3.06          
196.4902      0.81855       -3.07          
197.0902      0.8185        -3.08          
197.6901      0.81849       -3.09          
198.2901      0.81847       -3.10          
198.8901      0.81854       -3.11          
199.4900      0.81852       -3.12          
200.0900      0.81844       -3.13          
200.6900      0.81849       -3.13          
201.2900      0.81848       -3.15          
201.8899      0.81844       -3.16          
202.4899      0.81845       -3.17          
203.0899      0.81845       -3.18          
203.6898      0.81849       -3.19          
204.2898      0.81844       -3.19          
204.8898      0.8185        -3.20          
205.4897      0.81843       -3.21          
206.0897      0.8184        -3.22          
206.6897      0.81844       -3.23          
207.2897      0.81852       -3.24          
207.8896      0.8185        -3.25          
208.4896      0.81851       -3.26          
209.0896      0.81862       -3.28          
209.6895      0.81863       -3.28          
210.2895      0.8186        -3.29          
210.8895      0.81864       -3.30          
211.4894      0.81865       -3.31          
212.0894      0.81866       -3.32          
212.6894      0.81867       -3.33          
213.2894      0.81868       -3.34          
213.8893      0.81865       -3.35          
214.4893      0.81856       -3.36          
215.0893      0.81863       -3.36          
215.6892      0.81863       -3.38          
216.2892      0.81864       -3.38          
216.8892      0.81866       -3.40          
217.4891      0.81858       -3.41          
218.0891      0.81862       -3.42          
218.6891      0.81857       -3.42          
219.2891      0.81863       -3.44          
219.8890      0.81864       -3.44          
220.4890      0.81866       -3.45          
221.0890      0.8187        -3.46          
221.6889      0.81867       -3.47          
222.2889      0.81872       -3.48          
222.8889      0.81869       -3.49          
223.4888      0.81869       -3.50          
224.0888      0.81873       -3.51          
224.6888      0.81878       -3.52          
225.2888      0.81877       -3.53          
225.8887      0.81884       -3.54          
226.4887      0.81882       -3.55          
227.0887      0.81879       -3.56          
227.6886      0.81883       -3.57          
228.2886      0.81883       -3.57          
228.8886      0.81884       -3.58          
229.4885      0.81883       -3.59          
230.0885      0.81884       -3.60          
230.6885      0.81882       -3.61          
231.2885      0.81882       -3.62          
231.8884      0.81881       -3.63          
232.4884      0.81884       -3.64          
233.0884      0.81889       -3.65          
233.6883      0.81885       -3.66          
234.2883      0.81895       -3.67          
234.8883      0.81894       -3.68          
235.4882      0.81893       -3.69          
236.0882      0.81895       -3.70          
236.6882      0.81902       -3.71          
237.2882      0.81901       -3.72          
237.8881      0.81903       -3.73          
238.4881      0.81903       -3.75          
239.0881      0.81899       -3.76          
239.6880      0.81893       -3.77          
240.2880      0.81892       -3.79          
240.8880      0.8188        -3.79          
241.4879      0.81877       -3.80          
242.0879      0.81873       -3.81          
242.6879      0.81867       -3.82          
243.2879      0.81869       -3.82          
243.8878      0.81871       -3.83          
244.4878      0.81868       -3.84          
245.0878      0.81871       -3.84          
245.6877      0.81868       -3.85          
246.2877      0.81866       -3.86          
246.8877      0.81867       -3.87          
247.4876      0.81865       -3.87          
248.0876      0.81869       -3.88          
248.6876      0.81867       -3.90          
249.2876      0.8187        -3.91          
249.8875      0.81869       -3.91          
250.4875      0.81863       -3.92          
251.0875      0.81868       -3.93          
251.6874      0.81861       -3.94          
252.2874      0.8186        -3.95          
252.8874      0.81866       -3.96          
253.4873      0.81867       -3.97          
254.0873      0.81866       -3.98          
254.6873      0.81865       -3.99          
255.2873      0.81863       -4.00          
255.8872      0.81861       -4.01          
256.4872      0.81864       -4.01          
257.0872      0.81866       -4.02          
257.6871      0.81868       -4.03          
258.2871      0.81864       -4.04          
258.8871      0.81863       -4.05          
259.4870      0.8186        -4.06          
260.0870      0.81867       -4.06          
260.6870      0.81861       -4.07          
261.2870      0.81865       -4.08          
261.8869      0.8186        -4.09          
262.4869      0.8186        -4.10          
263.0869      0.81859       -4.10          
263.6868      0.81857       -4.11          
264.2868      0.81851       -4.12          
264.8868      0.81854       -4.13          
