!    3/12/2021   06:29:33 
! Ref Plane: 23.990 mm
# MHZ S MA R  50
!
0.3000        0.82039       0.05           
0.9000        0.81712       0.04           
1.4999        0.81716       0.01           
2.0999        0.81722       0.00           
2.6999        0.81726       -0.02          
3.2999        0.81731       -0.02          
3.8998        0.8174        -0.04          
4.4998        0.81737       -0.05          
5.0998        0.81739       -0.07          
5.6997        0.81748       -0.08          
6.2997        0.81747       -0.09          
6.8997        0.81749       -0.10          
7.4996        0.81747       -0.11          
8.0996        0.81748       -0.12          
8.6996        0.81745       -0.14          
9.2996        0.81752       -0.14          
9.8995        0.8175        -0.15          
10.4995       0.81748       -0.16          
11.0995       0.81744       -0.17          
11.6994       0.81754       -0.19          
12.2994       0.81753       -0.20          
12.8994       0.81757       -0.20          
13.4993       0.81754       -0.21          
14.0993       0.81754       -0.22          
14.6993       0.8175        -0.23          
15.2993       0.81746       -0.25          
15.8992       0.8175        -0.25          
16.4992       0.81751       -0.26          
17.0992       0.81752       -0.27          
17.6991       0.81751       -0.28          
18.2991       0.81746       -0.29          
18.8991       0.81752       -0.31          
19.4990       0.81752       -0.32          
20.0990       0.81755       -0.33          
20.6990       0.81751       -0.34          
21.2990       0.8175        -0.35          
21.8989       0.81751       -0.36          
22.4989       0.81753       -0.37          
23.0989       0.81761       -0.38          
23.6988       0.81753       -0.39          
24.2988       0.81757       -0.41          
24.8988       0.81753       -0.42          
25.4987       0.81753       -0.42          
26.0987       0.81757       -0.43          
26.6987       0.81758       -0.45          
27.2987       0.81758       -0.46          
27.8986       0.81766       -0.47          
28.4986       0.81763       -0.47          
29.0986       0.81768       -0.49          
29.6985       0.81757       -0.49          
30.2985       0.81766       -0.50          
30.8985       0.81764       -0.51          
31.4984       0.81755       -0.52          
32.0984       0.8176        -0.53          
32.6984       0.81768       -0.54          
33.2984       0.8177        -0.55          
33.8983       0.81765       -0.56          
34.4983       0.81766       -0.57          
35.0983       0.81766       -0.58          
35.6982       0.81768       -0.59          
36.2982       0.81768       -0.60          
36.8982       0.81767       -0.61          
37.4981       0.81771       -0.62          
38.0981       0.81766       -0.63          
38.6981       0.81767       -0.64          
39.2981       0.8177        -0.65          
39.8980       0.81772       -0.66          
40.4980       0.81769       -0.68          
41.0980       0.81772       -0.68          
41.6979       0.81774       -0.70          
42.2979       0.81769       -0.71          
42.8979       0.81771       -0.72          
43.4978       0.81768       -0.73          
44.0978       0.81772       -0.74          
44.6978       0.81775       -0.74          
45.2978       0.81775       -0.75          
45.8977       0.81774       -0.76          
46.4977       0.81773       -0.77          
47.0977       0.81781       -0.78          
47.6976       0.81779       -0.78          
48.2976       0.81777       -0.80          
48.8976       0.81776       -0.81          
49.4975       0.81781       -0.82          
50.0975       0.81779       -0.83          
50.6975       0.81785       -0.84          
51.2975       0.81781       -0.86          
51.8974       0.81786       -0.87          
52.4974       0.81786       -0.88          
53.0974       0.8178        -0.90          
53.6973       0.81786       -0.91          
54.2973       0.81787       -1.04          
54.8973       0.8178        -0.93          
55.4972       0.81775       -0.93          
56.0972       0.8178        -0.95          
56.6972       0.8178        -0.96          
57.2972       0.81781       -0.97          
57.8971       0.81778       -0.97          
58.4971       0.81783       -0.98          
59.0971       0.81784       -0.99          
59.6970       0.81786       -1.00          
60.2970       0.81785       -1.01          
60.8970       0.8179        -1.02          
61.4969       0.81785       -1.03          
62.0969       0.81785       -1.04          
62.6969       0.81789       -1.05          
63.2969       0.81787       -1.06          
63.8968       0.81789       -1.07          
64.4968       0.81789       -1.08          
65.0968       0.8179        -1.09          
65.6967       0.81792       -1.10          
66.2967       0.81793       -1.11          
66.8967       0.81786       -1.12          
67.4966       0.81789       -1.13          
68.0966       0.81787       -1.14          
68.6966       0.81787       -1.15          
69.2966       0.81784       -1.16          
69.8965       0.81785       -1.18          
70.4965       0.81783       -1.19          
71.0965       0.81784       -1.20          
71.6964       0.81793       -1.21          
72.2964       0.81793       -1.22          
72.8964       0.81791       -1.23          
73.4963       0.81787       -1.24          
74.0963       0.81791       -1.25          
74.6963       0.81789       -1.25          
75.2963       0.81789       -1.26          
75.8962       0.81787       -1.28          
76.4962       0.81789       -1.28          
77.0962       0.81793       -1.30          
77.6961       0.81791       -1.30          
78.2961       0.81786       -1.31          
78.8961       0.81782       -1.32          
79.4960       0.81792       -1.34          
80.0960       0.81786       -1.35          
80.6960       0.81791       -1.36          
81.2960       0.81789       -1.37          
81.8959       0.81787       -1.38          
82.4959       0.81786       -1.39          
83.0959       0.81793       -1.40          
83.6958       0.81789       -1.41          
84.2958       0.81785       -1.42          
84.8958       0.81787       -1.43          
85.4957       0.81788       -1.45          
86.0957       0.81785       -1.46          
86.6957       0.81792       -1.47          
87.2957       0.81782       -1.48          
87.8956       0.81785       -1.49          
88.4956       0.81783       -1.50          
89.0956       0.81785       -1.51          
89.6955       0.81786       -1.51          
90.2955       0.81786       -1.52          
90.8955       0.81786       -1.53          
91.4954       0.81777       -1.54          
92.0954       0.81776       -1.55          
92.6954       0.81776       -1.56          
93.2954       0.81782       -1.57          
93.8953       0.81787       -1.59          
94.4953       0.8179        -1.60          
95.0953       0.81786       -1.61          
95.6952       0.8179        -1.62          
96.2952       0.81794       -1.63          
96.8952       0.81795       -1.64          
97.4951       0.81792       -1.65          
98.0951       0.81791       -1.66          
98.6951       0.81792       -1.67          
99.2951       0.81789       -1.68          
99.8950       0.818         -1.69          
100.4950      0.81794       -1.70          
101.0950      0.81795       -1.71          
101.6949      0.81788       -1.73          
102.2949      0.81794       -1.74          
102.8949      0.81785       -1.74          
103.4948      0.81783       -1.75          
104.0948      0.81784       -1.76          
104.6948      0.8178        -1.78          
105.2948      0.81784       -1.78          
105.8947      0.81786       -1.79          
106.4947      0.81786       -1.81          
107.0947      0.8178        -1.81          
107.6946      0.81778       -1.82          
108.2946      0.81777       -1.83          
108.8946      0.81782       -1.84          
109.4945      0.81785       -1.86          
110.0945      0.81787       -1.87          
110.6945      0.81785       -1.87          
111.2945      0.8179        -1.88          
111.8944      0.81795       -1.90          
112.4944      0.8179        -1.90          
113.0944      0.8179        -1.91          
113.6943      0.81791       -1.93          
114.2943      0.81794       -1.94          
114.8943      0.81792       -1.95          
115.4942      0.81798       -1.96          
116.0942      0.81795       -1.97          
116.6942      0.81794       -1.98          
117.2942      0.81791       -1.99          
117.8941      0.8179        -2.00          
118.4941      0.8179        -2.01          
119.0941      0.81792       -2.02          
119.6940      0.81785       -2.03          
120.2940      0.81786       -2.04          
120.8940      0.81784       -2.05          
121.4939      0.81781       -2.06          
122.0939      0.81784       -2.08          
122.6939      0.81781       -2.09          
123.2939      0.81785       -2.10          
123.8938      0.81783       -2.11          
124.4938      0.81789       -2.12          
125.0938      0.81784       -2.13          
125.6937      0.81785       -2.14          
126.2937      0.81788       -2.15          
126.8937      0.81784       -2.16          
127.4936      0.81789       -2.17          
128.0936      0.81794       -2.18          
128.6936      0.81791       -2.20          
129.2936      0.81787       -2.21          
129.8935      0.81786       -2.21          
130.4935      0.81788       -2.22          
131.0935      0.81793       -2.24          
131.6934      0.81792       -2.24          
132.2934      0.81791       -2.25          
132.8934      0.81788       -2.26          
133.4933      0.81783       -2.27          
134.0933      0.81786       -2.28          
134.6933      0.81785       -2.30          
135.2933      0.81786       -2.30          
135.8932      0.81783       -2.32          
136.4932      0.81786       -2.33          
137.0932      0.81789       -2.34          
137.6931      0.81786       -2.35          
138.2931      0.81787       -2.36          
138.8931      0.81786       -2.37          
139.4930      0.81785       -2.39          
140.0930      0.81785       -2.39          
140.6930      0.81785       -2.40          
141.2930      0.81786       -2.41          
141.8929      0.81786       -2.43          
142.4929      0.81788       -2.44          
143.0929      0.81785       -2.45          
143.6928      0.81783       -2.46          
144.2928      0.81786       -2.47          
144.8928      0.81783       -2.48          
145.4927      0.81781       -2.49          
146.0927      0.81777       -2.50          
146.6927      0.81782       -2.51          
147.2927      0.81787       -2.52          
147.8926      0.81789       -2.53          
148.4926      0.81789       -2.55          
149.0926      0.81789       -2.55          
149.6925      0.8179        -2.56          
150.2925      0.81794       -2.58          
150.8925      0.81787       -2.58          
151.4924      0.81792       -2.60          
152.0924      0.81791       -2.61          
152.6924      0.81793       -2.62          
153.2924      0.81788       -2.63          
153.8923      0.8179        -2.64          
154.4923      0.81791       -2.65          
155.0923      0.81791       -2.66          
155.6922      0.81791       -2.67          
156.2922      0.81788       -2.69          
156.8922      0.81786       -2.70          
157.4921      0.81784       -2.71          
158.0921      0.8179        -2.72          
158.6921      0.81788       -2.73          
159.2921      0.8179        -2.74          
159.8920      0.81789       -2.75          
160.4920      0.81792       -2.77          
161.0920      0.81793       -2.78          
161.6919      0.81801       -2.79          
162.2919      0.81801       -2.80          
162.8919      0.81801       -2.81          
163.4918      0.81798       -2.82          
164.0918      0.81798       -2.83          
164.6918      0.818         -2.83          
165.2918      0.81795       -2.85          
165.8917      0.81799       -2.86          
166.4917      0.81797       -2.87          
167.0917      0.81797       -2.88          
167.6916      0.81791       -2.89          
168.2916      0.81792       -2.90          
168.8916      0.81791       -2.91          
169.4915      0.81791       -2.92          
170.0915      0.81794       -2.93          
170.6915      0.81792       -2.94          
171.2915      0.81793       -2.96          
171.8914      0.81794       -2.96          
172.4914      0.81788       -2.98          
173.0914      0.81787       -2.99          
173.6913      0.81791       -3.00          
174.2913      0.8179        -3.01          
174.8913      0.8179        -3.02          
175.4912      0.81791       -3.03          
176.0912      0.81793       -3.04          
176.6912      0.81795       -3.05          
177.2912      0.81796       -3.06          
177.8911      0.818         -3.07          
178.4911      0.81796       -3.08          
179.0911      0.818         -3.09          
179.6910      0.818         -3.10          
180.2910      0.81803       -3.11          
180.8910      0.81805       -3.13          
181.4909      0.81806       -3.13          
182.0909      0.81807       -3.15          
182.6909      0.81805       -3.16          
183.2909      0.81803       -3.17          
183.8908      0.81801       -3.18          
184.4908      0.81801       -3.19          
185.0908      0.81799       -3.20          
185.6907      0.81792       -3.21          
186.2907      0.81793       -3.22          
186.8907      0.81794       -3.23          
187.4906      0.81798       -3.25          
188.0906      0.81796       -3.25          
188.6906      0.81798       -3.26          
189.2906      0.81795       -3.27          
189.8905      0.81797       -3.28          
190.4905      0.81798       -3.29          
191.0905      0.81795       -3.30          
191.6904      0.81802       -3.31          
192.2904      0.81802       -3.32          
192.8904      0.81801       -3.33          
193.4903      0.81806       -3.34          
194.0903      0.81808       -3.36          
194.6903      0.81809       -3.36          
195.2903      0.81811       -3.37          
195.8902      0.81805       -3.38          
196.4902      0.81806       -3.40          
197.0902      0.81802       -3.40          
197.6901      0.81805       -3.42          
198.2901      0.81802       -3.43          
198.8901      0.8181        -3.44          
199.4900      0.81807       -3.45          
200.0900      0.81798       -3.46          
200.6900      0.81804       -3.47          
201.2900      0.818         -3.48          
201.8899      0.81796       -3.49          
202.4899      0.81798       -3.50          
203.0899      0.81798       -3.51          
203.6898      0.81801       -3.53          
204.2898      0.81799       -3.53          
204.8898      0.81803       -3.54          
205.4897      0.81799       -3.55          
206.0897      0.81796       -3.56          
206.6897      0.81798       -3.57          
207.2897      0.81803       -3.59          
207.8896      0.81803       -3.60          
208.4896      0.81806       -3.61          
209.0896      0.8181        -3.62          
209.6895      0.81813       -3.63          
210.2895      0.8181        -3.64          
210.8895      0.81818       -3.65          
211.4894      0.81816       -3.66          
212.0894      0.81818       -3.67          
212.6894      0.8182        -3.68          
213.2894      0.81815       -3.69          
213.8893      0.81816       -3.70          
214.4893      0.81809       -3.71          
215.0893      0.81812       -3.72          
215.6892      0.81812       -3.73          
216.2892      0.81811       -3.74          
216.8892      0.81817       -3.76          
217.4891      0.8181        -3.77          
218.0891      0.81813       -3.78          
218.6891      0.81808       -3.79          
219.2891      0.81812       -3.80          
219.8890      0.81812       -3.81          
220.4890      0.81818       -3.82          
221.0890      0.81823       -3.83          
221.6889      0.81815       -3.84          
222.2889      0.81819       -3.85          
222.8889      0.81821       -3.86          
223.4888      0.81823       -3.87          
224.0888      0.81821       -3.88          
224.6888      0.81831       -3.89          
225.2888      0.81828       -3.90          
225.8887      0.81833       -3.91          
226.4887      0.81832       -3.92          
227.0887      0.81834       -3.93          
227.6886      0.81838       -3.94          
228.2886      0.8183        -3.95          
228.8886      0.81828       -3.96          
229.4885      0.8183        -3.97          
230.0885      0.81828       -3.98          
230.6885      0.81831       -3.99          
231.2885      0.81834       -4.00          
231.8884      0.8183        -4.01          
232.4884      0.8183        -4.02          
233.0884      0.81833       -4.03          
233.6883      0.81832       -4.04          
234.2883      0.81834       -4.06          
234.8883      0.81834       -4.07          
235.4882      0.81832       -4.08          
236.0882      0.81831       -4.09          
236.6882      0.81837       -4.09          
237.2882      0.81835       -4.10          
237.8881      0.81832       -4.11          
238.4881      0.81836       -4.12          
239.0881      0.81836       -4.13          
239.6880      0.81836       -4.15          
240.2880      0.81837       -4.16          
240.8880      0.81836       -4.17          
241.4879      0.8184        -4.18          
242.0879      0.8184        -4.19          
242.6879      0.81843       -4.20          
243.2879      0.81845       -4.21          
243.8878      0.81851       -4.22          
244.4878      0.81852       -4.24          
245.0878      0.8185        -4.25          
245.6877      0.81847       -4.26          
246.2877      0.81842       -4.28          
246.8877      0.81836       -4.29          
247.4876      0.81826       -4.29          
248.0876      0.81822       -4.30          
248.6876      0.8182        -4.32          
249.2876      0.81817       -4.33          
249.8875      0.81816       -4.33          
250.4875      0.8181        -4.34          
251.0875      0.81811       -4.35          
251.6874      0.81807       -4.36          
252.2874      0.81805       -4.37          
252.8874      0.81811       -4.38          
253.4873      0.81809       -4.39          
254.0873      0.8181        -4.40          
254.6873      0.81811       -4.41          
255.2873      0.81812       -4.42          
255.8872      0.81807       -4.43          
256.4872      0.81809       -4.44          
257.0872      0.81811       -4.45          
257.6871      0.8181        -4.45          
258.2871      0.81806       -4.47          
258.8871      0.81807       -4.47          
259.4870      0.81806       -4.48          
260.0870      0.81811       -4.49          
260.6870      0.81808       -4.50          
261.2870      0.8181        -4.51          
261.8869      0.81804       -4.52          
262.4869      0.81808       -4.53          
263.0869      0.818         -4.54          
263.6868      0.818         -4.55          
264.2868      0.81792       -4.55          
264.8868      0.81796       -4.57          
