!    3/12/2021   07:47:54 
! Ref Plane: 23.990 mm
# MHZ S MA R  50
!
0.3000        0.82068       0.05           
0.9000        0.81757       0.09           
1.4999        0.81767       0.07           
2.0999        0.81762       0.05           
2.6999        0.81759       0.04           
3.2999        0.81761       0.03           
3.8998        0.81766       0.01           
4.4998        0.81766       0.00           
5.0998        0.81766       -0.02          
5.6997        0.81769       -0.03          
6.2997        0.81778       -0.04          
6.8997        0.81776       -0.05          
7.4996        0.81776       -0.06          
8.0996        0.81775       -0.08          
8.6996        0.81775       -0.09          
9.2996        0.81779       -0.09          
9.8995        0.81781       -0.11          
10.4995       0.81778       -0.11          
11.0995       0.81779       -0.13          
11.6994       0.81784       -0.14          
12.2994       0.81778       -0.15          
12.8994       0.81782       -0.15          
13.4993       0.8178        -0.17          
14.0993       0.81778       -0.18          
14.6993       0.81779       -0.19          
15.2993       0.81775       -0.20          
15.8992       0.81778       -0.21          
16.4992       0.81777       -0.22          
17.0992       0.81781       -0.22          
17.6991       0.81779       -0.23          
18.2991       0.81774       -0.25          
18.8991       0.81779       -0.26          
19.4990       0.81778       -0.27          
20.0990       0.81779       -0.28          
20.6990       0.81776       -0.29          
21.2990       0.81777       -0.31          
21.8989       0.8178        -0.32          
22.4989       0.81781       -0.33          
23.0989       0.81787       -0.34          
23.6988       0.81781       -0.35          
24.2988       0.81785       -0.36          
24.8988       0.81781       -0.37          
25.4987       0.81783       -0.38          
26.0987       0.81785       -0.39          
26.6987       0.8178        -0.40          
27.2987       0.81786       -0.41          
27.8986       0.81784       -0.42          
28.4986       0.81785       -0.43          
29.0986       0.8179        -0.44          
29.6985       0.8179        -0.45          
30.2985       0.8179        -0.46          
30.8985       0.81787       -0.46          
31.4984       0.81784       -0.48          
32.0984       0.81788       -0.48          
32.6984       0.81793       -0.50          
33.2984       0.81793       -0.51          
33.8983       0.8179        -0.52          
34.4983       0.8179        -0.53          
35.0983       0.81791       -0.54          
35.6982       0.8179        -0.55          
36.2982       0.81795       -0.56          
36.8982       0.81791       -0.56          
37.4981       0.81791       -0.58          
38.0981       0.81788       -0.59          
38.6981       0.81794       -0.60          
39.2981       0.81796       -0.61          
39.8980       0.81791       -0.62          
40.4980       0.8179        -0.63          
41.0980       0.81792       -0.64          
41.6979       0.81795       -0.65          
42.2979       0.81789       -0.66          
42.8979       0.81794       -0.68          
43.4978       0.81795       -0.68          
44.0978       0.81798       -0.69          
44.6978       0.81797       -0.70          
45.2978       0.81801       -0.71          
45.8977       0.81793       -0.72          
46.4977       0.81797       -0.73          
47.0977       0.81799       -0.73          
47.6976       0.818         -0.74          
48.2976       0.81796       -0.75          
48.8976       0.81797       -0.77          
49.4975       0.81801       -0.78          
50.0975       0.818         -0.79          
50.6975       0.81799       -0.80          
51.2975       0.81802       -0.81          
51.8974       0.81801       -0.83          
52.4974       0.81804       -0.83          
53.0974       0.81802       -0.85          
53.6973       0.81805       -0.86          
54.2973       0.81805       -0.95          
54.8973       0.81803       -0.88          
55.4972       0.81802       -0.89          
56.0972       0.81804       -0.90          
56.6972       0.81803       -0.91          
57.2972       0.81803       -0.92          
57.8971       0.81806       -0.93          
58.4971       0.81806       -0.94          
59.0971       0.81807       -0.95          
59.6970       0.81807       -0.96          
60.2970       0.81804       -0.96          
60.8970       0.81807       -0.97          
61.4969       0.81805       -0.98          
62.0969       0.81801       -0.99          
62.6969       0.81806       -1.01          
63.2969       0.81805       -1.02          
63.8968       0.81805       -1.02          
64.4968       0.81806       -1.03          
65.0968       0.81809       -1.04          
65.6967       0.8181        -1.05          
66.2967       0.8181        -1.06          
66.8967       0.81807       -1.07          
67.4966       0.8181        -1.08          
68.0966       0.81809       -1.09          
68.6966       0.81809       -1.10          
69.2966       0.81807       -1.12          
69.8965       0.81809       -1.13          
70.4965       0.81807       -1.14          
71.0965       0.81807       -1.15          
71.6964       0.81814       -1.16          
72.2964       0.81811       -1.17          
72.8964       0.81806       -1.18          
73.4963       0.81805       -1.19          
74.0963       0.81807       -1.20          
74.6963       0.81809       -1.20          
75.2963       0.81808       -1.21          
75.8962       0.81805       -1.22          
76.4962       0.81806       -1.23          
77.0962       0.81808       -1.24          
77.6961       0.81807       -1.25          
78.2961       0.81809       -1.26          
78.8961       0.81801       -1.27          
79.4960       0.81809       -1.28          
80.0960       0.81806       -1.29          
80.6960       0.81811       -1.31          
81.2960       0.81808       -1.31          
81.8959       0.81809       -1.32          
82.4959       0.81801       -1.34          
83.0959       0.81812       -1.35          
83.6958       0.81805       -1.36          
84.2958       0.81799       -1.37          
84.8958       0.81801       -1.38          
85.4957       0.81808       -1.39          
86.0957       0.81803       -1.40          
86.6957       0.81801       -1.41          
87.2957       0.81797       -1.42          
87.8956       0.818         -1.43          
88.4956       0.81798       -1.44          
89.0956       0.81802       -1.45          
89.6955       0.81802       -1.45          
90.2955       0.81804       -1.46          
90.8955       0.81795       -1.47          
91.4954       0.81793       -1.48          
92.0954       0.81788       -1.49          
92.6954       0.81793       -1.50          
93.2954       0.81797       -1.51          
93.8953       0.81801       -1.53          
94.4953       0.81805       -1.54          
95.0953       0.81805       -1.55          
95.6952       0.81807       -1.56          
96.2952       0.81814       -1.57          
96.8952       0.81804       -1.58          
97.4951       0.81806       -1.59          
98.0951       0.81807       -1.60          
98.6951       0.81804       -1.61          
99.2951       0.81808       -1.62          
99.8950       0.81817       -1.63          
100.4950      0.81807       -1.64          
101.0950      0.81802       -1.65          
101.6949      0.81802       -1.66          
102.2949      0.81801       -1.67          
102.8949      0.81797       -1.68          
103.4948      0.81792       -1.69          
104.0948      0.81792       -1.70          
104.6948      0.81794       -1.71          
105.2948      0.81792       -1.72          
105.8947      0.81796       -1.73          
106.4947      0.81791       -1.74          
107.0947      0.81787       -1.75          
107.6946      0.8179        -1.76          
108.2946      0.81789       -1.77          
108.8946      0.81792       -1.78          
109.4945      0.81791       -1.79          
110.0945      0.81792       -1.80          
110.6945      0.81795       -1.81          
111.2945      0.81795       -1.82          
111.8944      0.81797       -1.83          
112.4944      0.81797       -1.84          
113.0944      0.81797       -1.85          
113.6943      0.81801       -1.86          
114.2943      0.81801       -1.87          
114.8943      0.81794       -1.88          
115.4942      0.81802       -1.89          
116.0942      0.81799       -1.90          
116.6942      0.81796       -1.91          
117.2942      0.81796       -1.92          
117.8941      0.81794       -1.93          
118.4941      0.81793       -1.94          
119.0941      0.81791       -1.95          
119.6940      0.81789       -1.96          
120.2940      0.81789       -1.97          
120.8940      0.81785       -1.98          
121.4939      0.81785       -1.99          
122.0939      0.81782       -2.00          
122.6939      0.81787       -2.02          
123.2939      0.81789       -2.02          
123.8938      0.81783       -2.04          
124.4938      0.81791       -2.05          
125.0938      0.81782       -2.06          
125.6937      0.81786       -2.07          
126.2937      0.81786       -2.08          
126.8937      0.81784       -2.09          
127.4936      0.81787       -2.10          
128.0936      0.81789       -2.11          
128.6936      0.81791       -2.12          
129.2936      0.81787       -2.13          
129.8935      0.81789       -2.14          
130.4935      0.81792       -2.15          
131.0935      0.81793       -2.16          
131.6934      0.81788       -2.17          
132.2934      0.8179        -2.18          
132.8934      0.81784       -2.19          
133.4933      0.81784       -2.20          
134.0933      0.81782       -2.21          
134.6933      0.81782       -2.22          
135.2933      0.81783       -2.23          
135.8932      0.81776       -2.24          
136.4932      0.81776       -2.25          
137.0932      0.8178        -2.26          
137.6931      0.81779       -2.27          
138.2931      0.81782       -2.28          
138.8931      0.8178        -2.29          
139.4930      0.81782       -2.31          
140.0930      0.81777       -2.31          
140.6930      0.81772       -2.33          
141.2930      0.81776       -2.33          
141.8929      0.81777       -2.35          
142.4929      0.8178        -2.35          
143.0929      0.81778       -2.37          
143.6928      0.81773       -2.38          
144.2928      0.81775       -2.39          
144.8928      0.81775       -2.40          
145.4927      0.81768       -2.41          
146.0927      0.81767       -2.42          
146.6927      0.81775       -2.43          
147.2927      0.8177        -2.44          
147.8926      0.81777       -2.45          
148.4926      0.81775       -2.47          
149.0926      0.81777       -2.47          
149.6925      0.8178        -2.48          
150.2925      0.81779       -2.49          
150.8925      0.81776       -2.50          
151.4924      0.81779       -2.51          
152.0924      0.81773       -2.53          
152.6924      0.81771       -2.53          
153.2924      0.81771       -2.54          
153.8923      0.81777       -2.56          
154.4923      0.81775       -2.57          
155.0923      0.81776       -2.58          
155.6922      0.81773       -2.59          
156.2922      0.81771       -2.60          
156.8922      0.81764       -2.62          
157.4921      0.81771       -2.62          
158.0921      0.81768       -2.63          
158.6921      0.81775       -2.64          
159.2921      0.81766       -2.66          
159.8920      0.81772       -2.67          
160.4920      0.81772       -2.68          
161.0920      0.81771       -2.69          
161.6919      0.81779       -2.70          
162.2919      0.81772       -2.71          
162.8919      0.81778       -2.72          
163.4918      0.81776       -2.73          
164.0918      0.8178        -2.74          
164.6918      0.81779       -2.75          
165.2918      0.81771       -2.76          
165.8917      0.81775       -2.77          
166.4917      0.81777       -2.78          
167.0917      0.81774       -2.79          
167.6916      0.81768       -2.80          
168.2916      0.8177        -2.81          
168.8916      0.81768       -2.82          
169.4915      0.81771       -2.83          
170.0915      0.81771       -2.84          
170.6915      0.81771       -2.85          
171.2915      0.81769       -2.86          
171.8914      0.8177        -2.87          
172.4914      0.81765       -2.89          
173.0914      0.81761       -2.90          
173.6913      0.81764       -2.90          
174.2913      0.81767       -2.91          
174.8913      0.81762       -2.92          
175.4912      0.81764       -2.93          
176.0912      0.81765       -2.94          
176.6912      0.81768       -2.96          
177.2912      0.81767       -2.97          
177.8911      0.8177        -2.98          
178.4911      0.81767       -2.99          
179.0911      0.8177        -3.00          
179.6910      0.8177        -3.01          
180.2910      0.81774       -3.02          
180.8910      0.81777       -3.03          
181.4909      0.81779       -3.04          
182.0909      0.81777       -3.05          
182.6909      0.81773       -3.06          
183.2909      0.81773       -3.07          
183.8908      0.81775       -3.08          
184.4908      0.81772       -3.09          
185.0908      0.81767       -3.10          
185.6907      0.8176        -3.11          
186.2907      0.81763       -3.12          
186.8907      0.81765       -3.14          
187.4906      0.81759       -3.14          
188.0906      0.81766       -3.15          
188.6906      0.81771       -3.16          
189.2906      0.81763       -3.17          
189.8905      0.81764       -3.18          
190.4905      0.81763       -3.19          
191.0905      0.81764       -3.20          
191.6904      0.81762       -3.21          
192.2904      0.81767       -3.22          
192.8904      0.81769       -3.23          
193.4903      0.81768       -3.24          
194.0903      0.81773       -3.25          
194.6903      0.81773       -3.26          
195.2903      0.81775       -3.27          
195.8902      0.81773       -3.28          
196.4902      0.81774       -3.29          
197.0902      0.81771       -3.30          
197.6901      0.81771       -3.31          
198.2901      0.81769       -3.32          
198.8901      0.81772       -3.33          
199.4900      0.81768       -3.34          
200.0900      0.81762       -3.35          
200.6900      0.81769       -3.36          
201.2900      0.81764       -3.37          
201.8899      0.81762       -3.38          
202.4899      0.81762       -3.39          
203.0899      0.81759       -3.40          
203.6898      0.81766       -3.41          
204.2898      0.81765       -3.42          
204.8898      0.81764       -3.42          
205.4897      0.81763       -3.44          
206.0897      0.81764       -3.45          
206.6897      0.81762       -3.46          
207.2897      0.81765       -3.47          
207.8896      0.8177        -3.48          
208.4896      0.81766       -3.49          
209.0896      0.81774       -3.50          
209.6895      0.81776       -3.51          
210.2895      0.81775       -3.52          
210.8895      0.81777       -3.53          
211.4894      0.81779       -3.54          
212.0894      0.81783       -3.55          
212.6894      0.8178        -3.56          
213.2894      0.81774       -3.57          
213.8893      0.81776       -3.58          
214.4893      0.8177        -3.59          
215.0893      0.81774       -3.60          
215.6892      0.81772       -3.61          
216.2892      0.81776       -3.62          
216.8892      0.81777       -3.63          
217.4891      0.8177        -3.64          
218.0891      0.81775       -3.65          
218.6891      0.81771       -3.66          
219.2891      0.8177        -3.67          
219.8890      0.81771       -3.68          
220.4890      0.81776       -3.69          
221.0890      0.81782       -3.70          
221.6889      0.81782       -3.71          
222.2889      0.81786       -3.72          
222.8889      0.81775       -3.73          
223.4888      0.81781       -3.74          
224.0888      0.81781       -3.75          
224.6888      0.8179        -3.76          
225.2888      0.81783       -3.77          
225.8887      0.81786       -3.78          
226.4887      0.8179        -3.79          
227.0887      0.81789       -3.79          
227.6886      0.81793       -3.81          
228.2886      0.8179        -3.81          
228.8886      0.81787       -3.82          
229.4885      0.8179        -3.83          
230.0885      0.81786       -3.84          
230.6885      0.81788       -3.85          
231.2885      0.81788       -3.86          
231.8884      0.8179        -3.87          
232.4884      0.81786       -3.88          
233.0884      0.81789       -3.89          
233.6883      0.81782       -3.90          
234.2883      0.81789       -3.92          
234.8883      0.81793       -3.93          
235.4882      0.8179        -3.93          
236.0882      0.81794       -3.94          
236.6882      0.81797       -3.95          
237.2882      0.81798       -3.95          
237.8881      0.81796       -3.97          
238.4881      0.81797       -3.98          
239.0881      0.81797       -3.99          
239.6880      0.81794       -4.00          
240.2880      0.81804       -4.01          
240.8880      0.81799       -4.02          
241.4879      0.81804       -4.04          
242.0879      0.81799       -4.06          
242.6879      0.81793       -4.07          
243.2879      0.8179        -4.08          
243.8878      0.81785       -4.09          
244.4878      0.81777       -4.10          
245.0878      0.81774       -4.10          
245.6877      0.81771       -4.11          
246.2877      0.8177        -4.12          
246.8877      0.81772       -4.13          
247.4876      0.81767       -4.13          
248.0876      0.81767       -4.14          
248.6876      0.81767       -4.15          
249.2876      0.81767       -4.16          
249.8875      0.81765       -4.17          
250.4875      0.81762       -4.18          
251.0875      0.81764       -4.19          
251.6874      0.81761       -4.20          
252.2874      0.81759       -4.21          
252.8874      0.81763       -4.22          
253.4873      0.81763       -4.22          
254.0873      0.81765       -4.23          
254.6873      0.81763       -4.24          
255.2873      0.81762       -4.25          
255.8872      0.81762       -4.26          
256.4872      0.81762       -4.27          
257.0872      0.81764       -4.28          
257.6871      0.81764       -4.29          
258.2871      0.8176        -4.30          
258.8871      0.81761       -4.31          
259.4870      0.8176        -4.32          
260.0870      0.81764       -4.32          
260.6870      0.81759       -4.33          
261.2870      0.81761       -4.34          
261.8869      0.81758       -4.35          
262.4869      0.81762       -4.36          
263.0869      0.81756       -4.37          
263.6868      0.81754       -4.38          
264.2868      0.8175        -4.39          
264.8868      0.81752       -4.40          
