!    8/6/2020   01:55:49 
! Ref Plane: 0.000 mm
# MHZ S MA R  50
!
0.3000        0.04686       179.15        9.889E-2      -0.94         9.654E-2      -0.66         0.81551       -0.32          
0.9000        0.04752       179.22        9.501E-2      -0.43         9.534E-2      -0.11         0.81001       -0.45          
1.4999        0.04767       179.34        9.516E-2      -0.26         9.535E-2      -0.23         0.80926       -0.60          
2.0999        0.04768       179.54        9.519E-2      -0.43         9.531E-2      -0.33         0.80938       -0.80          
2.6999        0.04772       179.73        9.52E-2       -0.55         9.534E-2      -0.47         0.80936       -0.95          
3.2999        0.04773       -179.99       9.524E-2      -0.67         9.534E-2      -0.64         0.8095        -1.13          
3.8998        0.04781       -179.84       9.52E-2       -0.82         9.536E-2      -0.78         0.80948       -1.32          
4.4998        0.0478        -179.61       9.518E-2      -0.98         9.537E-2      -0.91         0.80958       -1.47          
5.0998        0.04792       -179.35       9.52E-2       -1.08         9.536E-2      -1.04         0.80957       -1.64          
5.6997        0.04792       -179.09       9.52E-2       -1.22         9.54E-2       -1.21         0.80971       -1.83          
6.2997        0.04795       -178.95       9.519E-2      -1.39         9.537E-2      -1.32         0.8095        -2.01          
6.8997        0.04803       -178.72       9.522E-2      -1.56         9.535E-2      -1.48         0.80967       -2.19          
7.4996        0.04804       -178.46       9.518E-2      -1.64         9.539E-2      -1.61         0.80974       -2.38          
8.0996        0.04809       -178.28       9.52E-2       -1.80         9.539E-2      -1.77         0.80946       -2.57          
8.6996        0.04813       -178.07       9.518E-2      -1.92         9.543E-2      -1.88         0.80972       -2.73          
9.2996        0.04812       -177.87       9.526E-2      -2.07         9.543E-2      -2.05         0.80982       -2.91          
9.8995        0.04815       -177.61       9.522E-2      -2.25         9.544E-2      -2.19         0.80953       -3.08          
10.4995       0.04821       -177.43       9.52E-2       -2.38         9.545E-2      -2.34         0.80989       -3.26          
11.0995       0.04827       -177.22       9.522E-2      -2.50         9.542E-2      -2.45         0.80995       -3.44          
11.6994       0.04831       -176.99       9.523E-2      -2.63         9.543E-2      -2.58         0.81005       -3.62          
12.2994       0.04832       -176.80       9.52E-2       -2.79         9.542E-2      -2.74         0.8099        -3.79          
12.8994       0.04836       -176.58       9.525E-2      -2.85         9.54E-2       -2.87         0.80992       -3.95          
13.4993       0.04837       -176.35       9.532E-2      -3.07         9.54E-2       -3.05         0.81007       -4.15          
14.0993       0.04844       -176.23       9.525E-2      -3.17         9.542E-2      -3.19         0.81009       -4.31          
14.6993       0.04849       -175.95       9.524E-2      -3.37         9.544E-2      -3.32         0.81003       -4.48          
15.2993       0.04847       -175.80       9.522E-2      -3.43         9.542E-2      -3.46         0.81018       -4.66          
15.8992       0.04852       -175.61       9.527E-2      -3.57         9.543E-2      -3.63         0.81024       -4.82          
16.4992       0.04857       -175.42       9.528E-2      -3.75         9.545E-2      -3.78         0.81012       -5.01          
17.0992       0.0486        -175.17       9.529E-2      -3.87         9.544E-2      -3.90         0.8103        -5.19          
17.6991       0.04872       -174.98       9.529E-2      -4.02         9.543E-2      -4.04         0.81023       -5.37          
18.2991       0.04869       -174.79       9.526E-2      -4.17         9.547E-2      -4.17         0.81027       -5.52          
18.8991       0.04873       -174.59       9.531E-2      -4.32         9.545E-2      -4.28         0.81051       -5.69          
19.4990       0.04874       -174.38       9.537E-2      -4.46         9.545E-2      -4.46         0.81051       -5.87          
20.0990       0.04879       -174.18       9.531E-2      -4.57         9.549E-2      -4.59         0.81043       -6.05          
20.6990       0.04885       -173.99       9.533E-2      -4.76         9.552E-2      -4.74         0.8105        -6.21          
21.2990       0.04883       -173.75       9.531E-2      -4.89         9.549E-2      -4.88         0.81034       -6.38          
21.8989       0.0489        -173.62       9.534E-2      -5.03         9.55E-2       -5.02         0.81047       -6.57          
22.4989       0.04894       -173.39       9.534E-2      -5.19         9.557E-2      -5.14         0.81053       -6.74          
23.0989       0.04901       -173.25       9.533E-2      -5.30         9.556E-2      -5.31         0.81072       -6.92          
23.6988       0.04898       -172.95       9.538E-2      -5.44         9.556E-2      -5.44         0.81034       -7.09          
24.2988       0.049         -172.84       9.535E-2      -5.59         9.553E-2      -5.58         0.81038       -7.25          
24.8988       0.0491        -172.60       9.538E-2      -5.74         9.554E-2      -5.74         0.81023       -7.42          
25.4987       0.04914       -172.45       9.539E-2      -5.85         9.553E-2      -5.88         0.81028       -7.59          
26.0987       0.04919       -172.22       9.533E-2      -6.00         9.558E-2      -5.99         0.81015       -7.77          
26.6987       0.04925       -172.03       9.536E-2      -6.13         9.554E-2      -6.12         0.80996       -7.93          
27.2987       0.04926       -171.79       9.546E-2      -6.27         9.555E-2      -6.28         0.80977       -8.11          
27.8986       0.0493        -171.64       9.539E-2      -6.44         9.556E-2      -6.42         0.80962       -8.27          
28.4986       0.04934       -171.43       9.543E-2      -6.57         9.557E-2      -6.58         0.80958       -8.46          
29.0986       0.04939       -171.38       9.542E-2      -6.69         9.557E-2      -6.70         0.80931       -8.61          
29.6985       0.04945       -171.13       9.54E-2       -6.84         9.556E-2      -6.83         0.80923       -8.80          
30.2985       0.04943       -170.91       9.539E-2      -7.00         9.556E-2      -7.01         0.80895       -8.97          
30.8985       0.04948       -170.73       9.543E-2      -7.14         9.555E-2      -7.12         0.80898       -9.15          
31.4984       0.04956       -170.55       9.54E-2       -7.24         9.553E-2      -7.26         0.80887       -9.31          
32.0984       0.04959       -170.42       9.545E-2      -7.41         9.562E-2      -7.41         0.80889       -9.48          
32.6984       0.04963       -170.21       9.544E-2      -7.53         9.56E-2       -7.53         0.80872       -9.65          
33.2984       0.04964       -170.10       9.544E-2      -7.68         9.559E-2      -7.70         0.80867       -9.80          
33.8983       0.04968       -169.92       9.55E-2       -7.80         9.562E-2      -7.81         0.80881       -9.96          
34.4983       0.04977       -169.70       9.547E-2      -7.95         9.564E-2      -7.95         0.80895       -10.11         
35.0983       0.04974       -169.59       9.551E-2      -8.09         9.568E-2      -8.12         0.80903       -10.29         
35.6982       0.04978       -169.38       9.554E-2      -8.22         9.564E-2      -8.24         0.80914       -10.46         
36.2982       0.04986       -169.22       9.555E-2      -8.39         9.563E-2      -8.40         0.8091        -10.65         
36.8982       0.04988       -169.03       9.552E-2      -8.52         9.565E-2      -8.56         0.80903       -10.82         
37.4981       0.04994       -168.93       9.558E-2      -8.65         9.57E-2       -8.67         0.80893       -10.99         
38.0981       0.04997       -168.70       9.556E-2      -8.77         9.569E-2      -8.84         0.80897       -11.18         
38.6981       0.05          -168.55       9.557E-2      -8.92         9.565E-2      -8.98         0.80887       -11.36         
39.2981       0.05006       -168.37       9.558E-2      -9.06         9.565E-2      -9.12         0.8089        -11.53         
39.8980       0.05007       -168.23       9.559E-2      -9.23         9.57E-2       -9.30         0.80874       -11.72         
40.4980       0.0501        -168.01       9.563E-2      -9.38         9.568E-2      -9.38         0.80876       -11.88         
41.0980       0.05015       -167.82       9.563E-2      -9.51         9.574E-2      -9.55         0.80847       -12.07         
41.6979       0.05018       -167.73       9.562E-2      -9.65         9.573E-2      -9.69         0.80866       -12.25         
42.2979       0.05026       -167.59       9.562E-2      -9.79         9.578E-2      -9.84         0.80857       -12.44         
42.8979       0.05028       -167.44       9.56E-2       -9.96         9.573E-2      -9.97         0.8087        -12.63         
43.4978       0.05027       -167.27       9.562E-2      -10.08        9.576E-2      -10.12        0.8087        -12.81         
44.0978       0.05034       -167.15       9.564E-2      -10.22        9.574E-2      -10.26        0.80862       -13.01         
44.6978       0.0504        -167.06       9.563E-2      -10.39        9.579E-2      -10.43        0.8088        -13.20         
45.2978       0.05045       -166.88       9.568E-2      -10.54        9.577E-2      -10.53        0.80867       -13.39         
45.8977       0.05054       -166.68       9.565E-2      -10.67        9.577E-2      -10.70        0.80885       -13.57         
46.4977       0.05053       -166.53       9.563E-2      -10.84        9.578E-2      -10.81        0.80881       -13.76         
47.0977       0.05052       -166.35       9.57E-2       -10.99        9.582E-2      -10.99        0.80969       -13.93         
47.6976       0.05062       -166.22       9.568E-2      -11.14        9.579E-2      -11.13        0.80976       -14.12         
48.2976       0.05069       -166.13       9.575E-2      -11.29        9.576E-2      -11.26        0.80978       -14.28         
48.8976       0.05072       -165.94       9.568E-2      -11.46        9.583E-2      -11.43        0.80995       -14.48         
49.4975       0.05076       -165.77       9.567E-2      -11.58        9.586E-2      -11.57        0.80985       -14.65         
50.0975       0.05075       -165.67       9.57E-2       -11.73        9.584E-2      -11.72        0.80995       -14.82         
50.6975       0.0508        -165.47       9.569E-2      -11.87        9.584E-2      -11.88        0.81004       -15.02         
51.2975       0.05087       -165.37       9.568E-2      -12.02        9.589E-2      -12.07        0.81009       -15.21         
51.8974       0.05094       -165.24       9.563E-2      -12.15        9.589E-2      -12.20        0.81006       -15.38         
52.4974       0.05169       -165.34       9.565E-2      -12.27        9.663E-2      -12.56        0.80802       -15.56         
53.0974       0.05098       -164.88       9.577E-2      -12.42        9.583E-2      -12.46        0.80757       -15.66         
53.6973       0.05103       -164.74       9.568E-2      -12.61        9.586E-2      -12.63        0.81056       -15.93         
54.2973       0.05109       -164.66       9.57E-2       -12.76        9.587E-2      -12.79        0.81052       -16.11         
54.8973       0.0511        -164.49       9.568E-2      -12.93        9.584E-2      -12.92        0.81053       -16.27         
55.4972       0.05116       -164.37       9.569E-2      -13.02        9.589E-2      -13.05        0.81068       -16.45         
56.0972       0.05122       -164.21       9.571E-2      -13.18        9.585E-2      -13.20        0.8105        -16.63         
56.6972       0.05125       -164.01       9.571E-2      -13.32        9.583E-2      -13.31        0.81055       -16.79         
57.2972       0.05133       -163.88       9.571E-2      -13.46        9.585E-2      -13.46        0.81055       -16.97         
57.8971       0.05135       -163.69       9.569E-2      -13.59        9.587E-2      -13.62        0.81055       -17.15         
58.4971       0.05138       -163.57       9.577E-2      -13.75        9.589E-2      -13.75        0.81079       -17.33         
59.0971       0.05144       -163.44       9.574E-2      -13.87        9.589E-2      -13.90        0.81067       -17.50         
59.6970       0.05149       -163.26       9.577E-2      -14.01        9.593E-2      -14.04        0.81087       -17.68         
60.2970       0.0515        -163.08       9.575E-2      -14.14        9.591E-2      -14.18        0.81078       -17.85         
60.8970       0.0516        -162.93       9.58E-2       -14.30        9.599E-2      -14.34        0.81092       -18.03         
61.4969       0.05163       -162.80       9.583E-2      -14.44        9.597E-2      -14.48        0.81071       -18.22         
62.0969       0.05169       -162.67       9.582E-2      -14.57        9.598E-2      -14.61        0.81061       -18.39         
62.6969       0.05172       -162.59       9.588E-2      -14.72        9.596E-2      -14.78        0.81055       -18.57         
63.2969       0.05184       -162.40       9.589E-2      -14.87        9.604E-2      -14.91        0.8106        -18.75         
63.8968       0.05189       -162.29       9.59E-2       -15.02        9.605E-2      -15.05        0.81051       -18.91         
64.4968       0.05196       -162.13       9.597E-2      -15.17        9.611E-2      -15.20        0.81051       -19.09         
65.0968       0.052         -161.98       9.594E-2      -15.29        9.615E-2      -15.36        0.81049       -19.26         
65.6967       0.05209       -161.87       9.596E-2      -15.46        9.618E-2      -15.51        0.81053       -19.43         
66.2967       0.05209       -161.78       9.599E-2      -15.61        9.616E-2      -15.67        0.81046       -19.61         
66.8967       0.05213       -161.63       9.603E-2      -15.77        9.62E-2       -15.82        0.8103        -19.79         
67.4966       0.0522        -161.48       9.602E-2      -15.92        9.621E-2      -15.96        0.8103        -19.98         
68.0966       0.05225       -161.38       9.605E-2      -16.07        9.626E-2      -16.11        0.81026       -20.15         
68.6966       0.05234       -161.21       9.608E-2      -16.23        9.627E-2      -16.27        0.81033       -20.30         
69.2966       0.05243       -161.09       9.609E-2      -16.40        9.627E-2      -16.42        0.8102        -20.50         
69.8965       0.05249       -160.97       9.612E-2      -16.58        9.631E-2      -16.58        0.81029       -20.68         
70.4965       0.05252       -160.92       9.613E-2      -16.72        9.628E-2      -16.74        0.81041       -20.85         
71.0965       0.05254       -160.78       9.611E-2      -16.89        9.633E-2      -16.91        0.81046       -21.02         
71.6964       0.05265       -160.63       9.612E-2      -17.04        9.634E-2      -17.07        0.81036       -21.19         
72.2964       0.0527        -160.60       9.619E-2      -17.21        9.629E-2      -17.22        0.81041       -21.36         
72.8964       0.05279       -160.50       9.615E-2      -17.37        9.631E-2      -17.38        0.81039       -21.56         
73.4963       0.05288       -160.31       9.616E-2      -17.55        9.63E-2       -17.54        0.81044       -21.73         
74.0963       0.05288       -160.23       9.62E-2       -17.68        9.635E-2      -17.70        0.81058       -21.91         
74.6963       0.05293       -160.20       9.619E-2      -17.86        9.64E-2       -17.85        0.81036       -22.07         
75.2963       0.053         -160.02       9.619E-2      -18.02        9.638E-2      -18.01        0.81048       -22.25         
75.8962       0.0531        -159.95       9.621E-2      -18.20        9.641E-2      -18.19        0.81055       -22.42         
76.4962       0.05318       -159.77       9.621E-2      -18.33        9.643E-2      -18.37        0.81079       -22.60         
77.0962       0.05322       -159.75       9.625E-2      -18.50        9.643E-2      -18.51        0.81082       -22.77         
77.6961       0.05327       -159.62       9.625E-2      -18.69        9.646E-2      -18.70        0.81109       -22.94         
78.2961       0.05336       -159.51       9.626E-2      -18.81        9.645E-2      -18.83        0.81112       -23.12         
78.8961       0.05338       -159.45       9.623E-2      -19.02        9.645E-2      -19.02        0.81127       -23.28         
79.4960       0.05344       -159.30       9.627E-2      -19.18        9.648E-2      -19.18        0.81153       -23.44         
80.0960       0.0535        -159.24       9.627E-2      -19.37        9.646E-2      -19.35        0.81164       -23.63         
80.6960       0.05353       -159.18       9.627E-2      -19.52        9.645E-2      -19.52        0.81174       -23.79         
81.2960       0.05362       -159.12       9.627E-2      -19.72        9.647E-2      -19.69        0.812         -23.96         
81.8959       0.05365       -159.00       9.624E-2      -19.88        9.647E-2      -19.89        0.81221       -24.12         
82.4959       0.05373       -158.93       9.623E-2      -20.06        9.646E-2      -20.07        0.81246       -24.31         
83.0959       0.05378       -158.81       9.622E-2      -20.25        9.639E-2      -20.24        0.81269       -24.46         
83.6958       0.05381       -158.74       9.621E-2      -20.45        9.636E-2      -20.46        0.81298       -24.64         
84.2958       0.05387       -158.66       9.616E-2      -20.66        9.63E-2       -20.63        0.81319       -24.80         
84.8958       0.05388       -158.61       9.609E-2      -20.82        9.626E-2      -20.85        0.81335       -24.97         
85.4957       0.05391       -158.56       9.608E-2      -21.04        9.619E-2      -21.05        0.81376       -25.16         
86.0957       0.05388       -158.46       9.597E-2      -21.21        9.608E-2      -21.25        0.81385       -25.35         
86.6957       0.05387       -158.32       9.58E-2       -21.43        9.598E-2      -21.44        0.81426       -25.51         
87.2957       0.05388       -158.28       9.567E-2      -21.59        9.582E-2      -21.63        0.81471       -25.70         
87.8956       0.05378       -158.20       9.549E-2      -21.76        9.559E-2      -21.77        0.815         -25.88         
88.4956       0.05379       -158.07       9.527E-2      -21.89        9.541E-2      -21.92        0.81528       -26.06         
89.0956       0.05373       -157.88       9.508E-2      -22.00        9.518E-2      -22.03        0.8156        -26.25         
89.6955       0.05366       -157.66       9.492E-2      -22.06        9.498E-2      -22.08        0.81588       -26.45         
90.2955       0.05364       -157.41       9.473E-2      -22.08        9.483E-2      -22.10        0.81606       -26.67         
90.8955       0.05364       -157.21       9.461E-2      -22.10        9.468E-2      -22.10        0.81596       -26.87         
91.4954       0.05367       -156.85       9.462E-2      -22.08        9.464E-2      -22.08        0.81583       -27.07         
92.0954       0.05374       -156.59       9.463E-2      -22.11        9.47E-2       -22.09        0.8154        -27.25         
