!    8/6/2020   01:54:56 
! Ref Plane: 0.000 mm
# MHZ S MA R  50
!
0.3000        0.04692       179.00        9.887E-2      -0.98         9.652E-2      -0.71         0.81562       -0.35          
0.9000        0.0475        179.33        9.501E-2      -0.43         9.53E-2       -0.13         0.80957       -0.49          
1.4999        0.04766       179.39        9.517E-2      -0.24         9.537E-2      -0.21         0.80928       -0.64          
2.0999        0.04767       179.60        9.52E-2       -0.40         9.535E-2      -0.30         0.80939       -0.84          
2.6999        0.04773       179.79        9.52E-2       -0.51         9.537E-2      -0.43         0.80945       -1.01          
3.2999        0.04772       -179.91       9.523E-2      -0.58         9.539E-2      -0.59         0.80953       -1.19          
3.8998        0.04784       -179.72       9.519E-2      -0.73         9.535E-2      -0.70         0.8095        -1.38          
4.4998        0.0478        -179.50       9.519E-2      -0.87         9.537E-2      -0.80         0.80956       -1.54          
5.0998        0.04791       -179.22       9.519E-2      -0.95         9.535E-2      -0.92         0.80955       -1.72          
5.6997        0.04791       -178.93       9.52E-2       -1.08         9.54E-2       -1.07         0.80973       -1.90          
6.2997        0.04792       -178.78       9.518E-2      -1.22         9.535E-2      -1.18         0.80949       -2.09          
6.8997        0.048         -178.57       9.519E-2      -1.38         9.536E-2      -1.30         0.8097        -2.27          
7.4996        0.04803       -178.24       9.518E-2      -1.44         9.534E-2      -1.41         0.80971       -2.47          
8.0996        0.04807       -178.05       9.517E-2      -1.58         9.538E-2      -1.54         0.80947       -2.66          
8.6996        0.0481        -177.84       9.517E-2      -1.68         9.539E-2      -1.64         0.80967       -2.83          
9.2996        0.04811       -177.58       9.525E-2      -1.83         9.542E-2      -1.78         0.80983       -3.01          
9.8995        0.04815       -177.34       9.521E-2      -1.97         9.54E-2       -1.91         0.80952       -3.19          
10.4995       0.04819       -177.14       9.518E-2      -2.09         9.538E-2      -2.06         0.80991       -3.37          
11.0995       0.04825       -176.90       9.52E-2       -2.19         9.54E-2       -2.15         0.80996       -3.55          
11.6994       0.04825       -176.66       9.523E-2      -2.30         9.541E-2      -2.26         0.81002       -3.74          
12.2994       0.04829       -176.41       9.517E-2      -2.43         9.535E-2      -2.38         0.8099        -3.91          
12.8994       0.04833       -176.18       9.523E-2      -2.50         9.538E-2      -2.51         0.80987       -4.08          
13.4993       0.04832       -175.96       9.528E-2      -2.70         9.537E-2      -2.65         0.81006       -4.28          
14.0993       0.04838       -175.80       9.522E-2      -2.77         9.536E-2      -2.79         0.81005       -4.44          
14.6993       0.0484        -175.50       9.519E-2      -2.95         9.538E-2      -2.89         0.80996       -4.62          
15.2993       0.04844       -175.31       9.518E-2      -3.00         9.537E-2      -3.03         0.81011       -4.81          
15.8992       0.04849       -175.12       9.522E-2      -3.12         9.537E-2      -3.16         0.81017       -4.97          
16.4992       0.04852       -174.91       9.52E-2       -3.27         9.539E-2      -3.28         0.81003       -5.16          
17.0992       0.04854       -174.64       9.522E-2      -3.36         9.536E-2      -3.39         0.81026       -5.34          
17.6991       0.04864       -174.42       9.52E-2       -3.51         9.536E-2      -3.53         0.81018       -5.53          
18.2991       0.04865       -174.24       9.518E-2      -3.63         9.539E-2      -3.64         0.81016       -5.68          
18.8991       0.04866       -174.02       9.521E-2      -3.76         9.54E-2       -3.75         0.8105        -5.85          
19.4990       0.0487        -173.75       9.528E-2      -3.91         9.54E-2       -3.88         0.81048       -6.04          
20.0990       0.04872       -173.52       9.519E-2      -3.99         9.54E-2       -4.01         0.81033       -6.22          
20.6990       0.04876       -173.33       9.524E-2      -4.14         9.539E-2      -4.12         0.81042       -6.39          
21.2990       0.04876       -173.07       9.521E-2      -4.25         9.542E-2      -4.23         0.8103        -6.56          
21.8989       0.04883       -172.91       9.525E-2      -4.36         9.541E-2      -4.36         0.81038       -6.75          
22.4989       0.04886       -172.67       9.52E-2       -4.53         9.548E-2      -4.47         0.81042       -6.92          
23.0989       0.04894       -172.52       9.523E-2      -4.62         9.544E-2      -4.61         0.81062       -7.11          
23.6988       0.04894       -172.22       9.527E-2      -4.72         9.541E-2      -4.73         0.81021       -7.28          
24.2988       0.04895       -172.02       9.523E-2      -4.84         9.54E-2       -4.85         0.81021       -7.45          
24.8988       0.04904       -171.84       9.522E-2      -4.98         9.542E-2      -4.99         0.81007       -7.63          
25.4987       0.04907       -171.63       9.526E-2      -5.07         9.537E-2      -5.12         0.81012       -7.80          
26.0987       0.04913       -171.36       9.519E-2      -5.20         9.541E-2      -5.21         0.81001       -7.98          
26.6987       0.04918       -171.19       9.52E-2       -5.31         9.539E-2      -5.33         0.80981       -8.15          
27.2987       0.04916       -170.94       9.529E-2      -5.43         9.537E-2      -5.44         0.8096        -8.33          
27.8986       0.04922       -170.78       9.525E-2      -5.58         9.538E-2      -5.56         0.80941       -8.49          
28.4986       0.04925       -170.50       9.525E-2      -5.69         9.539E-2      -5.69         0.80935       -8.68          
29.0986       0.04927       -170.42       9.524E-2      -5.79         9.538E-2      -5.83         0.80911       -8.84          
29.6985       0.04937       -170.19       9.523E-2      -5.91         9.538E-2      -5.92         0.80898       -9.03          
30.2985       0.04935       -169.95       9.521E-2      -6.05         9.538E-2      -6.07         0.80871       -9.20          
30.8985       0.04939       -169.69       9.523E-2      -6.18         9.534E-2      -6.16         0.80869       -9.39          
31.4984       0.04945       -169.54       9.521E-2      -6.27         9.531E-2      -6.29         0.80862       -9.55          
32.0984       0.0495        -169.40       9.521E-2      -6.41         9.539E-2      -6.40         0.80864       -9.72          
32.6984       0.04952       -169.18       9.522E-2      -6.51         9.536E-2      -6.51         0.80849       -9.90          
33.2984       0.04957       -168.99       9.524E-2      -6.64         9.536E-2      -6.65         0.80836       -10.05         
33.8983       0.04957       -168.79       9.529E-2      -6.75         9.535E-2      -6.75         0.8085        -10.21         
34.4983       0.04962       -168.58       9.524E-2      -6.86         9.535E-2      -6.85         0.80862       -10.37         
35.0983       0.04964       -168.42       9.527E-2      -6.98         9.536E-2      -7.02         0.80868       -10.56         
35.6982       0.04969       -168.22       9.528E-2      -7.09         9.538E-2      -7.11         0.80881       -10.72         
36.2982       0.04973       -168.04       9.526E-2      -7.23         9.536E-2      -7.26         0.80875       -10.92         
36.8982       0.04976       -167.82       9.524E-2      -7.35         9.535E-2      -7.38         0.80863       -11.09         
37.4981       0.04981       -167.66       9.525E-2      -7.44         9.537E-2      -7.48         0.80853       -11.27         
38.0981       0.04985       -167.46       9.529E-2      -7.57         9.536E-2      -7.63         0.80855       -11.46         
38.6981       0.04987       -167.24       9.528E-2      -7.67         9.536E-2      -7.74         0.80844       -11.65         
39.2981       0.04991       -167.08       9.527E-2      -7.80         9.532E-2      -7.84         0.80841       -11.82         
39.8980       0.04994       -166.90       9.527E-2      -7.94         9.535E-2      -8.02         0.80826       -12.01         
40.4980       0.04997       -166.67       9.529E-2      -8.06         9.534E-2      -8.08         0.80828       -12.17         
41.0980       0.05004       -166.47       9.528E-2      -8.19         9.534E-2      -8.22         0.80796       -12.36         
41.6979       0.05006       -166.30       9.524E-2      -8.30         9.534E-2      -8.33         0.80817       -12.55         
42.2979       0.05012       -166.18       9.526E-2      -8.40         9.538E-2      -8.47         0.80804       -12.75         
42.8979       0.05015       -165.98       9.524E-2      -8.55         9.535E-2      -8.57         0.80811       -12.93         
43.4978       0.05012       -165.82       9.527E-2      -8.65         9.535E-2      -8.69         0.80811       -13.13         
44.0978       0.0502        -165.63       9.525E-2      -8.79         9.536E-2      -8.81         0.808         -13.32         
44.6978       0.05027       -165.52       9.523E-2      -8.92         9.534E-2      -8.95         0.80815       -13.52         
45.2978       0.05029       -165.34       9.527E-2      -9.04         9.535E-2      -9.05         0.80805       -13.71         
45.8977       0.05037       -165.09       9.524E-2      -9.15         9.534E-2      -9.19         0.80814       -13.88         
46.4977       0.05037       -164.98       9.52E-2       -9.29         9.532E-2      -9.29         0.80813       -14.09         
47.0977       0.05037       -164.77       9.526E-2      -9.43         9.539E-2      -9.41         0.80895       -14.26         
47.6976       0.05046       -164.58       9.524E-2      -9.54         9.532E-2      -9.55         0.80905       -14.44         
48.2976       0.05051       -164.46       9.526E-2      -9.69         9.531E-2      -9.66         0.80901       -14.61         
48.8976       0.05056       -164.28       9.522E-2      -9.81         9.532E-2      -9.79         0.80912       -14.81         
49.4975       0.05058       -164.09       9.52E-2       -9.94         9.54E-2       -9.90         0.80903       -14.98         
50.0975       0.0506        -163.93       9.52E-2       -10.03        9.531E-2      -10.04        0.80907       -15.16         
50.6975       0.05066       -163.70       9.52E-2       -10.18        9.534E-2      -10.16        0.8091        -15.36         
51.2975       0.05072       -163.58       9.519E-2      -10.28        9.535E-2      -10.32        0.80913       -15.55         
51.8974       0.05078       -163.44       9.515E-2      -10.39        9.538E-2      -10.42        0.80901       -15.72         
52.4974       0.05151       -163.52       9.514E-2      -10.45        9.612E-2      -10.74        0.80696       -15.91         
53.0974       0.05081       -163.03       9.525E-2      -10.60        9.531E-2      -10.62        0.8065        -16.01         
53.6973       0.05088       -162.88       9.519E-2      -10.76        9.534E-2      -10.77        0.80945       -16.28         
54.2973       0.05092       -162.71       9.516E-2      -10.87        9.535E-2      -10.93        0.80938       -16.47         
54.8973       0.05093       -162.58       9.518E-2      -11.02        9.533E-2      -11.02        0.80938       -16.63         
55.4972       0.05098       -162.43       9.517E-2      -11.11        9.537E-2      -11.14        0.80946       -16.80         
56.0972       0.05104       -162.25       9.518E-2      -11.24        9.531E-2      -11.28        0.80922       -16.99         
56.6972       0.05107       -162.04       9.518E-2      -11.35        9.529E-2      -11.35        0.80922       -17.15         
57.2972       0.05115       -161.86       9.515E-2      -11.47        9.532E-2      -11.48        0.8092        -17.33         
57.8971       0.05115       -161.66       9.513E-2      -11.59        9.534E-2      -11.60        0.80924       -17.50         
58.4971       0.05123       -161.56       9.521E-2      -11.70        9.533E-2      -11.76        0.80932       -17.69         
59.0971       0.05125       -161.39       9.521E-2      -11.82        9.534E-2      -11.84        0.8093        -17.86         
59.6970       0.05131       -161.20       9.52E-2       -11.94        9.534E-2      -11.98        0.80941       -18.04         
60.2970       0.05133       -161.01       9.518E-2      -12.06        9.529E-2      -12.09        0.8094        -18.21         
60.8970       0.05141       -160.83       9.518E-2      -12.21        9.536E-2      -12.25        0.80942       -18.39         
61.4969       0.05141       -160.69       9.517E-2      -12.33        9.53E-2       -12.36        0.80926       -18.57         
62.0969       0.05148       -160.53       9.517E-2      -12.45        9.535E-2      -12.47        0.80912       -18.75         
62.6969       0.05148       -160.43       9.518E-2      -12.56        9.53E-2       -12.62        0.80899       -18.93         
63.2969       0.05159       -160.22       9.518E-2      -12.68        9.533E-2      -12.71        0.80908       -19.11         
63.8968       0.05163       -160.09       9.517E-2      -12.80        9.53E-2       -12.86        0.809         -19.27         
64.4968       0.05167       -159.88       9.517E-2      -12.94        9.53E-2       -12.97        0.80898       -19.46         
65.0968       0.05171       -159.74       9.517E-2      -13.04        9.536E-2      -13.09        0.80896       -19.63         
65.6967       0.0518        -159.55       9.515E-2      -13.17        9.533E-2      -13.21        0.80896       -19.80         
66.2967       0.0518        -159.42       9.517E-2      -13.26        9.53E-2       -13.34        0.80891       -19.98         
66.8967       0.05183       -159.28       9.513E-2      -13.41        9.53E-2       -13.44        0.80871       -20.17         
67.4966       0.05189       -159.09       9.511E-2      -13.52        9.53E-2       -13.59        0.80866       -20.36         
68.0966       0.05189       -158.92       9.51E-2       -13.64        9.533E-2      -13.66        0.80863       -20.53         
68.6966       0.05198       -158.74       9.514E-2      -13.76        9.532E-2      -13.80        0.80864       -20.69         
69.2966       0.05207       -158.58       9.513E-2      -13.89        9.532E-2      -13.90        0.80851       -20.89         
69.8965       0.05212       -158.45       9.514E-2      -14.01        9.531E-2      -14.02        0.80852       -21.08         
70.4965       0.05217       -158.33       9.513E-2      -14.13        9.531E-2      -14.15        0.8086        -21.25         
71.0965       0.05218       -158.13       9.511E-2      -14.26        9.534E-2      -14.27        0.8086        -21.42         
71.6964       0.05227       -157.96       9.508E-2      -14.39        9.531E-2      -14.41        0.80846       -21.60         
72.2964       0.05231       -157.89       9.515E-2      -14.50        9.526E-2      -14.52        0.80841       -21.77         
72.8964       0.05239       -157.76       9.514E-2      -14.65        9.528E-2      -14.65        0.80837       -21.97         
73.4963       0.0525        -157.55       9.512E-2      -14.77        9.526E-2      -14.77        0.80842       -22.14         
74.0963       0.05248       -157.42       9.511E-2      -14.88        9.529E-2      -14.90        0.80849       -22.33         
74.6963       0.05251       -157.33       9.511E-2      -15.01        9.526E-2      -15.00        0.80819       -22.49         
75.2963       0.05258       -157.12       9.51E-2       -15.13        9.527E-2      -15.12        0.80828       -22.68         
75.8962       0.05264       -156.99       9.51E-2       -15.25        9.525E-2      -15.26        0.80828       -22.85         
76.4962       0.05269       -156.78       9.51E-2       -15.35        9.527E-2      -15.38        0.80841       -23.03         
77.0962       0.05279       -156.70       9.509E-2      -15.48        9.527E-2      -15.48        0.80838       -23.21         
77.6961       0.05282       -156.56       9.504E-2      -15.62        9.529E-2      -15.63        0.80859       -23.39         
78.2961       0.05293       -156.37       9.509E-2      -15.71        9.526E-2      -15.72        0.80851       -23.56         
78.8961       0.05295       -156.26       9.505E-2      -15.84        9.529E-2      -15.85        0.80859       -23.73         
79.4960       0.05301       -156.08       9.508E-2      -15.94        9.528E-2      -15.96        0.80879       -23.90         
80.0960       0.05302       -155.97       9.507E-2      -16.09        9.527E-2      -16.07        0.80873       -24.09         
80.6960       0.0531        -155.85       9.51E-2       -16.21        9.526E-2      -16.19        0.80879       -24.25         
81.2960       0.05316       -155.70       9.509E-2      -16.33        9.529E-2      -16.31        0.80891       -24.43         
81.8959       0.05321       -155.57       9.506E-2      -16.42        9.529E-2      -16.43        0.80901       -24.60         
82.4959       0.0533        -155.38       9.508E-2      -16.53        9.528E-2      -16.53        0.80914       -24.78         
83.0959       0.05336       -155.23       9.506E-2      -16.66        9.524E-2      -16.66        0.80918       -24.94         
83.6958       0.05341       -155.09       9.507E-2      -16.80        9.526E-2      -16.79        0.80925       -25.12         
84.2958       0.05347       -154.91       9.508E-2      -16.92        9.524E-2      -16.89        0.80929       -25.29         
84.8958       0.05354       -154.80       9.509E-2      -17.03        9.522E-2      -17.04        0.80922       -25.47         
85.4957       0.05361       -154.68       9.511E-2      -17.15        9.524E-2      -17.17        0.80942       -25.65         
86.0957       0.05365       -154.48       9.513E-2      -17.26        9.521E-2      -17.30        0.80927       -25.84         
86.6957       0.05369       -154.29       9.507E-2      -17.42        9.524E-2      -17.42        0.80935       -26.00         
87.2957       0.0538        -154.19       9.512E-2      -17.52        9.523E-2      -17.55        0.80948       -26.19         
87.8956       0.05382       -154.09       9.508E-2      -17.64        9.521E-2      -17.65        0.80941       -26.35         
88.4956       0.05395       -153.89       9.506E-2      -17.74        9.52E-2       -17.77        0.8094        -26.51         
89.0956       0.05399       -153.71       9.505E-2      -17.86        9.519E-2      -17.90        0.80946       -26.68         
89.6955       0.05406       -153.57       9.511E-2      -17.98        9.519E-2      -18.01        0.80964       -26.85         
90.2955       0.05412       -153.43       9.507E-2      -18.11        9.517E-2      -18.10        0.80971       -27.04         
90.8955       0.05418       -153.33       9.512E-2      -18.22        9.515E-2      -18.23        0.80971       -27.20         
91.4954       0.05425       -153.14       9.512E-2      -18.35        9.517E-2      -18.37        0.80978       -27.39         
92.0954       0.05432       -152.97       9.508E-2      -18.49        9.515E-2      -18.47        0.80962       -27.55         
