!    8/6/2020   01:53:00 
! Ref Plane: 0.000 mm
# MHZ S MA R  50
!
0.3000        0.04716       178.83        9.884E-2      -0.99         9.659E-2      -0.75         0.81551       -0.39          
0.9000        0.04762       179.14        9.496E-2      -0.46         9.533E-2      -0.19         0.80988       -0.52          
1.4999        0.04769       179.31        9.515E-2      -0.28         9.535E-2      -0.25         0.80938       -0.67          
2.0999        0.04769       179.54        9.516E-2      -0.43         9.532E-2      -0.33         0.80942       -0.88          
2.6999        0.04774       179.75        9.517E-2      -0.52         9.532E-2      -0.45         0.80934       -1.04          
3.2999        0.04774       -179.97       9.521E-2      -0.62         9.535E-2      -0.60         0.80959       -1.23          
3.8998        0.04784       -179.77       9.519E-2      -0.77         9.532E-2      -0.72         0.80949       -1.42          
4.4998        0.04781       -179.54       9.52E-2       -0.89         9.534E-2      -0.83         0.80965       -1.58          
5.0998        0.04792       -179.21       9.518E-2      -0.96         9.533E-2      -0.93         0.80964       -1.77          
5.6997        0.0479        -178.98       9.515E-2      -1.09         9.535E-2      -1.07         0.80979       -1.95          
6.2997        0.04793       -178.84       9.517E-2      -1.22         9.534E-2      -1.16         0.80956       -2.15          
6.8997        0.04797       -178.59       9.517E-2      -1.37         9.529E-2      -1.29         0.80977       -2.33          
7.4996        0.04804       -178.28       9.516E-2      -1.44         9.532E-2      -1.39         0.80984       -2.53          
8.0996        0.04807       -178.09       9.516E-2      -1.56         9.534E-2      -1.54         0.80962       -2.72          
8.6996        0.04809       -177.87       9.514E-2      -1.67         9.533E-2      -1.62         0.80982       -2.89          
9.2996        0.04812       -177.61       9.521E-2      -1.80         9.535E-2      -1.77         0.81005       -3.07          
9.8995        0.04816       -177.36       9.515E-2      -1.95         9.532E-2      -1.89         0.8097        -3.24          
10.4995       0.04818       -177.17       9.512E-2      -2.05         9.535E-2      -2.00         0.81011       -3.42          
11.0995       0.04825       -176.91       9.513E-2      -2.17         9.534E-2      -2.11         0.81017       -3.60          
11.6994       0.04826       -176.69       9.516E-2      -2.25         9.532E-2      -2.22         0.81031       -3.79          
12.2994       0.04828       -176.43       9.512E-2      -2.39         9.53E-2       -2.33         0.81022       -3.97          
12.8994       0.04832       -176.21       9.518E-2      -2.43         9.532E-2      -2.45         0.81025       -4.14          
13.4993       0.04829       -175.98       9.521E-2      -2.63         9.53E-2       -2.59         0.81042       -4.34          
14.0993       0.0484        -175.84       9.514E-2      -2.71         9.528E-2      -2.71         0.81043       -4.50          
14.6993       0.0484        -175.52       9.511E-2      -2.86         9.53E-2       -2.81         0.81038       -4.67          
15.2993       0.04843       -175.34       9.511E-2      -2.91         9.527E-2      -2.93         0.8106        -4.86          
15.8992       0.04846       -175.15       9.512E-2      -3.03         9.524E-2      -3.07         0.81067       -5.02          
16.4992       0.04853       -174.90       9.512E-2      -3.17         9.529E-2      -3.21         0.81056       -5.21          
17.0992       0.04852       -174.68       9.515E-2      -3.26         9.526E-2      -3.28         0.81081       -5.39          
17.6991       0.04865       -174.44       9.511E-2      -3.39         9.525E-2      -3.43         0.81075       -5.57          
18.2991       0.04864       -174.28       9.51E-2       -3.51         9.527E-2      -3.51         0.81082       -5.72          
18.8991       0.04863       -174.04       9.511E-2      -3.63         9.526E-2      -3.62         0.81121       -5.89          
19.4990       0.04869       -173.80       9.516E-2      -3.75         9.526E-2      -3.75         0.81122       -6.08          
20.0990       0.04871       -173.56       9.51E-2       -3.85         9.527E-2      -3.87         0.81109       -6.26          
20.6990       0.04874       -173.37       9.512E-2      -4.00         9.528E-2      -3.96         0.81128       -6.42          
21.2990       0.04874       -173.09       9.508E-2      -4.11         9.524E-2      -4.08         0.81114       -6.59          
21.8989       0.04882       -172.96       9.508E-2      -4.21         9.524E-2      -4.20         0.81131       -6.78          
22.4989       0.04884       -172.71       9.504E-2      -4.36         9.529E-2      -4.31         0.8114        -6.95          
23.0989       0.04891       -172.53       9.505E-2      -4.44         9.53E-2       -4.43         0.81162       -7.13          
23.6988       0.04892       -172.26       9.509E-2      -4.55         9.526E-2      -4.54         0.8113        -7.30          
24.2988       0.04891       -172.08       9.506E-2      -4.65         9.524E-2      -4.66         0.81138       -7.46          
24.8988       0.04901       -171.88       9.505E-2      -4.77         9.522E-2      -4.79         0.81132       -7.63          
25.4987       0.04903       -171.64       9.507E-2      -4.86         9.517E-2      -4.90         0.81139       -7.81          
26.0987       0.04908       -171.42       9.501E-2      -4.99         9.522E-2      -4.99         0.81136       -7.98          
26.6987       0.04915       -171.23       9.499E-2      -5.09         9.518E-2      -5.10         0.81123       -8.13          
27.2987       0.04916       -170.99       9.508E-2      -5.19         9.519E-2      -5.21         0.81112       -8.31          
27.8986       0.04919       -170.81       9.502E-2      -5.34         9.515E-2      -5.32         0.81094       -8.46          
28.4986       0.04923       -170.56       9.505E-2      -5.44         9.518E-2      -5.43         0.81097       -8.65          
29.0986       0.04927       -170.47       9.504E-2      -5.54         9.515E-2      -5.57         0.81079       -8.81          
29.6985       0.04935       -170.25       9.501E-2      -5.66         9.514E-2      -5.64         0.81069       -8.99          
30.2985       0.04931       -170.02       9.50E-2       -5.78         9.512E-2      -5.81         0.81053       -9.16          
30.8985       0.04937       -169.77       9.501E-2      -5.89         9.509E-2      -5.88         0.81061       -9.33          
31.4984       0.04942       -169.60       9.497E-2      -5.97         9.505E-2      -5.98         0.81057       -9.48          
32.0984       0.04946       -169.48       9.496E-2      -6.11         9.513E-2      -6.10         0.81064       -9.65          
32.6984       0.04949       -169.24       9.496E-2      -6.19         9.512E-2      -6.20         0.8106        -9.82          
33.2984       0.04953       -169.07       9.497E-2      -6.31         9.509E-2      -6.32         0.81056       -9.96          
33.8983       0.04955       -168.86       9.501E-2      -6.42         9.507E-2      -6.42         0.81078       -10.11         
34.4983       0.04961       -168.64       9.497E-2      -6.52         9.509E-2      -6.53         0.811         -10.27         
35.0983       0.0496        -168.49       9.50E-2       -6.62         9.51E-2       -6.66         0.81113       -10.45         
35.6982       0.04963       -168.29       9.502E-2      -6.72         9.507E-2      -6.74         0.81134       -10.60         
36.2982       0.04971       -168.10       9.501E-2      -6.85         9.506E-2      -6.90         0.81136       -10.78         
36.8982       0.04971       -167.90       9.496E-2      -6.96         9.508E-2      -6.99         0.81132       -10.95         
37.4981       0.04978       -167.75       9.498E-2      -7.07         9.507E-2      -7.08         0.81133       -11.11         
38.0981       0.04979       -167.54       9.498E-2      -7.18         9.504E-2      -7.21         0.81148       -11.30         
38.6981       0.04984       -167.35       9.499E-2      -7.26         9.502E-2      -7.33         0.81146       -11.47         
39.2981       0.04986       -167.17       9.495E-2      -7.37         9.501E-2      -7.41         0.81151       -11.63         
39.8980       0.0499        -166.97       9.496E-2      -7.49         9.50E-2       -7.57         0.81148       -11.81         
40.4980       0.04991       -166.75       9.494E-2      -7.62         9.50E-2       -7.63         0.81156       -11.96         
41.0980       0.04997       -166.56       9.499E-2      -7.72         9.501E-2      -7.76         0.81139       -12.14         
41.6979       0.05002       -166.41       9.494E-2      -7.82         9.501E-2      -7.87         0.81168       -12.32         
42.2979       0.05005       -166.29       9.492E-2      -7.92         9.505E-2      -7.97         0.81164       -12.50         
42.8979       0.0501        -166.08       9.493E-2      -8.06         9.501E-2      -8.07         0.81177       -12.67         
43.4978       0.05009       -165.93       9.491E-2      -8.15         9.501E-2      -8.19         0.81193       -12.85         
44.0978       0.05016       -165.73       9.492E-2      -8.27         9.501E-2      -8.30         0.81196       -13.04         
44.6978       0.05023       -165.65       9.49E-2       -8.38         9.501E-2      -8.42         0.81223       -13.22         
45.2978       0.05027       -165.47       9.491E-2      -8.49         9.498E-2      -8.51         0.81217       -13.40         
45.8977       0.05033       -165.23       9.491E-2      -8.60         9.50E-2       -8.62         0.81244       -13.57         
46.4977       0.05031       -165.08       9.483E-2      -8.72         9.497E-2      -8.72         0.81249       -13.75         
47.0977       0.05031       -164.91       9.491E-2      -8.83         9.503E-2      -8.86         0.81353       -13.91         
47.6976       0.05041       -164.67       9.488E-2      -8.95         9.494E-2      -8.96         0.81367       -14.08         
48.2976       0.05046       -164.56       9.492E-2      -9.06         9.495E-2      -9.05         0.81375       -14.24         
48.8976       0.05048       -164.40       9.485E-2      -9.18         9.496E-2      -9.17         0.81398       -14.41         
49.4975       0.05052       -164.21       9.485E-2      -9.30         9.501E-2      -9.26         0.81398       -14.58         
50.0975       0.05055       -164.04       9.483E-2      -9.38         9.495E-2      -9.39         0.81413       -14.74         
50.6975       0.05059       -163.85       9.484E-2      -9.49         9.496E-2      -9.51         0.81434       -14.92         
51.2975       0.05063       -163.70       9.482E-2      -9.59         9.498E-2      -9.65         0.8145        -15.10         
51.8974       0.05072       -163.55       9.48E-2       -9.71         9.498E-2      -9.73         0.81447       -15.26         
52.4974       0.05142       -163.65       9.478E-2      -9.76         9.571E-2      -10.05        0.8126        -15.43         
53.0974       0.05073       -163.19       9.495E-2      -9.94         9.477E-2      -9.91         0.8122        -15.51         
53.6973       0.05078       -163.01       9.482E-2      -10.04        9.497E-2      -10.06        0.81532       -15.77         
54.2973       0.05082       -162.92       9.482E-2      -10.14        9.496E-2      -10.19        0.81541       -15.93         
54.8973       0.05086       -162.72       9.48E-2       -10.26        9.494E-2      -10.28        0.81548       -16.08         
55.4972       0.0509        -162.56       9.48E-2       -10.34        9.497E-2      -10.39        0.81571       -16.24         
56.0972       0.05095       -162.41       9.483E-2      -10.45        9.494E-2      -10.48        0.81562       -16.41         
56.6972       0.051         -162.21       9.481E-2      -10.57        9.494E-2      -10.56        0.81575       -16.55         
57.2972       0.05108       -162.02       9.476E-2      -10.66        9.499E-2      -10.68        0.81584       -16.72         
57.8971       0.05107       -161.84       9.479E-2      -10.77        9.493E-2      -10.80        0.81595       -16.88         
58.4971       0.05112       -161.73       9.484E-2      -10.89        9.494E-2      -10.93        0.81621       -17.05         
59.0971       0.05114       -161.57       9.484E-2      -10.99        9.494E-2      -11.01        0.81629       -17.20         
59.6970       0.05118       -161.35       9.484E-2      -11.10        9.50E-2       -11.14        0.81655       -17.36         
60.2970       0.05121       -161.17       9.48E-2       -11.19        9.494E-2      -11.24        0.81667       -17.51         
60.8970       0.05129       -161.00       9.484E-2      -11.32        9.499E-2      -11.37        0.81691       -17.68         
61.4969       0.05131       -160.87       9.484E-2      -11.43        9.496E-2      -11.48        0.81686       -17.85         
62.0969       0.05136       -160.67       9.481E-2      -11.55        9.498E-2      -11.58        0.81686       -18.01         
62.6969       0.05136       -160.57       9.483E-2      -11.64        9.495E-2      -11.70        0.81689       -18.17         
63.2969       0.05146       -160.38       9.484E-2      -11.75        9.497E-2      -11.79        0.81705       -18.33         
63.8968       0.0515        -160.25       9.486E-2      -11.86        9.498E-2      -11.93        0.81711       -18.47         
64.4968       0.05154       -160.04       9.488E-2      -11.98        9.497E-2      -12.03        0.81729       -18.64         
65.0968       0.05156       -159.91       9.484E-2      -12.09        9.498E-2      -12.13        0.81735       -18.80         
65.6967       0.05165       -159.71       9.49E-2       -12.18        9.499E-2      -12.26        0.81749       -18.95         
66.2967       0.05166       -159.59       9.483E-2      -12.28        9.498E-2      -12.35        0.8176        -19.12         
66.8967       0.05167       -159.42       9.481E-2      -12.41        9.50E-2       -12.47        0.81752       -19.28         
67.4966       0.05172       -159.25       9.482E-2      -12.51        9.502E-2      -12.58        0.8176        -19.46         
68.0966       0.05175       -159.11       9.481E-2      -12.63        9.501E-2      -12.67        0.81774       -19.61         
68.6966       0.05184       -158.89       9.486E-2      -12.73        9.501E-2      -12.77        0.8179        -19.75         
69.2966       0.05191       -158.74       9.483E-2      -12.85        9.503E-2      -12.86        0.81787       -19.94         
69.8965       0.05194       -158.60       9.485E-2      -12.98        9.504E-2      -12.98        0.81807       -20.10         
70.4965       0.05197       -158.49       9.487E-2      -13.06        9.501E-2      -13.09        0.81827       -20.26         
71.0965       0.05202       -158.31       9.484E-2      -13.17        9.504E-2      -13.20        0.81843       -20.42         
71.6964       0.05211       -158.14       9.483E-2      -13.30        9.507E-2      -13.31        0.8184        -20.57         
72.2964       0.05211       -158.05       9.487E-2      -13.40        9.498E-2      -13.43        0.81853       -20.73         
72.8964       0.0522        -157.93       9.488E-2      -13.52        9.503E-2      -13.52        0.81865       -20.91         
73.4963       0.05229       -157.72       9.487E-2      -13.66        9.501E-2      -13.66        0.81874       -21.06         
74.0963       0.05228       -157.60       9.486E-2      -13.74        9.502E-2      -13.76        0.81893       -21.23         
74.6963       0.0523        -157.52       9.486E-2      -13.89        9.503E-2      -13.86        0.81884       -21.37         
75.2963       0.05239       -157.30       9.487E-2      -13.96        9.502E-2      -13.96        0.81902       -21.55         
75.8962       0.05243       -157.16       9.485E-2      -14.08        9.507E-2      -14.10        0.81914       -21.70         
76.4962       0.0525        -156.96       9.492E-2      -14.17        9.503E-2      -14.20        0.81943       -21.87         
77.0962       0.05255       -156.87       9.489E-2      -14.29        9.508E-2      -14.29        0.81954       -22.03         
77.6961       0.05258       -156.71       9.486E-2      -14.41        9.51E-2       -14.43        0.8199        -22.19         
78.2961       0.0527        -156.53       9.488E-2      -14.48        9.506E-2      -14.51        0.8199        -22.35         
78.8961       0.05272       -156.41       9.488E-2      -14.62        9.509E-2      -14.62        0.82017       -22.50         
79.4960       0.05278       -156.25       9.492E-2      -14.73        9.511E-2      -14.72        0.82043       -22.65         
80.0960       0.05276       -156.11       9.492E-2      -14.85        9.508E-2      -14.84        0.82052       -22.83         
80.6960       0.05285       -155.99       9.493E-2      -14.95        9.51E-2       -14.92        0.8207        -22.98         
81.2960       0.05291       -155.86       9.493E-2      -15.06        9.511E-2      -15.05        0.82092       -23.14         
81.8959       0.05297       -155.71       9.491E-2      -15.16        9.513E-2      -15.15        0.82119       -23.29         
82.4959       0.05307       -155.54       9.495E-2      -15.26        9.515E-2      -15.25        0.82145       -23.46         
83.0959       0.05312       -155.36       9.497E-2      -15.38        9.514E-2      -15.35        0.82155       -23.60         
83.6958       0.05315       -155.22       9.495E-2      -15.48        9.514E-2      -15.48        0.82178       -23.77         
84.2958       0.05318       -155.06       9.499E-2      -15.62        9.514E-2      -15.56        0.82196       -23.92         
84.8958       0.05324       -154.93       9.497E-2      -15.72        9.513E-2      -15.71        0.82198       -24.08         
85.4957       0.05333       -154.80       9.502E-2      -15.85        9.515E-2      -15.83        0.82231       -24.25         
86.0957       0.05338       -154.61       9.504E-2      -15.95        9.514E-2      -15.95        0.82227       -24.43         
86.6957       0.05341       -154.41       9.50E-2       -16.07        9.516E-2      -16.06        0.82246       -24.58         
87.2957       0.05349       -154.34       9.505E-2      -16.18        9.516E-2      -16.18        0.82271       -24.75         
87.8956       0.0535        -154.21       9.506E-2      -16.28        9.512E-2      -16.27        0.82281       -24.89         
88.4956       0.05364       -154.01       9.504E-2      -16.39        9.517E-2      -16.39        0.82288       -25.05         
89.0956       0.0537        -153.85       9.507E-2      -16.49        9.515E-2      -16.52        0.82307       -25.20         
89.6955       0.05372       -153.68       9.511E-2      -16.61        9.516E-2      -16.61        0.82329       -25.36         
90.2955       0.0538        -153.55       9.51E-2       -16.70        9.518E-2      -16.70        0.82357       -25.53         
90.8955       0.05386       -153.43       9.512E-2      -16.82        9.518E-2      -16.82        0.82356       -25.69         
91.4954       0.05394       -153.24       9.516E-2      -16.93        9.517E-2      -16.94        0.82371       -25.86         
92.0954       0.054         -153.09       9.515E-2      -17.05        9.517E-2      -17.05        0.82364       -26.00         
