!    8/6/2020   01:54:00 
! Ref Plane: 0.000 mm
# MHZ S MA R  50
!
0.3000        0.04696       178.87        9.888E-2      -0.97         9.657E-2      -0.67         0.81584       -0.34          
0.9000        0.04748       179.16        9.493E-2      -0.44         9.535E-2      -0.12         0.80999       -0.45          
1.4999        0.04766       179.34        9.515E-2      -0.25         9.536E-2      -0.21         0.80936       -0.61          
2.0999        0.04765       179.57        9.514E-2      -0.41         9.532E-2      -0.30         0.80946       -0.81          
2.6999        0.04773       179.78        9.52E-2       -0.54         9.535E-2      -0.43         0.80941       -0.98          
3.2999        0.04772       -179.96       9.521E-2      -0.62         9.534E-2      -0.59         0.80961       -1.16          
3.8998        0.04782       -179.76       9.516E-2      -0.75         9.534E-2      -0.73         0.80959       -1.35          
4.4998        0.04779       -179.55       9.518E-2      -0.90         9.536E-2      -0.81         0.80964       -1.51          
5.0998        0.0479        -179.23       9.517E-2      -0.98         9.531E-2      -0.94         0.80965       -1.69          
5.6997        0.04787       -178.99       9.515E-2      -1.12         9.537E-2      -1.10         0.80979       -1.87          
6.2997        0.04792       -178.87       9.514E-2      -1.25         9.534E-2      -1.20         0.80959       -2.06          
6.8997        0.04797       -178.60       9.516E-2      -1.42         9.527E-2      -1.33         0.80977       -2.24          
7.4996        0.04802       -178.30       9.514E-2      -1.48         9.533E-2      -1.44         0.80982       -2.44          
8.0996        0.04806       -178.13       9.514E-2      -1.63         9.533E-2      -1.58         0.80959       -2.62          
8.6996        0.04809       -177.88       9.516E-2      -1.72         9.535E-2      -1.68         0.80979       -2.79          
9.2996        0.04809       -177.63       9.521E-2      -1.87         9.535E-2      -1.85         0.80999       -2.98          
9.8995        0.04813       -177.40       9.516E-2      -2.03         9.535E-2      -1.96         0.80959       -3.15          
10.4995       0.0482        -177.21       9.514E-2      -2.14         9.536E-2      -2.08         0.81002       -3.33          
11.0995       0.04826       -176.98       9.517E-2      -2.27         9.537E-2      -2.20         0.81009       -3.51          
11.6994       0.04824       -176.74       9.516E-2      -2.37         9.536E-2      -2.32         0.81018       -3.70          
12.2994       0.04828       -176.49       9.512E-2      -2.50         9.532E-2      -2.44         0.81005       -3.87          
12.8994       0.0483        -176.27       9.516E-2      -2.56         9.532E-2      -2.58         0.81005       -4.04          
13.4993       0.04833       -176.04       9.523E-2      -2.76         9.532E-2      -2.73         0.81023       -4.24          
14.0993       0.04839       -175.88       9.518E-2      -2.83         9.531E-2      -2.86         0.81025       -4.40          
14.6993       0.04839       -175.58       9.515E-2      -3.02         9.536E-2      -2.96         0.81017       -4.57          
15.2993       0.04845       -175.44       9.513E-2      -3.10         9.532E-2      -3.09         0.81034       -4.76          
15.8992       0.04849       -175.23       9.514E-2      -3.19         9.529E-2      -3.25         0.81039       -4.92          
16.4992       0.04854       -175.02       9.518E-2      -3.35         9.533E-2      -3.37         0.8103        -5.11          
17.0992       0.04856       -174.78       9.519E-2      -3.46         9.532E-2      -3.46         0.81045       -5.29          
17.6991       0.04864       -174.54       9.516E-2      -3.58         9.53E-2       -3.60         0.81041       -5.48          
18.2991       0.04865       -174.37       9.516E-2      -3.72         9.532E-2      -3.73         0.81048       -5.63          
18.8991       0.04867       -174.14       9.516E-2      -3.86         9.533E-2      -3.83         0.81073       -5.79          
19.4990       0.04869       -173.94       9.521E-2      -3.98         9.534E-2      -3.97         0.81073       -5.98          
20.0990       0.04873       -173.70       9.518E-2      -4.09         9.535E-2      -4.10         0.81063       -6.16          
20.6990       0.04879       -173.47       9.518E-2      -4.25         9.535E-2      -4.20         0.81071       -6.33          
21.2990       0.04878       -173.20       9.516E-2      -4.37         9.533E-2      -4.33         0.81061       -6.49          
21.8989       0.04883       -173.09       9.519E-2      -4.49         9.532E-2      -4.45         0.81074       -6.69          
22.4989       0.04889       -172.83       9.513E-2      -4.63         9.538E-2      -4.56         0.81078       -6.85          
23.0989       0.04893       -172.66       9.517E-2      -4.72         9.539E-2      -4.70         0.81096       -7.04          
23.6988       0.04894       -172.40       9.518E-2      -4.85         9.537E-2      -4.82         0.8106        -7.21          
24.2988       0.049         -172.22       9.515E-2      -4.94         9.534E-2      -4.95         0.81066       -7.37          
24.8988       0.04905       -171.99       9.514E-2      -5.09         9.536E-2      -5.11         0.81055       -7.55          
25.4987       0.0491        -171.80       9.518E-2      -5.18         9.531E-2      -5.22         0.81057       -7.72          
26.0987       0.04914       -171.57       9.511E-2      -5.32         9.534E-2      -5.31         0.81049       -7.90          
26.6987       0.04918       -171.38       9.513E-2      -5.43         9.532E-2      -5.44         0.81029       -8.06          
27.2987       0.0492        -171.15       9.52E-2       -5.56         9.533E-2      -5.55         0.81014       -8.24          
27.8986       0.04923       -170.97       9.517E-2      -5.71         9.532E-2      -5.67         0.80994       -8.39          
28.4986       0.04925       -170.72       9.518E-2      -5.81         9.532E-2      -5.83         0.80996       -8.59          
29.0986       0.04931       -170.60       9.516E-2      -5.92         9.533E-2      -5.95         0.80971       -8.74          
29.6985       0.0494        -170.41       9.517E-2      -6.05         9.53E-2       -6.04         0.8096        -8.93          
30.2985       0.04937       -170.20       9.513E-2      -6.18         9.53E-2       -6.19         0.80932       -9.10          
30.8985       0.04941       -169.93       9.515E-2      -6.32         9.525E-2      -6.28         0.80937       -9.28          
31.4984       0.04948       -169.77       9.512E-2      -6.41         9.525E-2      -6.40         0.8093        -9.44          
32.0984       0.04949       -169.64       9.516E-2      -6.57         9.531E-2      -6.53         0.80931       -9.61          
32.6984       0.04953       -169.40       9.517E-2      -6.66         9.53E-2       -6.64         0.80921       -9.78          
33.2984       0.04957       -169.25       9.511E-2      -6.77         9.528E-2      -6.78         0.80916       -9.93          
33.8983       0.0496        -169.06       9.519E-2      -6.89         9.528E-2      -6.90         0.80927       -10.09         
34.4983       0.04965       -168.83       9.516E-2      -7.01         9.53E-2       -7.00         0.80943       -10.24         
35.0983       0.04967       -168.71       9.519E-2      -7.13         9.528E-2      -7.15         0.8095        -10.43         
35.6982       0.0497        -168.48       9.52E-2       -7.23         9.529E-2      -7.26         0.80966       -10.59         
36.2982       0.0498        -168.27       9.519E-2      -7.38         9.525E-2      -7.41         0.80961       -10.78         
36.8982       0.0498        -168.10       9.514E-2      -7.49         9.528E-2      -7.52         0.80956       -10.95         
37.4981       0.04983       -167.92       9.518E-2      -7.61         9.529E-2      -7.62         0.80949       -11.12         
38.0981       0.04987       -167.73       9.52E-2       -7.70         9.525E-2      -7.75         0.80948       -11.31         
38.6981       0.04989       -167.56       9.52E-2       -7.81         9.526E-2      -7.88         0.80949       -11.49         
39.2981       0.04994       -167.39       9.519E-2      -7.94         9.524E-2      -8.01         0.80946       -11.66         
39.8980       0.04998       -167.22       9.52E-2       -8.13         9.527E-2      -8.17         0.80933       -11.84         
40.4980       0.04998       -166.99       9.519E-2      -8.22         9.526E-2      -8.23         0.80937       -12.00         
41.0980       0.05006       -166.80       9.524E-2      -8.34         9.528E-2      -8.38         0.8091        -12.19         
41.6979       0.0501        -166.65       9.519E-2      -8.43         9.529E-2      -8.49         0.80933       -12.37         
42.2979       0.05014       -166.48       9.518E-2      -8.57         9.529E-2      -8.62         0.80923       -12.56         
42.8979       0.05019       -166.33       9.517E-2      -8.70         9.524E-2      -8.72         0.80933       -12.74         
43.4978       0.05018       -166.18       9.516E-2      -8.80         9.53E-2       -8.86         0.80939       -12.93         
44.0978       0.05025       -165.99       9.517E-2      -8.95         9.526E-2      -8.97         0.80928       -13.12         
44.6978       0.05033       -165.88       9.515E-2      -9.08         9.527E-2      -9.12         0.80948       -13.31         
45.2978       0.05035       -165.70       9.518E-2      -9.19         9.526E-2      -9.20         0.8094        -13.49         
45.8977       0.05043       -165.46       9.514E-2      -9.32         9.527E-2      -9.34         0.80954       -13.67         
46.4977       0.05041       -165.33       9.511E-2      -9.44         9.523E-2      -9.46         0.80957       -13.86         
47.0977       0.05042       -165.14       9.516E-2      -9.58         9.531E-2      -9.58         0.81049       -14.03         
47.6976       0.05048       -164.96       9.515E-2      -9.70         9.521E-2      -9.70         0.81056       -14.21         
48.2976       0.05054       -164.82       9.519E-2      -9.85         9.524E-2      -9.80         0.81061       -14.37         
48.8976       0.0506        -164.68       9.515E-2      -9.97         9.525E-2      -9.94         0.81078       -14.56         
49.4975       0.05067       -164.50       9.513E-2      -10.10        9.531E-2      -10.03        0.81066       -14.73         
50.0975       0.05065       -164.31       9.511E-2      -10.19        9.521E-2      -10.20        0.81076       -14.90         
50.6975       0.0507        -164.11       9.513E-2      -10.33        9.528E-2      -10.32        0.8109        -15.09         
51.2975       0.05078       -163.99       9.514E-2      -10.44        9.529E-2      -10.46        0.81093       -15.28         
51.8974       0.05084       -163.85       9.508E-2      -10.57        9.534E-2      -10.58        0.81089       -15.44         
52.4974       0.05158       -163.93       9.508E-2      -10.64        9.60E-2       -10.88        0.80887       -15.63         
53.0974       0.05085       -163.47       9.523E-2      -10.80        9.517E-2      -10.81        0.80839       -15.72         
53.6973       0.05095       -163.31       9.514E-2      -10.92        9.529E-2      -10.93        0.81142       -15.99         
54.2973       0.05099       -163.21       9.512E-2      -11.02        9.528E-2      -11.08        0.81139       -16.16         
54.8973       0.05101       -163.02       9.512E-2      -11.19        9.527E-2      -11.20        0.81146       -16.32         
55.4972       0.05106       -162.87       9.509E-2      -11.26        9.528E-2      -11.31        0.81155       -16.49         
56.0972       0.05111       -162.71       9.512E-2      -11.40        9.527E-2      -11.43        0.81139       -16.67         
56.6972       0.05117       -162.52       9.509E-2      -11.51        9.523E-2      -11.52        0.81147       -16.82         
57.2972       0.05125       -162.33       9.512E-2      -11.65        9.527E-2      -11.64        0.81147       -16.99         
57.8971       0.05124       -162.16       9.508E-2      -11.77        9.525E-2      -11.77        0.8115        -17.16         
58.4971       0.05129       -162.02       9.515E-2      -11.88        9.528E-2      -11.91        0.81168       -17.34         
59.0971       0.05133       -161.90       9.517E-2      -12.00        9.527E-2      -12.01        0.81168       -17.50         
59.6970       0.05137       -161.71       9.515E-2      -12.10        9.532E-2      -12.14        0.81192       -17.68         
60.2970       0.05139       -161.52       9.51E-2       -12.23        9.526E-2      -12.25        0.8119        -17.83         
60.8970       0.05146       -161.33       9.515E-2      -12.37        9.531E-2      -12.41        0.81204       -18.01         
61.4969       0.05148       -161.20       9.514E-2      -12.51        9.528E-2      -12.52        0.81192       -18.19         
62.0969       0.05156       -161.04       9.513E-2      -12.62        9.529E-2      -12.64        0.8118        -18.35         
62.6969       0.05157       -160.94       9.516E-2      -12.74        9.526E-2      -12.77        0.81182       -18.52         
63.2969       0.05166       -160.77       9.513E-2      -12.84        9.528E-2      -12.89        0.81194       -18.70         
63.8968       0.0517        -160.63       9.513E-2      -12.97        9.527E-2      -13.01        0.81189       -18.85         
64.4968       0.05177       -160.45       9.515E-2      -13.12        9.528E-2      -13.13        0.8119        -19.04         
65.0968       0.05178       -160.27       9.513E-2      -13.21        9.531E-2      -13.26        0.81197       -19.20         
65.6967       0.05187       -160.10       9.512E-2      -13.31        9.532E-2      -13.36        0.81208       -19.36         
66.2967       0.05189       -159.95       9.514E-2      -13.42        9.526E-2      -13.51        0.81204       -19.54         
66.8967       0.05191       -159.83       9.514E-2      -13.56        9.528E-2      -13.61        0.81194       -19.72         
67.4966       0.05196       -159.65       9.511E-2      -13.68        9.529E-2      -13.73        0.81191       -19.90         
68.0966       0.05199       -159.51       9.513E-2      -13.78        9.532E-2      -13.82        0.81195       -20.06         
68.6966       0.05208       -159.31       9.515E-2      -13.90        9.534E-2      -13.95        0.81204       -20.22         
69.2966       0.05215       -159.16       9.515E-2      -14.04        9.536E-2      -14.06        0.81194       -20.41         
69.8965       0.05222       -158.98       9.516E-2      -14.16        9.534E-2      -14.18        0.812         -20.58         
70.4965       0.05226       -158.90       9.517E-2      -14.28        9.533E-2      -14.31        0.81215       -20.75         
71.0965       0.05228       -158.72       9.513E-2      -14.41        9.534E-2      -14.42        0.8122        -20.92         
71.6964       0.05238       -158.57       9.512E-2      -14.53        9.535E-2      -14.55        0.81215       -21.08         
72.2964       0.0524        -158.48       9.517E-2      -14.66        9.53E-2       -14.68        0.8122        -21.25         
72.8964       0.05251       -158.37       9.52E-2       -14.81        9.533E-2      -14.80        0.81227       -21.43         
73.4963       0.05258       -158.16       9.516E-2      -14.92        9.531E-2      -14.91        0.8123        -21.60         
74.0963       0.05258       -158.03       9.519E-2      -15.04        9.537E-2      -15.03        0.81242       -21.78         
74.6963       0.05264       -157.97       9.516E-2      -15.16        9.534E-2      -15.15        0.81222       -21.93         
75.2963       0.0527        -157.77       9.516E-2      -15.29        9.533E-2      -15.27        0.81232       -22.11         
75.8962       0.05274       -157.61       9.521E-2      -15.41        9.535E-2      -15.42        0.81239       -22.28         
76.4962       0.05283       -157.41       9.519E-2      -15.50        9.536E-2      -15.52        0.81263       -22.45         
77.0962       0.0529        -157.35       9.52E-2       -15.62        9.537E-2      -15.63        0.81268       -22.61         
77.6961       0.05296       -157.21       9.518E-2      -15.77        9.54E-2       -15.77        0.81295       -22.79         
78.2961       0.05304       -157.03       9.521E-2      -15.84        9.539E-2      -15.86        0.81295       -22.96         
78.8961       0.05305       -156.91       9.52E-2       -15.99        9.54E-2       -15.98        0.81309       -23.12         
79.4960       0.05312       -156.74       9.52E-2       -16.11        9.542E-2      -16.12        0.81335       -23.28         
80.0960       0.05315       -156.65       9.522E-2      -16.24        9.541E-2      -16.22        0.81334       -23.46         
80.6960       0.05321       -156.51       9.525E-2      -16.36        9.541E-2      -16.34        0.81348       -23.61         
81.2960       0.05329       -156.41       9.523E-2      -16.48        9.544E-2      -16.45        0.81364       -23.78         
81.8959       0.05335       -156.24       9.523E-2      -16.60        9.546E-2      -16.59        0.81384       -23.94         
82.4959       0.05342       -156.09       9.525E-2      -16.70        9.546E-2      -16.69        0.81407       -24.12         
83.0959       0.0535        -155.92       9.524E-2      -16.82        9.546E-2      -16.81        0.81414       -24.27         
83.6958       0.05354       -155.79       9.526E-2      -16.95        9.545E-2      -16.94        0.81435       -24.45         
84.2958       0.05362       -155.63       9.528E-2      -17.07        9.543E-2      -17.06        0.81444       -24.61         
84.8958       0.05368       -155.49       9.53E-2       -17.19        9.545E-2      -17.19        0.81445       -24.77         
85.4957       0.05377       -155.40       9.533E-2      -17.33        9.545E-2      -17.33        0.81473       -24.95         
86.0957       0.0538        -155.22       9.536E-2      -17.45        9.545E-2      -17.44        0.8146        -25.13         
86.6957       0.05386       -155.02       9.529E-2      -17.58        9.547E-2      -17.58        0.81483       -25.29         
87.2957       0.05394       -154.93       9.537E-2      -17.70        9.547E-2      -17.70        0.81504       -25.46         
87.8956       0.05395       -154.80       9.532E-2      -17.81        9.545E-2      -17.81        0.81504       -25.62         
88.4956       0.05409       -154.64       9.533E-2      -17.92        9.546E-2      -17.92        0.8151        -25.77         
89.0956       0.05414       -154.50       9.534E-2      -18.04        9.546E-2      -18.08        0.81528       -25.93         
89.6955       0.05421       -154.31       9.539E-2      -18.16        9.545E-2      -18.18        0.81546       -26.10         
90.2955       0.05429       -154.22       9.537E-2      -18.28        9.548E-2      -18.29        0.81566       -26.27         
90.8955       0.05436       -154.11       9.543E-2      -18.39        9.547E-2      -18.39        0.81574       -26.43         
91.4954       0.05441       -153.89       9.543E-2      -18.51        9.548E-2      -18.54        0.81589       -26.61         
92.0954       0.05448       -153.79       9.542E-2      -18.65        9.548E-2      -18.65        0.8158        -26.76         
