!    8/10/2020   02:05:28 
! Ref Plane: 0.000 mm
# MHZ S MA R  50
!
0.3000        0.82164       0.25          5.572E-5      -117.16       7.911E-5      91.19         0.99555       -0.40          
0.9000        0.81941       0.33          6.93E-5       -149.40       7.201E-5      -93.92        0.99671       -0.33          
1.4999        0.8205        0.32          4.344E-5      -172.19       5.687E-5      7.93          0.99809       -0.32          
2.0999        0.82023       0.28          7.334E-5      -105.27       2.927E-5      113.38        0.99863       -0.25          
2.6999        0.82002       0.23          5.06E-5       -63.84        1.292E-5      -132.78       0.99884       -0.21          
3.2999        0.81993       0.18          1.729E-5      39.18         1.489E-5      -92.35        0.99884       -0.17          
3.8998        0.81986       0.14          3.157E-5      -42.92        5.317E-5      -72.99        0.99897       -0.16          
4.4998        0.81972       0.09          3.626E-5      -67.97        8.052E-6      32.45         0.99901       -0.14          
5.0998        0.81961       0.04          2.906E-5      -129.12       3.801E-5      57.20         0.99899       -0.12          
5.6997        0.81947       0.01          3.396E-5      98.56         1.079E-5      -155.14       0.99902       -0.12          
6.2997        0.81949       -0.04         5.905E-5      128.79        1.763E-5      -20.77        0.99897       -0.11          
6.8997        0.81944       -0.08         5.068E-5      -75.84        2.556E-5      2.14          0.99905       -0.10          
7.4996        0.81947       -0.12         3.534E-5      39.79         4.736E-5      110.65        0.99912       -0.10          
8.0996        0.81947       -0.16         3.613E-5      -148.33       3.258E-5      -83.72        0.9991        -0.09          
8.6996        0.81937       -0.21         4.868E-5      92.66         3.09E-5       147.95        0.99908       -0.09          
9.2996        0.81938       -0.25         6.067E-5      -37.78        2.697E-5      8.94          0.99914       -0.09          
9.8995        0.8194        -0.29         6.748E-5      -69.96        3.082E-5      63.96         0.99914       -0.09          
10.4995       0.81931       -0.34         3.48E-5       136.48        3.217E-5      -143.58       0.99924       -0.08          
11.0995       0.81922       -0.38         3.529E-5      -39.73        3.823E-5      30.97         0.99919       -0.08          
11.6994       0.81915       -0.42         2.061E-5      -155.01       5.50E-5       41.15         0.99913       -0.08          
12.2994       0.81916       -0.46         6.503E-5      -130.89       3.209E-5      67.17         0.99916       -0.08          
12.8994       0.81921       -0.50         8.132E-5      80.43         3.37E-5       30.97         0.99911       -0.08          
13.4993       0.81914       -0.54         4.119E-5      3.65          3.508E-5      85.20         0.9992        -0.07          
14.0993       0.81911       -0.59         3.424E-5      62.84         4.278E-5      -59.65        0.99923       -0.07          
14.6993       0.81907       -0.63         7.19E-5       -114.44       1.43E-5       74.84         0.99921       -0.08          
15.2993       0.81899       -0.67         6.482E-5      116.85        4.907E-5      101.12        0.99925       -0.08          
15.8992       0.81897       -0.71         5.11E-5       28.29         3.065E-5      -175.68       0.99932       -0.07          
16.4992       0.81898       -0.74         3.936E-5      145.33        4.471E-5      -11.60        0.99933       -0.08          
17.0992       0.81888       -0.78         5.135E-5      52.02         2.712E-5      72.95         0.99935       -0.08          
17.6991       0.81892       -0.81         4.394E-5      115.85        2.338E-5      144.50        0.99931       -0.07          
18.2991       0.8189        -0.87         4.355E-5      172.02        5.077E-6      63.48         0.99926       -0.07          
18.8991       0.81869       -0.91         2.453E-5      -151.71       1.466E-5      82.63         0.99933       -0.08          
19.4990       0.81889       -0.95         3.288E-5      -68.81        3.308E-5      -21.12        0.99934       -0.07          
20.0990       0.81878       -0.99         3.906E-5      -11.64        1.367E-5      -133.61       0.99934       -0.08          
20.6990       0.81881       -1.03         5.141E-5      -70.18        1.597E-5      122.42        0.99934       -0.08          
21.2990       0.81879       -1.08         4.121E-5      -157.91       1.474E-5      -9.44         0.9994        -0.08          
21.8989       0.81869       -1.11         4.696E-5      -69.22        5.133E-5      67.67         0.99941       -0.08          
22.4989       0.81875       -1.15         9.996E-5      -134.64       6.593E-6      86.23         0.99943       -0.08          
23.0989       0.81866       -1.19         5.228E-5      106.37        3.091E-5      -17.64        0.99942       -0.08          
23.6988       0.81872       -1.23         2.921E-5      36.03         3.343E-5      -20.58        0.99945       -0.09          
24.2988       0.81866       -1.28         1.697E-5      53.52         1.399E-5      33.35         0.99937       -0.08          
24.8988       0.81869       -1.31         2.277E-5      -122.39       2.643E-5      105.05        0.99945       -0.08          
25.4987       0.81864       -1.35         3.972E-5      24.58         3.729E-5      -30.88        0.99938       -0.08          
26.0987       0.81869       -1.39         8.279E-5      155.27        5.486E-5      41.60         0.9994        -0.08          
26.6987       0.81865       -1.43         3.469E-5      -153.26       2.464E-5      33.94         0.99938       -0.09          
27.2987       0.81857       -1.47         4.857E-5      14.88         4.87E-5       77.22         0.99947       -0.09          
27.8986       0.81864       -1.51         3.404E-5      -92.58        3.034E-5      42.46         0.99935       -0.09          
28.4986       0.81858       -1.55         1.073E-5      -0.11         1.143E-5      -125.07       0.9995        -0.10          
29.0986       0.81862       -1.59         3.304E-5      52.80         4.856E-5      -43.78        0.9995        -0.10          
29.6985       0.81847       -1.63         1.302E-5      147.72        1.89E-5       119.61        0.99944       -0.10          
30.2985       0.81851       -1.66         2.171E-5      72.59         1.502E-5      -83.64        0.99947       -0.10          
30.8985       0.81849       -1.70         6.098E-5      -45.43        2.776E-5      175.71        0.99946       -0.10          
31.4984       0.81844       -1.74         5.775E-5      70.68         5.052E-5      -175.44       0.99943       -0.10          
32.0984       0.81848       -1.78         4.668E-5      -89.40        2.544E-5      79.41         0.99947       -0.10          
32.6984       0.8184        -1.82         1.396E-5      -50.34        1.23E-5       79.97         0.99945       -0.10          
33.2984       0.8186        -1.86         2.279E-5      -83.61        3.404E-5      149.70        0.99945       -0.10          
33.8983       0.81853       -1.89         5.824E-5      -2.01         2.168E-5      -9.64         0.99948       -0.11          
34.4983       0.81829       -1.93         4.837E-6      173.49        1.698E-5      71.26         0.99946       -0.10          
35.0983       0.81848       -1.97         3.098E-5      -69.49        4.534E-5      -60.44        0.99947       -0.11          
35.6982       0.81832       -2.00         4.495E-5      -105.02       1.898E-5      108.84        0.99947       -0.11          
36.2982       0.81837       -2.03         6.457E-5      -144.25       1.148E-5      -71.79        0.9994        -0.11          
36.8982       0.8184        -2.07         5.188E-5      -140.56       1.671E-5      1.96          0.99948       -0.11          
37.4981       0.81842       -2.10         2.378E-5      176.67        1.627E-5      87.38         0.99942       -0.11          
38.0981       0.81834       -2.14         7.379E-6      -177.70       5.589E-6      111.51        0.99949       -0.11          
38.6981       0.81831       -2.17         3.954E-5      -1.72         1.836E-5      118.58        0.9995        -0.12          
39.2981       0.81831       -2.22         5.158E-5      129.50        4.687E-5      -145.74       0.99946       -0.12          
39.8980       0.81838       -2.25         3.464E-5      -85.44        2.846E-5      -63.32        0.99951       -0.12          
40.4980       0.8183        -2.29         2.06E-5       -92.08        2.698E-5      72.37         0.9995        -0.12          
41.0980       0.81837       -2.34         5.248E-5      -64.02        9.485E-6      32.33         0.99952       -0.12          
41.6979       0.81828       -2.36         3.241E-5      73.69         3.033E-5      0.31          0.99957       -0.13          
42.2979       0.81834       -2.41         3.42E-5       76.76         1.80E-5       -18.91        0.99948       -0.12          
42.8979       0.81831       -2.44         2.442E-5      174.20        3.936E-5      160.09        0.99954       -0.13          
43.4978       0.81825       -2.47         5.82E-5       124.21        1.75E-5       -162.35       0.99955       -0.13          
44.0978       0.81829       -2.51         3.515E-5      -78.44        2.009E-5      -21.17        0.99955       -0.13          
44.6978       0.81819       -2.53         5.976E-6      -130.45       2.598E-5      18.28         0.99954       -0.13          
45.2978       0.81829       -2.59         4.088E-5      20.96         3.463E-6      -22.88        0.99958       -0.13          
45.8977       0.81829       -2.62         2.371E-5      148.56        2.669E-5      -36.69        0.99951       -0.14          
46.4977       0.81815       -2.66         4.032E-5      142.41        1.577E-5      95.08         0.99953       -0.14          
47.0977       0.81816       -2.68         6.544E-5      56.06         3.916E-5      37.16         0.99965       -0.14          
47.6976       0.81803       -2.71         3.538E-5      72.77         5.845E-5      -179.47       0.99965       -0.14          
48.2976       0.81811       -2.76         4.247E-5      2.86          2.581E-5      170.96        0.99968       -0.14          
48.8976       0.81805       -2.79         5.079E-5      83.79         3.565E-5      170.14        0.99957       -0.15          
49.4975       0.81801       -2.82         2.654E-5      1.37          4.401E-5      79.42         0.9996        -0.14          
50.0975       0.81807       -2.87         2.101E-5      32.63         3.286E-5      -168.01       0.9996        -0.14          
50.6975       0.81805       -2.90         1.687E-5      -147.54       1.593E-5      177.74        0.9996        -0.15          
51.2975       0.81799       -2.93         2.96E-5       38.41         1.30E-5       -73.79        0.99961       -0.15          
51.8974       0.81814       -2.97         5.414E-5      57.09         2.838E-5      117.27        0.99957       -0.15          
52.4974       0.82039       -2.99         2.78E-5       0.54          3.761E-5      62.79         0.99961       -0.16          
53.0974       0.81798       -3.00         1.565E-5      179.49        2.553E-5      -121.21       0.9996        -0.16          
53.6973       0.81803       -3.06         4.825E-5      71.39         1.921E-5      18.35         0.99962       -0.15          
54.2973       0.81798       -3.10         2.563E-5      -170.11       1.351E-5      -29.71        0.99958       -0.16          
54.8973       0.81797       -3.15         5.711E-5      179.99        2.987E-5      -15.36        0.99963       -0.16          
55.4972       0.81796       -3.16         3.29E-5       78.20         1.956E-5      85.35         0.99961       -0.16          
56.0972       0.81806       -3.20         5.712E-5      53.55         1.983E-5      62.87         0.99958       -0.16          
56.6972       0.81807       -3.25         5.497E-5      -19.08        2.035E-5      111.33        0.99962       -0.17          
57.2972       0.81801       -3.29         1.501E-5      -128.38       2.356E-5      -103.52       0.99967       -0.17          
57.8971       0.81802       -3.32         2.393E-5      40.74         8.418E-6      98.41         0.99961       -0.17          
58.4971       0.81791       -3.35         2.283E-5      -79.24        1.539E-5      59.76         0.99962       -0.17          
59.0971       0.81792       -3.40         3.243E-5      -14.72        1.447E-5      59.06         0.99967       -0.17          
59.6970       0.81794       -3.43         1.566E-5      154.46        4.726E-5      10.99         0.99965       -0.17          
60.2970       0.81784       -3.47         2.454E-5      141.34        1.022E-5      -80.40        0.99965       -0.17          
60.8970       0.81777       -3.50         4.986E-5      -135.66       3.719E-5      68.35         0.99968       -0.18          
61.4969       0.81776       -3.53         2.404E-5      175.42        1.717E-5      65.36         0.99964       -0.18          
62.0969       0.81788       -3.56         6.588E-6      -164.16       1.217E-5      133.01        0.99967       -0.18          
62.6969       0.81781       -3.61         4.233E-5      -74.26        1.916E-5      -23.48        0.99963       -0.18          
63.2969       0.81782       -3.64         2.316E-5      156.70        7.411E-6      -174.69       0.99967       -0.18          
63.8968       0.81763       -3.67         5.717E-5      135.83        9.442E-6      -144.20       0.99967       -0.19          
64.4968       0.81765       -3.71         3.904E-5      -20.66        3.86E-6       105.21        0.99965       -0.19          
65.0968       0.81753       -3.74         3.358E-5      -159.20       3.664E-5      101.21        0.9997        -0.19          
65.6967       0.81754       -3.78         3.935E-5      -80.18        1.763E-5      -2.22         0.99965       -0.19          
66.2967       0.8175        -3.81         5.751E-5      -64.23        1.161E-5      -109.59       0.99969       -0.19          
66.8967       0.81758       -3.84         2.872E-5      148.13        3.808E-5      -55.22        0.99967       -0.20          
67.4966       0.8177        -3.88         2.843E-5      82.02         1.177E-5      -75.11        0.99963       -0.20          
68.0966       0.81767       -3.91         5.436E-6      -102.90       3.179E-5      52.47         0.99968       -0.20          
68.6966       0.81761       -3.97         2.494E-5      19.22         2.219E-5      -14.13        0.99966       -0.20          
69.2966       0.81755       -3.99         2.013E-5      -49.94        1.719E-5      123.82        0.99969       -0.20          
69.8965       0.81753       -4.03         1.361E-5      -91.52        1.144E-5      -7.96         0.99968       -0.20          
70.4965       0.81751       -4.07         3.46E-5       25.02         2.13E-5       160.05        0.99968       -0.20          
71.0965       0.81744       -4.10         3.066E-5      100.13        2.708E-5      172.78        0.99966       -0.21          
71.6964       0.81748       -4.14         3.522E-5      95.25         1.918E-5      115.19        0.99967       -0.21          
72.2964       0.8174        -4.18         4.102E-5      110.15        1.83E-5       -129.79       0.99965       -0.20          
72.8964       0.81737       -4.21         3.405E-5      -175.78       2.791E-5      71.80         0.9997        -0.21          
73.4963       0.81738       -4.25         3.045E-5      -66.89        3.977E-5      -44.52        0.99968       -0.21          
74.0963       0.8174        -4.29         8.578E-5      -125.29       4.579E-5      26.04         0.99969       -0.21          
74.6963       0.81739       -4.33         6.829E-6      -73.10        2.649E-5      -37.41        0.99973       -0.20          
75.2963       0.81737       -4.37         5.433E-5      157.22        4.013E-5      -109.27       0.99968       -0.21          
75.8962       0.81728       -4.41         3.442E-5      -165.03       3.422E-5      156.52        0.9997        -0.21          
76.4962       0.81722       -4.44         1.805E-5      -53.45        3.211E-5      53.41         0.99969       -0.21          
77.0962       0.81723       -4.48         2.341E-5      165.04        1.565E-5      -177.21       0.9997        -0.21          
77.6961       0.81711       -4.51         3.153E-5      133.71        1.909E-5      29.87         0.99969       -0.21          
78.2961       0.81721       -4.55         4.60E-5       -33.99        1.848E-5      154.84        0.99978       -0.21          
78.8961       0.81707       -4.58         5.595E-5      48.03         1.241E-5      -100.74       0.99969       -0.21          
79.4960       0.81699       -4.62         6.949E-5      -145.35       8.287E-6      -33.86        0.99971       -0.21          
80.0960       0.81707       -4.65         8.24E-6       -74.60        3.384E-6      -108.44       0.99973       -0.21          
80.6960       0.8171        -4.68         3.899E-5      -167.50       2.956E-5      -88.13        0.99967       -0.21          
81.2960       0.81697       -4.73         1.791E-5      22.84         1.021E-5      9.10          0.99977       -0.21          
81.8959       0.81692       -4.77         1.348E-5      32.09         2.742E-5      98.79         0.99975       -0.21          
82.4959       0.81696       -4.80         2.36E-5       -9.77         3.805E-5      125.47        0.99971       -0.22          
83.0959       0.81692       -4.84         2.096E-5      27.87         8.486E-6      -173.71       0.99969       -0.22          
83.6958       0.81678       -4.87         5.351E-5      112.60        6.773E-6      -13.55        0.99963       -0.22          
84.2958       0.8168        -4.91         3.123E-5      -150.29       9.012E-6      -128.58       0.9997        -0.22          
84.8958       0.81684       -4.95         4.053E-5      -85.08        1.287E-5      145.11        0.9997        -0.22          
85.4957       0.81673       -4.98         2.262E-5      157.27        2.299E-5      56.08         0.99969       -0.22          
86.0957       0.81683       -5.02         2.834E-5      -82.50        5.095E-6      -134.81       0.99962       -0.22          
86.6957       0.81673       -5.06         1.183E-5      -53.21        2.62E-5       -108.83       0.99966       -0.22          
87.2957       0.81669       -5.09         4.748E-5      98.11         3.06E-5       144.60        0.99971       -0.22          
87.8956       0.81677       -5.14         5.671E-5      -16.09        1.397E-5      -60.36        0.99969       -0.23          
88.4956       0.81668       -5.17         3.029E-5      50.39         1.59E-5       157.98        0.9997        -0.23          
89.0956       0.81665       -5.21         7.451E-5      118.67        4.442E-5      -69.13        0.99968       -0.23          
89.6955       0.81657       -5.25         4.911E-5      107.84        4.331E-5      42.99         0.99964       -0.23          
90.2955       0.81664       -5.29         3.385E-5      -105.90       3.797E-6      171.48        0.99963       -0.23          
90.8955       0.81645       -5.33         6.877E-5      -136.26       2.043E-5      165.96        0.99966       -0.23          
91.4954       0.81644       -5.37         4.621E-5      -98.68        9.138E-6      -66.30        0.9997        -0.23          
92.0954       0.81647       -5.41         3.015E-5      132.52        2.713E-5      -175.34       0.99962       -0.23          
