!    8/6/2020   04:00:25 
! Ref Plane: 0.000 mm
# MHZ S MA R  50
!
0.3000        0.04622       -178.99       9.918E-2      -0.89         9.596E-2      -0.77         0.81257       -0.54          
0.9000        0.04735       179.98        9.523E-2      -0.43         9.495E-2      -0.05         0.80769       -0.62          
1.4999        0.04765       179.79        9.528E-2      -0.24         9.519E-2      -0.22         0.80813       -0.77          
2.0999        0.04766       179.88        9.522E-2      -0.38         9.527E-2      -0.32         0.80864       -0.93          
2.6999        0.04768       -180.00       9.519E-2      -0.50         9.534E-2      -0.48         0.80879       -1.06          
3.2999        0.04771       -179.72       9.523E-2      -0.62         9.538E-2      -0.65         0.80899       -1.22          
3.8998        0.04782       -179.56       9.514E-2      -0.75         9.538E-2      -0.79         0.80903       -1.39          
4.4998        0.04779       -179.36       9.513E-2      -0.90         9.54E-2       -0.92         0.80905       -1.54          
5.0998        0.04792       -179.08       9.513E-2      -1.01         9.54E-2       -1.06         0.80907       -1.72          
5.6997        0.0479        -178.85       9.512E-2      -1.13         9.545E-2      -1.22         0.80925       -1.89          
6.2997        0.04795       -178.72       9.511E-2      -1.30         9.544E-2      -1.35         0.80908       -2.08          
6.8997        0.04802       -178.46       9.512E-2      -1.47         9.541E-2      -1.49         0.8093        -2.25          
7.4996        0.04806       -178.18       9.509E-2      -1.58         9.544E-2      -1.61         0.80935       -2.45          
8.0996        0.04811       -178.04       9.509E-2      -1.73         9.547E-2      -1.77         0.80908       -2.63          
8.6996        0.04815       -177.82       9.511E-2      -1.84         9.546E-2      -1.89         0.80929       -2.79          
9.2996        0.04818       -177.58       9.52E-2       -2.02         9.55E-2       -2.07         0.80945       -2.97          
9.8995        0.04822       -177.33       9.512E-2      -2.17         9.549E-2      -2.20         0.80915       -3.14          
10.4995       0.04826       -177.18       9.508E-2      -2.32         9.549E-2      -2.36         0.80951       -3.32          
11.0995       0.04832       -176.97       9.512E-2      -2.46         9.549E-2      -2.46         0.80961       -3.50          
11.6994       0.04836       -176.68       9.511E-2      -2.56         9.549E-2      -2.62         0.80968       -3.68          
12.2994       0.04839       -176.50       9.509E-2      -2.73         9.547E-2      -2.76         0.80958       -3.86          
12.8994       0.04844       -176.28       9.512E-2      -2.80         9.548E-2      -2.92         0.80959       -4.02          
13.4993       0.04844       -176.05       9.522E-2      -3.03         9.55E-2       -3.08         0.80977       -4.22          
14.0993       0.04853       -175.90       9.516E-2      -3.11         9.549E-2      -3.22         0.80978       -4.38          
14.6993       0.04853       -175.62       9.516E-2      -3.30         9.551E-2      -3.35         0.80962       -4.56          
15.2993       0.04857       -175.48       9.513E-2      -3.38         9.548E-2      -3.50         0.80984       -4.74          
15.8992       0.04861       -175.27       9.519E-2      -3.52         9.55E-2       -3.65         0.80993       -4.90          
16.4992       0.04868       -175.09       9.516E-2      -3.69         9.55E-2       -3.82         0.8098        -5.09          
17.0992       0.0487        -174.84       9.521E-2      -3.81         9.552E-2      -3.94         0.80997       -5.27          
17.6991       0.04882       -174.64       9.521E-2      -3.97         9.551E-2      -4.10         0.8099        -5.45          
18.2991       0.04882       -174.44       9.518E-2      -4.12         9.552E-2      -4.25         0.80993       -5.61          
18.8991       0.04885       -174.26       9.524E-2      -4.25         9.554E-2      -4.36         0.8102        -5.78          
19.4990       0.04888       -174.03       9.529E-2      -4.43         9.556E-2      -4.53         0.81027       -5.96          
20.0990       0.04892       -173.82       9.525E-2      -4.54         9.555E-2      -4.68         0.81013       -6.15          
20.6990       0.04899       -173.65       9.529E-2      -4.71         9.56E-2       -4.82         0.8102        -6.31          
21.2990       0.04898       -173.38       9.523E-2      -4.85         9.559E-2      -4.96         0.81006       -6.48          
21.8989       0.04903       -173.21       9.528E-2      -5.01         9.562E-2      -5.08         0.8102        -6.67          
22.4989       0.04909       -173.02       9.525E-2      -5.16         9.565E-2      -5.23         0.81021       -6.84          
23.0989       0.04916       -172.85       9.526E-2      -5.27         9.564E-2      -5.39         0.8104        -7.03          
23.6988       0.04915       -172.59       9.53E-2       -5.42         9.563E-2      -5.53         0.81003       -7.19          
24.2988       0.04919       -172.42       9.528E-2      -5.55         9.561E-2      -5.66         0.81003       -7.36          
24.8988       0.04926       -172.23       9.529E-2      -5.72         9.564E-2      -5.85         0.80991       -7.54          
25.4987       0.04931       -172.03       9.533E-2      -5.83         9.561E-2      -5.99         0.80994       -7.72          
26.0987       0.04935       -171.82       9.525E-2      -5.99         9.565E-2      -6.10         0.80985       -7.89          
26.6987       0.04942       -171.61       9.531E-2      -6.11         9.564E-2      -6.24         0.80967       -8.05          
27.2987       0.04945       -171.39       9.537E-2      -6.28         9.566E-2      -6.39         0.80953       -8.24          
27.8986       0.04947       -171.25       9.536E-2      -6.43         9.565E-2      -6.54         0.80928       -8.39          
28.4986       0.04954       -170.98       9.537E-2      -6.57         9.565E-2      -6.70         0.80928       -8.59          
29.0986       0.04959       -170.91       9.538E-2      -6.70         9.568E-2      -6.84         0.80902       -8.75          
29.6985       0.04967       -170.67       9.538E-2      -6.84         9.568E-2      -6.95         0.80893       -8.94          
30.2985       0.04963       -170.50       9.538E-2      -6.99         9.566E-2      -7.12         0.80864       -9.11          
30.8985       0.04967       -170.28       9.541E-2      -7.14         9.563E-2      -7.24         0.80868       -9.29          
31.4984       0.04979       -170.08       9.538E-2      -7.24         9.565E-2      -7.39         0.8086        -9.45          
32.0984       0.04981       -169.98       9.542E-2      -7.41         9.57E-2       -7.53         0.8086        -9.62          
32.6984       0.04983       -169.73       9.541E-2      -7.54         9.57E-2       -7.67         0.80852       -9.80          
33.2984       0.04986       -169.58       9.545E-2      -7.70         9.568E-2      -7.82         0.80843       -9.95          
33.8983       0.0499        -169.43       9.551E-2      -7.83         9.571E-2      -7.95         0.80853       -10.11         
34.4983       0.04999       -169.18       9.548E-2      -7.96         9.574E-2      -8.08         0.80867       -10.27         
35.0983       0.04996       -169.07       9.551E-2      -8.11         9.576E-2      -8.26         0.80867       -10.45         
35.6982       0.05003       -168.85       9.553E-2      -8.25         9.574E-2      -8.40         0.80884       -10.62         
36.2982       0.05008       -168.67       9.555E-2      -8.41         9.575E-2      -8.56         0.80877       -10.81         
36.8982       0.05013       -168.49       9.554E-2      -8.56         9.575E-2      -8.70         0.80868       -10.98         
37.4981       0.05018       -168.36       9.555E-2      -8.68         9.58E-2       -8.83         0.80862       -11.16         
38.0981       0.05022       -168.16       9.56E-2       -8.81         9.579E-2      -8.99         0.80865       -11.35         
38.6981       0.05027       -167.99       9.56E-2       -8.94         9.577E-2      -9.12         0.8086        -11.53         
39.2981       0.05029       -167.84       9.558E-2      -9.09         9.577E-2      -9.29         0.80856       -11.71         
39.8980       0.0503        -167.67       9.559E-2      -9.28         9.579E-2      -9.44         0.80843       -11.89         
40.4980       0.05035       -167.46       9.564E-2      -9.41         9.581E-2      -9.54         0.80844       -12.05         
41.0980       0.05043       -167.28       9.567E-2      -9.56         9.586E-2      -9.71         0.80817       -12.24         
41.6979       0.05045       -167.15       9.565E-2      -9.69         9.584E-2      -9.83         0.80842       -12.43         
42.2979       0.05052       -167.02       9.566E-2      -9.83         9.593E-2      -10.00        0.80826       -12.63         
42.8979       0.05057       -166.86       9.568E-2      -10.00        9.589E-2      -10.11        0.80836       -12.81         
43.4978       0.05059       -166.68       9.568E-2      -10.11        9.59E-2       -10.27        0.80838       -13.00         
44.0978       0.05066       -166.51       9.568E-2      -10.28        9.593E-2      -10.43        0.80829       -13.20         
44.6978       0.05072       -166.45       9.568E-2      -10.45        9.594E-2      -10.60        0.80848       -13.39         
45.2978       0.05076       -166.25       9.574E-2      -10.59        9.592E-2      -10.72        0.80836       -13.58         
45.8977       0.05081       -166.06       9.573E-2      -10.74        9.596E-2      -10.87        0.8085        -13.76         
46.4977       0.05083       -165.92       9.572E-2      -10.88        9.596E-2      -10.99        0.80848       -13.96         
47.0977       0.05086       -165.74       9.582E-2      -11.08        9.605E-2      -11.17        0.80938       -14.14         
47.6976       0.05092       -165.57       9.578E-2      -11.24        9.597E-2      -11.28        0.80944       -14.32         
48.2976       0.05099       -165.48       9.585E-2      -11.39        9.597E-2      -11.41        0.8094        -14.49         
48.8976       0.05104       -165.29       9.579E-2      -11.55        9.599E-2      -11.58        0.80951       -14.68         
49.4975       0.05112       -165.14       9.578E-2      -11.68        9.61E-2       -11.71        0.80946       -14.85         
50.0975       0.05109       -164.99       9.58E-2       -11.86        9.607E-2      -11.88        0.80954       -15.03         
50.6975       0.05115       -164.78       9.578E-2      -11.98        9.611E-2      -12.02        0.80965       -15.23         
51.2975       0.0512        -164.67       9.577E-2      -12.12        9.619E-2      -12.25        0.80969       -15.42         
51.8974       0.05131       -164.54       9.572E-2      -12.22        9.625E-2      -12.41        0.8096        -15.59         
52.4974       0.05205       -164.66       9.569E-2      -12.26        9.718E-2      -12.93        0.80755       -15.78         
53.0974       0.05145       -163.96       9.488E-2      -12.07        9.615E-2      -12.69        0.80711       -15.88         
53.6973       0.05141       -164.10       9.588E-2      -12.70        9.615E-2      -12.83        0.81008       -16.15         
54.2973       0.05148       -163.97       9.59E-2       -12.84        9.617E-2      -12.99        0.81003       -16.33         
54.8973       0.05151       -163.80       9.589E-2      -13.02        9.617E-2      -13.13        0.81009       -16.49         
55.4972       0.05156       -163.70       9.591E-2      -13.15        9.623E-2      -13.26        0.81016       -16.67         
56.0972       0.05162       -163.55       9.595E-2      -13.29        9.623E-2      -13.44        0.80999       -16.85         
56.6972       0.05165       -163.36       9.598E-2      -13.45        9.622E-2      -13.55        0.81002       -17.01         
57.2972       0.05174       -163.19       9.595E-2      -13.61        9.623E-2      -13.71        0.81004       -17.20         
57.8971       0.05173       -163.04       9.597E-2      -13.76        9.627E-2      -13.88        0.80999       -17.37         
58.4971       0.0518        -162.93       9.604E-2      -13.90        9.629E-2      -14.05        0.81023       -17.55         
59.0971       0.05185       -162.79       9.601E-2      -14.04        9.629E-2      -14.20        0.81017       -17.72         
59.6970       0.05189       -162.62       9.604E-2      -14.21        9.635E-2      -14.34        0.81039       -17.90         
60.2970       0.05191       -162.47       9.603E-2      -14.37        9.631E-2      -14.52        0.81039       -18.07         
60.8970       0.05201       -162.29       9.605E-2      -14.52        9.635E-2      -14.70        0.8106        -18.25         
61.4969       0.05201       -162.23       9.601E-2      -14.68        9.63E-2       -14.86        0.81042       -18.44         
62.0969       0.05208       -162.05       9.603E-2      -14.85        9.632E-2      -14.99        0.81039       -18.61         
62.6969       0.05208       -161.98       9.601E-2      -14.99        9.625E-2      -15.19        0.81044       -18.79         
63.2969       0.05214       -161.80       9.595E-2      -15.14        9.625E-2      -15.32        0.81056       -18.99         
63.8968       0.05217       -161.64       9.594E-2      -15.27        9.622E-2      -15.46        0.81062       -19.15         
64.4968       0.05223       -161.45       9.592E-2      -15.41        9.619E-2      -15.57        0.81073       -19.35         
65.0968       0.05226       -161.24       9.588E-2      -15.50        9.621E-2      -15.66        0.8107        -19.53         
65.6967       0.05235       -161.05       9.591E-2      -15.62        9.623E-2      -15.79        0.81068       -19.71         
66.2967       0.0524        -160.92       9.60E-2       -15.72        9.625E-2      -15.89        0.81053       -19.90         
66.8967       0.05245       -160.81       9.602E-2      -15.89        9.635E-2      -16.03        0.81029       -20.09         
67.4966       0.05255       -160.62       9.608E-2      -16.00        9.639E-2      -16.16        0.81022       -20.28         
68.0966       0.05262       -160.52       9.614E-2      -16.15        9.649E-2      -16.29        0.81014       -20.45         
68.6966       0.05271       -160.36       9.619E-2      -16.30        9.652E-2      -16.46        0.81011       -20.62         
69.2966       0.05282       -160.21       9.625E-2      -16.48        9.658E-2      -16.60        0.80996       -20.82         
69.8965       0.05288       -160.09       9.632E-2      -16.64        9.66E-2       -16.76        0.81002       -21.00         
70.4965       0.05291       -160.03       9.632E-2      -16.79        9.661E-2      -16.92        0.8101        -21.17         
71.0965       0.05297       -159.89       9.633E-2      -16.97        9.664E-2      -17.10        0.81011       -21.35         
71.6964       0.05305       -159.75       9.634E-2      -17.13        9.668E-2      -17.26        0.81003       -21.52         
72.2964       0.05311       -159.70       9.64E-2       -17.29        9.664E-2      -17.42        0.81008       -21.70         
72.8964       0.05322       -159.59       9.641E-2      -17.43        9.669E-2      -17.58        0.81005       -21.90         
73.4963       0.05333       -159.39       9.641E-2      -17.61        9.67E-2       -17.72        0.81007       -22.07         
74.0963       0.05332       -159.28       9.648E-2      -17.73        9.676E-2      -17.88        0.81014       -22.26         
74.6963       0.05339       -159.24       9.649E-2      -17.90        9.681E-2      -18.03        0.80988       -22.42         
75.2963       0.05352       -159.08       9.652E-2      -18.05        9.681E-2      -18.17        0.80995       -22.61         
75.8962       0.05358       -158.98       9.655E-2      -18.22        9.688E-2      -18.36        0.80999       -22.79         
76.4962       0.05368       -158.80       9.658E-2      -18.36        9.689E-2      -18.51        0.81018       -22.97         
77.0962       0.05374       -158.73       9.662E-2      -18.53        9.693E-2      -18.65        0.81022       -23.14         
77.6961       0.05379       -158.64       9.666E-2      -18.70        9.699E-2      -18.84        0.81045       -23.33         
78.2961       0.05388       -158.48       9.669E-2      -18.84        9.698E-2      -18.97        0.81037       -23.51         
78.8961       0.05396       -158.43       9.669E-2      -19.03        9.702E-2      -19.13        0.81056       -23.67         
79.4960       0.05404       -158.29       9.674E-2      -19.18        9.707E-2      -19.30        0.81074       -23.84         
80.0960       0.05407       -158.20       9.678E-2      -19.36        9.708E-2      -19.47        0.81076       -24.03         
80.6960       0.05415       -158.11       9.683E-2      -19.54        9.71E-2       -19.62        0.81085       -24.19         
81.2960       0.05421       -158.03       9.686E-2      -19.71        9.716E-2      -19.80        0.81099       -24.37         
81.8959       0.0543        -157.93       9.687E-2      -19.86        9.721E-2      -19.97        0.81121       -24.54         
82.4959       0.0544        -157.82       9.688E-2      -20.03        9.721E-2      -20.13        0.8114        -24.73         
83.0959       0.05448       -157.69       9.691E-2      -20.20        9.723E-2      -20.29        0.81153       -24.88         
83.6958       0.05454       -157.60       9.697E-2      -20.37        9.723E-2      -20.49        0.81175       -25.07         
84.2958       0.05463       -157.51       9.699E-2      -20.56        9.724E-2      -20.67        0.81179       -25.24         
84.8958       0.0547        -157.41       9.701E-2      -20.73        9.727E-2      -20.87        0.81185       -25.41         
85.4957       0.05479       -157.38       9.707E-2      -20.93        9.73E-2       -21.08        0.81218       -25.59         
86.0957       0.05485       -157.30       9.709E-2      -21.11        9.73E-2       -21.26        0.81212       -25.78         
86.6957       0.05487       -157.14       9.705E-2      -21.31        9.731E-2      -21.46        0.81237       -25.94         
87.2957       0.05498       -157.13       9.708E-2      -21.51        9.73E-2       -21.66        0.81266       -26.13         
87.8956       0.055         -157.06       9.702E-2      -21.71        9.727E-2      -21.85        0.81278       -26.29         
88.4956       0.05513       -156.99       9.702E-2      -21.91        9.725E-2      -22.06        0.81297       -26.46         
89.0956       0.05517       -156.93       9.699E-2      -22.14        9.717E-2      -22.29        0.81329       -26.63         
89.6955       0.05518       -156.87       9.695E-2      -22.36        9.712E-2      -22.50        0.81372       -26.80         
90.2955       0.05519       -156.85       9.684E-2      -22.57        9.706E-2      -22.70        0.81421       -26.98         
90.8955       0.05517       -156.85       9.668E-2      -22.82        9.686E-2      -22.92        0.81456       -27.16         
91.4954       0.05512       -156.79       9.65E-2       -23.03        9.664E-2      -23.15        0.815         -27.37         
92.0954       0.05504       -156.71       9.621E-2      -23.22        9.638E-2      -23.33        0.81534       -27.55         
