!    8/12/2020   02:43:24 
! Ref Plane: 0.000 mm
# MHZ S MA R  50
!
0.3000        0.04839       177.28        9.859E-2      -1.22         9.695E-2      -1.06         0.81793       -0.47          
0.9000        0.04779       178.46        9.459E-2      -0.70         9.57E-2       -0.54         0.81081       -0.68          
1.4999        0.04782       178.85        9.484E-2      -0.67         9.543E-2      -0.54         0.80861       -0.82          
2.0999        0.04779       179.15        9.497E-2      -0.89         9.53E-2       -0.68         0.80849       -1.11          
2.6999        0.04784       179.36        9.507E-2      -1.05         9.524E-2      -0.84         0.80834       -1.34          
3.2999        0.04782       179.66        9.512E-2      -1.21         9.52E-2       -1.02         0.80832       -1.56          
3.8998        0.04789       179.84        9.51E-2       -1.39         9.519E-2      -1.20         0.80843       -1.80          
4.4998        0.04785       -179.97       9.512E-2      -1.55         9.519E-2      -1.34         0.80853       -2.01          
5.0998        0.04799       -179.70       9.513E-2      -1.69         9.521E-2      -1.49         0.8085        -2.23          
5.6997        0.04791       -179.42       9.515E-2      -1.86         9.519E-2      -1.67         0.80877       -2.46          
6.2997        0.04795       -179.32       9.514E-2      -2.03         9.522E-2      -1.82         0.80857       -2.67          
6.8997        0.04796       -179.07       9.519E-2      -2.24         9.516E-2      -1.99         0.80891       -2.91          
7.4996        0.04803       -178.79       9.518E-2      -2.35         9.518E-2      -2.14         0.80887       -3.14          
8.0996        0.04805       -178.61       9.517E-2      -2.53         9.515E-2      -2.31         0.80846       -3.36          
8.6996        0.04809       -178.40       9.52E-2       -2.66         9.515E-2      -2.46         0.80869       -3.56          
9.2996        0.04808       -178.17       9.525E-2      -2.84         9.519E-2      -2.64         0.80889       -3.77          
9.8995        0.04808       -177.93       9.522E-2      -3.03         9.516E-2      -2.81         0.80863       -3.99          
10.4995       0.04812       -177.73       9.52E-2       -3.19         9.517E-2      -2.98         0.80906       -4.19          
11.0995       0.04817       -177.53       9.523E-2      -3.34         9.517E-2      -3.11         0.8091        -4.42          
11.6994       0.04819       -177.31       9.524E-2      -3.48         9.513E-2      -3.28         0.8092        -4.64          
12.2994       0.04821       -177.08       9.523E-2      -3.64         9.514E-2      -3.42         0.80915       -4.84          
12.8994       0.04822       -176.87       9.528E-2      -3.76         9.515E-2      -3.61         0.80911       -5.06          
13.4993       0.04824       -176.64       9.533E-2      -4.00         9.516E-2      -3.78         0.8093        -5.28          
14.0993       0.0483        -176.49       9.527E-2      -4.11         9.516E-2      -3.94         0.80918       -5.47          
14.6993       0.04832       -176.22       9.524E-2      -4.31         9.52E-2       -4.07         0.80923       -5.67          
15.2993       0.04833       -176.04       9.525E-2      -4.41         9.516E-2      -4.24         0.80953       -5.88          
15.8992       0.04837       -175.87       9.527E-2      -4.59         9.519E-2      -4.41         0.80954       -6.09          
16.4992       0.04841       -175.67       9.526E-2      -4.76         9.52E-2       -4.61         0.80941       -6.33          
17.0992       0.04846       -175.44       9.531E-2      -4.90         9.518E-2      -4.74         0.80963       -6.55          
17.6991       0.04854       -175.22       9.528E-2      -5.08         9.518E-2      -4.93         0.80956       -6.77          
18.2991       0.04853       -175.06       9.527E-2      -5.25         9.522E-2      -5.04         0.80955       -6.94          
18.8991       0.04853       -174.86       9.531E-2      -5.43         9.524E-2      -5.19         0.80996       -7.16          
19.4990       0.04857       -174.61       9.534E-2      -5.58         9.523E-2      -5.39         0.80992       -7.37          
20.0990       0.04863       -174.43       9.532E-2      -5.72         9.525E-2      -5.55         0.80988       -7.57          
20.6990       0.04867       -174.23       9.531E-2      -5.92         9.527E-2      -5.70         0.80983       -7.79          
21.2990       0.04863       -173.97       9.532E-2      -6.09         9.528E-2      -5.86         0.80987       -8.00          
21.8989       0.0487        -173.85       9.536E-2      -6.22         9.527E-2      -6.01         0.81005       -8.20          
22.4989       0.04876       -173.62       9.531E-2      -6.43         9.535E-2      -6.16         0.80991       -8.42          
23.0989       0.0488        -173.46       9.534E-2      -6.56         9.534E-2      -6.32         0.81024       -8.64          
23.6988       0.0488        -173.18       9.537E-2      -6.73         9.534E-2      -6.51         0.80983       -8.86          
24.2988       0.04885       -173.04       9.535E-2      -6.87         9.533E-2      -6.64         0.80994       -9.04          
24.8988       0.04892       -172.86       9.539E-2      -7.04         9.533E-2      -6.85         0.80971       -9.26          
25.4987       0.04896       -172.66       9.54E-2       -7.20         9.531E-2      -7.00         0.80977       -9.48          
26.0987       0.04901       -172.44       9.533E-2      -7.35         9.532E-2      -7.13         0.80956       -9.68          
26.6987       0.04905       -172.26       9.535E-2      -7.52         9.532E-2      -7.29         0.80957       -9.88          
27.2987       0.04906       -172.04       9.546E-2      -7.67         9.535E-2      -7.43         0.80939       -10.10         
27.8986       0.04911       -171.88       9.541E-2      -7.87         9.533E-2      -7.61         0.80911       -10.31         
28.4986       0.04915       -171.65       9.543E-2      -8.01         9.534E-2      -7.79         0.80898       -10.54         
29.0986       0.04919       -171.57       9.543E-2      -8.15         9.536E-2      -7.97         0.80885       -10.73         
29.6985       0.04929       -171.39       9.543E-2      -8.33         9.537E-2      -8.10         0.80893       -10.95         
30.2985       0.04924       -171.17       9.541E-2      -8.49         9.536E-2      -8.30         0.8086        -11.16         
30.8985       0.04932       -170.96       9.546E-2      -8.66         9.533E-2      -8.40         0.80852       -11.37         
31.4984       0.04937       -170.79       9.541E-2      -8.80         9.532E-2      -8.59         0.80858       -11.58         
32.0984       0.04942       -170.66       9.546E-2      -8.99         9.541E-2      -8.73         0.80855       -11.79         
32.6984       0.04943       -170.46       9.545E-2      -9.14         9.543E-2      -8.88         0.80855       -11.99         
33.2984       0.04949       -170.31       9.545E-2      -9.28         9.536E-2      -9.06         0.80829       -12.18         
33.8983       0.04952       -170.14       9.548E-2      -9.43         9.54E-2       -9.22         0.80845       -12.38         
34.4983       0.0496        -169.94       9.552E-2      -9.56         9.545E-2      -9.36         0.80883       -12.57         
35.0983       0.04958       -169.81       9.55E-2       -9.76         9.541E-2      -9.55         0.80858       -12.79         
35.6982       0.04963       -169.64       9.553E-2      -9.92         9.542E-2      -9.72         0.80888       -13.01         
36.2982       0.04972       -169.46       9.554E-2      -10.10        9.543E-2      -9.90         0.80879       -13.24         
36.8982       0.04973       -169.26       9.552E-2      -10.25        9.544E-2      -10.07        0.80887       -13.44         
37.4981       0.04984       -169.16       9.556E-2      -10.40        9.546E-2      -10.21        0.80864       -13.67         
38.0981       0.04984       -168.95       9.558E-2      -10.53        9.549E-2      -10.39        0.80878       -13.88         
38.6981       0.04986       -168.80       9.558E-2      -10.70        9.547E-2      -10.55        0.80869       -14.11         
39.2981       0.04991       -168.62       9.556E-2      -10.87        9.544E-2      -10.72        0.80874       -14.31         
39.8980       0.04996       -168.47       9.555E-2      -11.06        9.545E-2      -10.91        0.8084        -14.55         
40.4980       0.04997       -168.28       9.561E-2      -11.23        9.55E-2       -11.03        0.80863       -14.75         
41.0980       0.05008       -168.09       9.562E-2      -11.39        9.553E-2      -11.20        0.80832       -14.97         
41.6979       0.05008       -167.97       9.562E-2      -11.56        9.549E-2      -11.37        0.80837       -15.21         
42.2979       0.05017       -167.82       9.564E-2      -11.69        9.554E-2      -11.52        0.80856       -15.42         
42.8979       0.0502        -167.70       9.56E-2       -11.90        9.552E-2      -11.68        0.80859       -15.65         
43.4978       0.05021       -167.53       9.561E-2      -12.02        9.554E-2      -11.86        0.80858       -15.88         
44.0978       0.0503        -167.39       9.563E-2      -12.21        9.55E-2       -12.01        0.80842       -16.11         
44.6978       0.05036       -167.30       9.56E-2       -12.38        9.555E-2      -12.21        0.80873       -16.36         
45.2978       0.0504        -167.13       9.566E-2      -12.54        9.554E-2      -12.34        0.80851       -16.58         
45.8977       0.05049       -166.94       9.564E-2      -12.73        9.557E-2      -12.52        0.8087        -16.81         
46.4977       0.05048       -166.82       9.562E-2      -12.87        9.558E-2      -12.67        0.80882       -17.03         
47.0977       0.05055       -166.65       9.563E-2      -13.05        9.562E-2      -12.85        0.80976       -17.25         
47.6976       0.05059       -166.46       9.566E-2      -13.21        9.56E-2       -13.05        0.80986       -17.47         
48.2976       0.05067       -166.33       9.571E-2      -13.38        9.558E-2      -13.16        0.80974       -17.67         
48.8976       0.0507        -166.22       9.566E-2      -13.55        9.558E-2      -13.35        0.81005       -17.89         
49.4975       0.05077       -166.07       9.566E-2      -13.70        9.568E-2      -13.50        0.81004       -18.11         
50.0975       0.0508        -165.89       9.568E-2      -13.85        9.559E-2      -13.68        0.81016       -18.32         
50.6975       0.05084       -165.71       9.571E-2      -14.04        9.561E-2      -13.87        0.81015       -18.56         
51.2975       0.05092       -165.59       9.573E-2      -14.23        9.555E-2      -14.01        0.81014       -18.78         
51.8974       0.05101       -165.51       9.574E-2      -14.41        9.558E-2      -14.15        0.81007       -18.98         
52.4974       0.05175       -165.61       9.59E-2       -14.68        9.584E-2      -14.39        0.80551       -19.24         
53.0974       0.05104       -165.16       9.62E-2       -14.90        9.444E-2      -14.17        0.80922       -19.39         
53.6973       0.05104       -165.17       9.609E-2      -15.04        9.566E-2      -14.68        0.81073       -19.65         
54.2973       0.05116       -164.93       9.568E-2      -15.03        9.569E-2      -14.87        0.81081       -19.87         
54.8973       0.05121       -164.77       9.567E-2      -15.21        9.569E-2      -15.02        0.81092       -20.07         
55.4972       0.05126       -164.68       9.571E-2      -15.34        9.567E-2      -15.18        0.81107       -20.30         
56.0972       0.05133       -164.50       9.571E-2      -15.51        9.566E-2      -15.35        0.81091       -20.51         
56.6972       0.05137       -164.30       9.571E-2      -15.68        9.568E-2      -15.48        0.81099       -20.70         
57.2972       0.05147       -164.17       9.57E-2       -15.84        9.569E-2      -15.63        0.81103       -20.93         
57.8971       0.05147       -164.00       9.572E-2      -16.00        9.569E-2      -15.80        0.81116       -21.13         
58.4971       0.05155       -163.87       9.577E-2      -16.16        9.574E-2      -15.99        0.81147       -21.37         
59.0971       0.0516        -163.73       9.575E-2      -16.30        9.572E-2      -16.14        0.81153       -21.55         
59.6970       0.05164       -163.55       9.579E-2      -16.49        9.575E-2      -16.26        0.81158       -21.78         
60.2970       0.0517        -163.40       9.576E-2      -16.63        9.574E-2      -16.43        0.81151       -21.98         
60.8970       0.05179       -163.24       9.583E-2      -16.81        9.581E-2      -16.60        0.81171       -22.20         
61.4969       0.05181       -163.12       9.585E-2      -16.95        9.579E-2      -16.77        0.81171       -22.41         
62.0969       0.05195       -162.96       9.588E-2      -17.10        9.582E-2      -16.93        0.81152       -22.63         
62.6969       0.05198       -162.84       9.593E-2      -17.27        9.582E-2      -17.09        0.81149       -22.83         
63.2969       0.05211       -162.69       9.593E-2      -17.43        9.589E-2      -17.24        0.81168       -23.04         
63.8968       0.05214       -162.59       9.594E-2      -17.59        9.593E-2      -17.43        0.81166       -23.24         
64.4968       0.05223       -162.42       9.60E-2       -17.78        9.595E-2      -17.60        0.81172       -23.46         
65.0968       0.05227       -162.29       9.597E-2      -17.95        9.598E-2      -17.78        0.81179       -23.67         
65.6967       0.05237       -162.14       9.598E-2      -18.11        9.596E-2      -17.94        0.81198       -23.88         
66.2967       0.05241       -161.99       9.599E-2      -18.25        9.597E-2      -18.09        0.81208       -24.08         
66.8967       0.05245       -161.89       9.599E-2      -18.41        9.597E-2      -18.28        0.81179       -24.32         
67.4966       0.05251       -161.73       9.60E-2       -18.56        9.605E-2      -18.41        0.81181       -24.53         
68.0966       0.05257       -161.60       9.608E-2      -18.73        9.61E-2       -18.58        0.81188       -24.75         
68.6966       0.05269       -161.41       9.609E-2      -18.90        9.611E-2      -18.73        0.81194       -24.92         
69.2966       0.05279       -161.32       9.611E-2      -19.12        9.615E-2      -18.89        0.81194       -25.16         
69.8965       0.05287       -161.16       9.615E-2      -19.28        9.615E-2      -19.08        0.81201       -25.37         
70.4965       0.05287       -161.10       9.616E-2      -19.43        9.613E-2      -19.24        0.81219       -25.57         
71.0965       0.05295       -160.95       9.611E-2      -19.60        9.619E-2      -19.42        0.81237       -25.78         
71.6964       0.05305       -160.77       9.618E-2      -19.77        9.616E-2      -19.57        0.81233       -25.98         
72.2964       0.05312       -160.72       9.623E-2      -19.93        9.619E-2      -19.73        0.81236       -26.20         
72.8964       0.05326       -160.61       9.627E-2      -20.12        9.622E-2      -19.88        0.81239       -26.41         
73.4963       0.05335       -160.43       9.628E-2      -20.29        9.626E-2      -20.06        0.81235       -26.63         
74.0963       0.0534        -160.32       9.634E-2      -20.45        9.632E-2      -20.24        0.8126        -26.85         
74.6963       0.05347       -160.28       9.634E-2      -20.65        9.639E-2      -20.37        0.81236       -27.03         
75.2963       0.05355       -160.10       9.639E-2      -20.82        9.634E-2      -20.56        0.81245       -27.24         
75.8962       0.05365       -159.99       9.644E-2      -20.99        9.642E-2      -20.75        0.81259       -27.43         
76.4962       0.05377       -159.83       9.648E-2      -21.15        9.646E-2      -20.93        0.81287       -27.65         
77.0962       0.05386       -159.78       9.649E-2      -21.32        9.65E-2       -21.09        0.81297       -27.87         
77.6961       0.05392       -159.67       9.653E-2      -21.53        9.655E-2      -21.30        0.81331       -28.07         
78.2961       0.05404       -159.52       9.658E-2      -21.66        9.656E-2      -21.44        0.81334       -28.27         
78.8961       0.0541        -159.45       9.66E-2       -21.86        9.663E-2      -21.62        0.81366       -28.46         
79.4960       0.05418       -159.29       9.663E-2      -22.03        9.665E-2      -21.81        0.81391       -28.66         
80.0960       0.05425       -159.24       9.664E-2      -22.22        9.663E-2      -21.99        0.81382       -28.89         
80.6960       0.05434       -159.14       9.669E-2      -22.38        9.666E-2      -22.16        0.81382       -29.07         
81.2960       0.05441       -159.03       9.675E-2      -22.60        9.675E-2      -22.33        0.81441       -29.27         
81.8959       0.05451       -158.91       9.676E-2      -22.74        9.676E-2      -22.53        0.81454       -29.46         
82.4959       0.05461       -158.79       9.677E-2      -22.93        9.683E-2      -22.70        0.81474       -29.68         
83.0959       0.05468       -158.67       9.682E-2      -23.11        9.685E-2      -22.89        0.81485       -29.85         
83.6958       0.05478       -158.56       9.686E-2      -23.31        9.683E-2      -23.10        0.81522       -30.08         
84.2958       0.05486       -158.43       9.69E-2       -23.50        9.686E-2      -23.25        0.8154        -30.26         
84.8958       0.05495       -158.37       9.693E-2      -23.69        9.69E-2       -23.46        0.81542       -30.46         
85.4957       0.05504       -158.28       9.70E-2       -23.89        9.693E-2      -23.65        0.81582       -30.67         
86.0957       0.05509       -158.18       9.699E-2      -24.07        9.696E-2      -23.86        0.81574       -30.87         
86.6957       0.05518       -157.98       9.703E-2      -24.27        9.699E-2      -24.02        0.81605       -31.08         
87.2957       0.05531       -157.94       9.708E-2      -24.46        9.70E-2       -24.23        0.8165        -31.27         
87.8956       0.05537       -157.86       9.706E-2      -24.66        9.701E-2      -24.40        0.81639       -31.46         
88.4956       0.05551       -157.75       9.71E-2       -24.84        9.704E-2      -24.61        0.81656       -31.65         
89.0956       0.05561       -157.62       9.716E-2      -25.04        9.703E-2      -24.82        0.81674       -31.85         
89.6955       0.05568       -157.52       9.723E-2      -25.25        9.71E-2       -25.02        0.81719       -32.04         
90.2955       0.05579       -157.45       9.725E-2      -25.42        9.715E-2      -25.20        0.81721       -32.24         
90.8955       0.05587       -157.42       9.729E-2      -25.65        9.719E-2      -25.42        0.81755       -32.43         
91.4954       0.05594       -157.29       9.732E-2      -25.86        9.715E-2      -25.65        0.8178        -32.63         
92.0954       0.05605       -157.24       9.733E-2      -26.11        9.723E-2      -25.87        0.81792       -32.82         
