!    8/6/2020   03:59:28 
! Ref Plane: 0.000 mm
# MHZ S MA R  50
!
0.3000        0.0466        -179.37       9.907E-2      -0.87         9.601E-2      -0.85         0.81358       -0.49          
0.9000        0.04751       179.94        9.526E-2      -0.37         9.495E-2      -0.13         0.8077        -0.57          
1.4999        0.04771       179.73        9.528E-2      -0.17         9.522E-2      -0.26         0.80819       -0.73          
2.0999        0.04768       179.84        9.524E-2      -0.29         9.53E-2       -0.34         0.80859       -0.90          
2.6999        0.04774       179.99        9.522E-2      -0.40         9.537E-2      -0.46         0.8089        -1.04          
3.2999        0.04775       -179.71       9.519E-2      -0.47         9.543E-2      -0.63         0.80899       -1.21          
3.8998        0.04783       -179.56       9.514E-2      -0.60         9.542E-2      -0.75         0.80901       -1.39          
4.4998        0.04779       -179.31       9.513E-2      -0.74         9.54E-2       -0.85         0.80905       -1.55          
5.0998        0.04792       -179.01       9.512E-2      -0.83         9.543E-2      -0.97         0.8091        -1.72          
5.6997        0.04792       -178.75       9.511E-2      -0.95         9.548E-2      -1.11         0.80928       -1.91          
6.2997        0.04795       -178.60       9.511E-2      -1.09         9.545E-2      -1.22         0.80912       -2.10          
6.8997        0.04801       -178.39       9.512E-2      -1.24         9.542E-2      -1.33         0.8093        -2.28          
7.4996        0.04805       -178.08       9.507E-2      -1.31         9.542E-2      -1.46         0.80929       -2.48          
8.0996        0.0481        -177.88       9.507E-2      -1.47         9.549E-2      -1.59         0.80912       -2.67          
8.6996        0.04812       -177.65       9.507E-2      -1.56         9.546E-2      -1.67         0.8093        -2.84          
9.2996        0.04816       -177.39       9.515E-2      -1.72         9.549E-2      -1.84         0.80944       -3.02          
9.8995        0.04817       -177.12       9.508E-2      -1.86         9.548E-2      -1.94         0.8091        -3.19          
10.4995       0.04821       -176.95       9.506E-2      -1.99         9.549E-2      -2.09         0.8095        -3.38          
11.0995       0.04828       -176.69       9.506E-2      -2.07         9.548E-2      -2.18         0.80962       -3.57          
11.6994       0.04832       -176.46       9.507E-2      -2.19         9.548E-2      -2.30         0.80963       -3.75          
12.2994       0.04832       -176.20       9.505E-2      -2.34         9.545E-2      -2.42         0.80956       -3.94          
12.8994       0.04837       -175.95       9.508E-2      -2.39         9.547E-2      -2.56         0.80952       -4.10          
13.4993       0.0484        -175.71       9.514E-2      -2.60         9.546E-2      -2.71         0.80966       -4.31          
14.0993       0.04846       -175.57       9.511E-2      -2.67         9.548E-2      -2.83         0.80971       -4.47          
14.6993       0.04849       -175.29       9.508E-2      -2.84         9.549E-2      -2.95         0.80964       -4.66          
15.2993       0.04852       -175.10       9.506E-2      -2.90         9.546E-2      -3.08         0.80983       -4.84          
15.8992       0.04854       -174.87       9.508E-2      -3.02         9.546E-2      -3.21         0.80991       -5.01          
16.4992       0.04862       -174.68       9.509E-2      -3.15         9.546E-2      -3.35         0.80977       -5.20          
17.0992       0.04862       -174.41       9.511E-2      -3.26         9.545E-2      -3.47         0.80998       -5.38          
17.6991       0.04873       -174.17       9.511E-2      -3.42         9.545E-2      -3.60         0.80986       -5.57          
18.2991       0.04875       -173.99       9.507E-2      -3.53         9.545E-2      -3.72         0.8099        -5.73          
18.8991       0.04875       -173.79       9.512E-2      -3.66         9.545E-2      -3.81         0.81016       -5.91          
19.4990       0.04879       -173.51       9.517E-2      -3.79         9.545E-2      -3.95         0.81019       -6.09          
20.0990       0.04884       -173.28       9.511E-2      -3.89         9.545E-2      -4.10         0.8101        -6.28          
20.6990       0.04887       -173.07       9.512E-2      -4.05         9.548E-2      -4.21         0.81017       -6.45          
21.2990       0.04888       -172.81       9.511E-2      -4.17         9.546E-2      -4.31         0.81003       -6.62          
21.8989       0.04892       -172.67       9.514E-2      -4.30         9.549E-2      -4.45         0.81018       -6.82          
22.4989       0.04896       -172.42       9.509E-2      -4.43         9.552E-2      -4.56         0.81021       -6.99          
23.0989       0.04906       -172.22       9.512E-2      -4.53         9.55E-2       -4.69         0.81037       -7.18          
23.6988       0.04901       -171.95       9.515E-2      -4.66         9.548E-2      -4.83         0.81001       -7.35          
24.2988       0.04907       -171.77       9.512E-2      -4.76         9.546E-2      -4.94         0.81001       -7.53          
24.8988       0.04915       -171.52       9.51E-2       -4.91         9.545E-2      -5.10         0.80993       -7.71          
25.4987       0.04919       -171.33       9.515E-2      -5.01         9.542E-2      -5.21         0.80992       -7.88          
26.0987       0.04922       -171.14       9.507E-2      -5.14         9.549E-2      -5.29         0.80981       -8.06          
26.6987       0.04927       -170.90       9.51E-2       -5.25         9.543E-2      -5.43         0.8097        -8.23          
27.2987       0.04929       -170.64       9.516E-2      -5.37         9.545E-2      -5.55         0.80947       -8.42          
27.8986       0.04933       -170.49       9.512E-2      -5.51         9.544E-2      -5.67         0.80926       -8.58          
28.4986       0.04939       -170.21       9.514E-2      -5.63         9.541E-2      -5.80         0.80924       -8.78          
29.0986       0.0494        -170.13       9.513E-2      -5.73         9.544E-2      -5.95         0.80903       -8.93          
29.6985       0.04949       -169.87       9.512E-2      -5.85         9.54E-2       -6.03         0.8089        -9.13          
30.2985       0.04949       -169.67       9.512E-2      -6.00         9.541E-2      -6.18         0.80864       -9.30          
30.8985       0.04954       -169.40       9.512E-2      -6.12         9.538E-2      -6.28         0.80867       -9.48          
31.4984       0.04959       -169.23       9.509E-2      -6.21         9.535E-2      -6.40         0.80858       -9.65          
32.0984       0.04963       -169.10       9.513E-2      -6.36         9.543E-2      -6.53         0.80859       -9.83          
32.6984       0.04966       -168.83       9.51E-2       -6.47         9.542E-2      -6.62         0.80848       -10.00         
33.2984       0.0497        -168.67       9.511E-2      -6.58         9.536E-2      -6.76         0.8084        -10.16         
33.8983       0.04972       -168.45       9.517E-2      -6.68         9.537E-2      -6.88         0.80853       -10.32         
34.4983       0.04978       -168.25       9.514E-2      -6.82         9.54E-2       -6.99         0.80867       -10.48         
35.0983       0.04979       -168.09       9.517E-2      -6.93         9.54E-2       -7.14         0.80872       -10.67         
35.6982       0.04984       -167.91       9.513E-2      -7.03         9.538E-2      -7.24         0.8089        -10.83         
36.2982       0.04991       -167.67       9.519E-2      -7.20         9.538E-2      -7.38         0.8088        -11.03         
36.8982       0.04993       -167.46       9.512E-2      -7.31         9.538E-2      -7.50         0.80871       -11.20         
37.4981       0.04997       -167.32       9.517E-2      -7.42         9.541E-2      -7.61         0.80864       -11.38         
38.0981       0.05002       -167.11       9.518E-2      -7.52         9.539E-2      -7.74         0.80867       -11.58         
38.6981       0.05003       -166.92       9.517E-2      -7.64         9.537E-2      -7.85         0.80861       -11.76         
39.2981       0.05007       -166.73       9.515E-2      -7.75         9.533E-2      -7.98         0.80862       -11.93         
39.8980       0.05011       -166.54       9.516E-2      -7.93         9.536E-2      -8.15         0.80847       -12.12         
40.4980       0.05011       -166.29       9.518E-2      -8.05         9.536E-2      -8.22         0.80848       -12.29         
41.0980       0.0502        -166.09       9.521E-2      -8.15         9.537E-2      -8.35         0.8082        -12.48         
41.6979       0.05022       -165.96       9.517E-2      -8.25         9.536E-2      -8.47         0.80844       -12.67         
42.2979       0.05028       -165.80       9.516E-2      -8.38         9.541E-2      -8.60         0.80832       -12.87         
42.8979       0.05031       -165.62       9.513E-2      -8.52         9.536E-2      -8.69         0.80835       -13.05         
43.4978       0.05031       -165.43       9.515E-2      -8.62         9.539E-2      -8.84         0.80843       -13.25         
44.0978       0.0504        -165.26       9.515E-2      -8.77         9.538E-2      -8.96         0.80837       -13.44         
44.6978       0.05045       -165.15       9.514E-2      -8.90         9.537E-2      -9.10         0.80853       -13.64         
45.2978       0.0505        -164.95       9.518E-2      -9.01         9.536E-2      -9.17         0.80839       -13.83         
45.8977       0.05057       -164.72       9.514E-2      -9.12         9.538E-2      -9.32         0.80855       -14.01         
46.4977       0.05056       -164.57       9.508E-2      -9.27         9.537E-2      -9.44         0.80857       -14.21         
47.0977       0.05057       -164.38       9.52E-2       -9.43         9.539E-2      -9.54         0.80946       -14.39         
47.6976       0.05062       -164.18       9.512E-2      -9.55         9.533E-2      -9.65         0.80955       -14.58         
48.2976       0.05068       -164.04       9.517E-2      -9.70         9.535E-2      -9.77         0.80945       -14.75         
48.8976       0.05074       -163.87       9.514E-2      -9.81         9.535E-2      -9.90         0.80962       -14.94         
49.4975       0.0508        -163.69       9.511E-2      -9.97         9.541E-2      -10.01        0.80951       -15.11         
50.0975       0.05078       -163.48       9.509E-2      -10.05        9.536E-2      -10.15        0.80961       -15.29         
50.6975       0.05086       -163.29       9.509E-2      -10.20        9.542E-2      -10.27        0.80975       -15.49         
51.2975       0.05088       -163.16       9.503E-2      -10.28        9.548E-2      -10.46        0.80983       -15.68         
51.8974       0.05098       -163.01       9.494E-2      -10.35        9.557E-2      -10.63        0.80968       -15.85         
52.4974       0.05173       -163.07       9.486E-2      -10.31        9.718E-2      -11.28        0.80761       -16.05         
53.0974       0.05111       -162.31       9.408E-2      -10.07        9.537E-2      -10.83        0.80717       -16.15         
53.6973       0.05108       -162.44       9.51E-2       -10.75        9.541E-2      -10.92        0.81012       -16.42         
54.2973       0.05113       -162.33       9.511E-2      -10.87        9.538E-2      -11.07        0.81012       -16.60         
54.8973       0.05116       -162.14       9.508E-2      -11.02        9.539E-2      -11.18        0.81014       -16.77         
55.4972       0.05118       -162.01       9.51E-2       -11.11        9.541E-2      -11.29        0.81024       -16.94         
56.0972       0.05124       -161.81       9.511E-2      -11.25        9.538E-2      -11.41        0.81006       -17.13         
56.6972       0.05128       -161.61       9.507E-2      -11.34        9.535E-2      -11.51        0.81004       -17.29         
57.2972       0.05137       -161.42       9.511E-2      -11.49        9.538E-2      -11.63        0.81004       -17.48         
57.8971       0.05138       -161.25       9.507E-2      -11.60        9.536E-2      -11.76        0.81006       -17.65         
58.4971       0.05144       -161.11       9.512E-2      -11.72        9.539E-2      -11.91        0.81026       -17.84         
59.0971       0.05146       -160.94       9.512E-2      -11.84        9.538E-2      -12.03        0.81014       -18.01         
59.6970       0.05153       -160.74       9.511E-2      -11.94        9.542E-2      -12.16        0.81036       -18.19         
60.2970       0.05156       -160.59       9.511E-2      -12.08        9.535E-2      -12.28        0.8103        -18.36         
60.8970       0.05162       -160.38       9.513E-2      -12.20        9.541E-2      -12.42        0.81036       -18.55         
61.4969       0.05166       -160.23       9.513E-2      -12.33        9.539E-2      -12.55        0.8102        -18.73         
62.0969       0.05171       -160.05       9.511E-2      -12.44        9.541E-2      -12.67        0.81011       -18.90         
62.6969       0.05173       -159.92       9.514E-2      -12.56        9.535E-2      -12.79        0.81008       -19.08         
63.2969       0.05182       -159.75       9.513E-2      -12.71        9.541E-2      -12.92        0.81012       -19.27         
63.8968       0.05185       -159.62       9.513E-2      -12.81        9.54E-2       -13.04        0.81008       -19.43         
64.4968       0.05193       -159.44       9.511E-2      -12.94        9.542E-2      -13.16        0.81016       -19.62         
65.0968       0.05194       -159.25       9.512E-2      -13.06        9.54E-2       -13.29        0.81012       -19.80         
65.6967       0.05205       -159.08       9.512E-2      -13.18        9.542E-2      -13.40        0.8101        -19.97         
66.2967       0.05205       -158.91       9.512E-2      -13.30        9.538E-2      -13.54        0.81005       -20.15         
66.8967       0.05207       -158.78       9.51E-2       -13.46        9.541E-2      -13.63        0.80994       -20.34         
67.4966       0.05212       -158.62       9.51E-2       -13.57        9.542E-2      -13.76        0.8099        -20.54         
68.0966       0.05214       -158.45       9.51E-2       -13.67        9.541E-2      -13.85        0.80992       -20.71         
68.6966       0.05225       -158.26       9.51E-2       -13.80        9.54E-2       -14.00        0.80993       -20.88         
69.2966       0.05231       -158.10       9.511E-2      -13.92        9.543E-2      -14.10        0.8098        -21.08         
69.8965       0.05237       -157.94       9.511E-2      -14.07        9.542E-2      -14.22        0.80985       -21.26         
70.4965       0.0524        -157.82       9.512E-2      -14.16        9.539E-2      -14.37        0.80996       -21.44         
71.0965       0.05241       -157.65       9.51E-2       -14.32        9.545E-2      -14.47        0.80994       -21.62         
71.6964       0.05252       -157.46       9.509E-2      -14.45        9.541E-2      -14.62        0.80984       -21.79         
72.2964       0.05254       -157.36       9.513E-2      -14.56        9.536E-2      -14.75        0.80985       -21.97         
72.8964       0.05266       -157.26       9.515E-2      -14.69        9.538E-2      -14.86        0.80986       -22.17         
73.4963       0.05272       -157.06       9.511E-2      -14.83        9.537E-2      -14.99        0.8099        -22.35         
74.0963       0.05271       -156.94       9.512E-2      -14.93        9.54E-2       -15.12        0.80994       -22.54         
74.6963       0.05277       -156.85       9.511E-2      -15.05        9.539E-2      -15.23        0.80971       -22.70         
75.2963       0.05283       -156.63       9.509E-2      -15.20        9.54E-2       -15.36        0.80978       -22.89         
75.8962       0.05287       -156.49       9.514E-2      -15.31        9.542E-2      -15.50        0.80977       -23.07         
76.4962       0.05299       -156.27       9.511E-2      -15.42        9.541E-2      -15.61        0.80996       -23.26         
77.0962       0.05305       -156.23       9.51E-2       -15.53        9.541E-2      -15.72        0.81          -23.43         
77.6961       0.05307       -156.09       9.508E-2      -15.68        9.542E-2      -15.86        0.81023       -23.62         
78.2961       0.0532        -155.87       9.513E-2      -15.78        9.541E-2      -15.97        0.81016       -23.80         
78.8961       0.05322       -155.74       9.51E-2       -15.93        9.541E-2      -16.06        0.81026       -23.97         
79.4960       0.05326       -155.58       9.511E-2      -16.06        9.543E-2      -16.21        0.81048       -24.15         
80.0960       0.05331       -155.44       9.51E-2       -16.19        9.542E-2      -16.32        0.81043       -24.34         
80.6960       0.05338       -155.35       9.512E-2      -16.30        9.541E-2      -16.44        0.81049       -24.50         
81.2960       0.05342       -155.19       9.511E-2      -16.42        9.543E-2      -16.58        0.81062       -24.68         
81.8959       0.05351       -155.05       9.51E-2       -16.53        9.544E-2      -16.69        0.81076       -24.86         
82.4959       0.05358       -154.88       9.513E-2      -16.66        9.544E-2      -16.79        0.81092       -25.05         
83.0959       0.05364       -154.72       9.509E-2      -16.78        9.543E-2      -16.92        0.81095       -25.21         
83.6958       0.05371       -154.59       9.513E-2      -16.91        9.542E-2      -17.06        0.8111        -25.40         
84.2958       0.05378       -154.41       9.512E-2      -17.04        9.539E-2      -17.17        0.81118       -25.57         
84.8958       0.05382       -154.27       9.514E-2      -17.15        9.541E-2      -17.33        0.81107       -25.75         
85.4957       0.05391       -154.17       9.517E-2      -17.27        9.541E-2      -17.47        0.8113        -25.94         
86.0957       0.05395       -153.99       9.518E-2      -17.40        9.54E-2       -17.58        0.81115       -26.13         
86.6957       0.05401       -153.78       9.512E-2      -17.54        9.541E-2      -17.72        0.8113        -26.30         
87.2957       0.05407       -153.71       9.517E-2      -17.66        9.539E-2      -17.85        0.81141       -26.49         
87.8956       0.0541        -153.54       9.512E-2      -17.77        9.535E-2      -17.95        0.81139       -26.66         
88.4956       0.05425       -153.38       9.513E-2      -17.89        9.537E-2      -18.08        0.81139       -26.83         
89.0956       0.05429       -153.22       9.516E-2      -18.01        9.536E-2      -18.21        0.81149       -27.00         
89.6955       0.05433       -153.06       9.517E-2      -18.14        9.535E-2      -18.34        0.81165       -27.18         
90.2955       0.05444       -152.93       9.514E-2      -18.26        9.537E-2      -18.43        0.81178       -27.37         
90.8955       0.05449       -152.83       9.517E-2      -18.38        9.533E-2      -18.54        0.81179       -27.54         
91.4954       0.05456       -152.63       9.519E-2      -18.51        9.53E-2       -18.69        0.81185       -27.73         
92.0954       0.05463       -152.48       9.517E-2      -18.65        9.531E-2      -18.81        0.81171       -27.90         
