!    8/12/2020   02:42:33 
! Ref Plane: 0.000 mm
# MHZ S MA R  50
!
0.3000        0.04833       177.34        9.852E-2      -1.23         9.704E-2      -1.05         0.81811       -0.50          
0.9000        0.04777       178.67        9.46E-2       -0.68         9.562E-2      -0.53         0.81038       -0.69          
1.4999        0.04783       178.92        9.483E-2      -0.64         9.543E-2      -0.50         0.80856       -0.84          
2.0999        0.04779       179.21        9.497E-2      -0.85         9.529E-2      -0.59         0.80849       -1.13          
2.6999        0.04783       179.49        9.507E-2      -0.96         9.524E-2      -0.75         0.80836       -1.37          
3.2999        0.04782       179.76        9.51E-2       -1.11         9.523E-2      -0.90         0.80825       -1.59          
3.8998        0.04791       179.98        9.508E-2      -1.26         9.517E-2      -1.05         0.80838       -1.83          
4.4998        0.04787       -179.81       9.512E-2      -1.40         9.52E-2       -1.18         0.8085        -2.05          
5.0998        0.04797       -179.48       9.515E-2      -1.54         9.518E-2      -1.31         0.8085        -2.27          
5.6997        0.04794       -179.25       9.516E-2      -1.69         9.519E-2      -1.47         0.80879       -2.51          
6.2997        0.04796       -179.06       9.514E-2      -1.83         9.517E-2      -1.61         0.80859       -2.72          
6.8997        0.04799       -178.81       9.515E-2      -2.01         9.514E-2      -1.76         0.80891       -2.97          
7.4996        0.04803       -178.52       9.517E-2      -2.11         9.518E-2      -1.88         0.80893       -3.20          
8.0996        0.04805       -178.32       9.515E-2      -2.27         9.515E-2      -2.03         0.80846       -3.42          
8.6996        0.04805       -178.11       9.519E-2      -2.36         9.514E-2      -2.15         0.80872       -3.63          
9.2996        0.04806       -177.82       9.523E-2      -2.54         9.517E-2      -2.34         0.80891       -3.85          
9.8995        0.04809       -177.57       9.518E-2      -2.71         9.515E-2      -2.48         0.80863       -4.08          
10.4995       0.04813       -177.37       9.518E-2      -2.84         9.514E-2      -2.58         0.80901       -4.27          
11.0995       0.04818       -177.12       9.519E-2      -2.98         9.517E-2      -2.73         0.8091        -4.51          
11.6994       0.04818       -176.86       9.521E-2      -3.09         9.514E-2      -2.87         0.80922       -4.74          
12.2994       0.0482        -176.63       9.518E-2      -3.24         9.511E-2      -3.02         0.80918       -4.94          
12.8994       0.04821       -176.38       9.525E-2      -3.33         9.513E-2      -3.17         0.8091        -5.16          
13.4993       0.04823       -176.15       9.528E-2      -3.55         9.514E-2      -3.30         0.80929       -5.39          
14.0993       0.04828       -175.95       9.523E-2      -3.65         9.514E-2      -3.46         0.80917       -5.59          
14.6993       0.04831       -175.67       9.517E-2      -3.83         9.516E-2      -3.58         0.80924       -5.78          
15.2993       0.04832       -175.49       9.519E-2      -3.89         9.511E-2      -3.71         0.80949       -6.00          
15.8992       0.04835       -175.27       9.519E-2      -4.05         9.512E-2      -3.87         0.80953       -6.21          
16.4992       0.04837       -175.06       9.521E-2      -4.19         9.517E-2      -4.04         0.8094        -6.46          
17.0992       0.04842       -174.80       9.521E-2      -4.34         9.512E-2      -4.18         0.80961       -6.68          
17.6991       0.04852       -174.56       9.522E-2      -4.48         9.512E-2      -4.33         0.80953       -6.91          
18.2991       0.04851       -174.37       9.517E-2      -4.65         9.517E-2      -4.43         0.8095        -7.08          
18.8991       0.04853       -174.14       9.523E-2      -4.79         9.517E-2      -4.55         0.80994       -7.30          
19.4990       0.04855       -173.92       9.526E-2      -4.91         9.514E-2      -4.73         0.80992       -7.51          
20.0990       0.04859       -173.67       9.525E-2      -5.05         9.516E-2      -4.85         0.80987       -7.73          
20.6990       0.04865       -173.45       9.522E-2      -5.20         9.518E-2      -5.00         0.80981       -7.94          
21.2990       0.04861       -173.20       9.522E-2      -5.36         9.519E-2      -5.12         0.80985       -8.16          
21.8989       0.04867       -173.04       9.526E-2      -5.50         9.518E-2      -5.26         0.81003       -8.37          
22.4989       0.04872       -172.79       9.52E-2       -5.68         9.521E-2      -5.41         0.80994       -8.59          
23.0989       0.04878       -172.61       9.523E-2      -5.78         9.524E-2      -5.54         0.81024       -8.81          
23.6988       0.04878       -172.33       9.523E-2      -5.91         9.52E-2       -5.70         0.80987       -9.03          
24.2988       0.0488        -172.15       9.522E-2      -6.04         9.519E-2      -5.82         0.80989       -9.22          
24.8988       0.04889       -171.92       9.521E-2      -6.20         9.521E-2      -5.98         0.80975       -9.44          
25.4987       0.04891       -171.75       9.525E-2      -6.33         9.516E-2      -6.11         0.80978       -9.67          
26.0987       0.04896       -171.49       9.518E-2      -6.48         9.518E-2      -6.24         0.8096        -9.87          
26.6987       0.04902       -171.28       9.519E-2      -6.61         9.517E-2      -6.37         0.80958       -10.07         
27.2987       0.04906       -171.05       9.528E-2      -6.74         9.519E-2      -6.51         0.8094        -10.30         
27.8986       0.04908       -170.86       9.523E-2      -6.92         9.517E-2      -6.66         0.80911       -10.50         
28.4986       0.04909       -170.61       9.524E-2      -7.04         9.518E-2      -6.81         0.80901       -10.74         
29.0986       0.04915       -170.51       9.523E-2      -7.15         9.515E-2      -6.95         0.80888       -10.93         
29.6985       0.04924       -170.30       9.524E-2      -7.29         9.515E-2      -7.06         0.80893       -11.16         
30.2985       0.04922       -170.06       9.519E-2      -7.44         9.515E-2      -7.25         0.80864       -11.37         
30.8985       0.04925       -169.82       9.523E-2      -7.62         9.511E-2      -7.34         0.80853       -11.59         
31.4984       0.04932       -169.62       9.521E-2      -7.71         9.509E-2      -7.49         0.80863       -11.80         
32.0984       0.04936       -169.51       9.519E-2      -7.90         9.515E-2      -7.61         0.80855       -12.01         
32.6984       0.04938       -169.24       9.521E-2      -8.00         9.515E-2      -7.75         0.80858       -12.22         
33.2984       0.0494        -169.06       9.521E-2      -8.12         9.512E-2      -7.90         0.80831       -12.40         
33.8983       0.04946       -168.89       9.523E-2      -8.26         9.513E-2      -8.05         0.80848       -12.61         
34.4983       0.04952       -168.67       9.525E-2      -8.39         9.516E-2      -8.15         0.80884       -12.80         
35.0983       0.04951       -168.52       9.525E-2      -8.54         9.515E-2      -8.34         0.80862       -13.02         
35.6982       0.04956       -168.32       9.525E-2      -8.68         9.514E-2      -8.45         0.80895       -13.24         
36.2982       0.04966       -168.08       9.526E-2      -8.83         9.512E-2      -8.63         0.80889       -13.48         
36.8982       0.04965       -167.91       9.524E-2      -8.96         9.514E-2      -8.76         0.8089        -13.68         
37.4981       0.04972       -167.73       9.525E-2      -9.09         9.515E-2      -8.88         0.80869       -13.91         
38.0981       0.04974       -167.56       9.528E-2      -9.23         9.513E-2      -9.04         0.80884       -14.13         
38.6981       0.04978       -167.34       9.524E-2      -9.34         9.512E-2      -9.19         0.8088        -14.35         
39.2981       0.0498        -167.15       9.522E-2      -9.46         9.51E-2       -9.32         0.80881       -14.56         
39.8980       0.04985       -167.01       9.522E-2      -9.66         9.509E-2      -9.49         0.80853       -14.81         
40.4980       0.04989       -166.77       9.524E-2      -9.80         9.512E-2      -9.58         0.80872       -15.01         
41.0980       0.04995       -166.55       9.526E-2      -9.92         9.514E-2      -9.75         0.80847       -15.23         
41.6979       0.04998       -166.44       9.52E-2       -10.07        9.512E-2      -9.87         0.80852       -15.47         
42.2979       0.05006       -166.26       9.523E-2      -10.19        9.516E-2      -10.02        0.80867       -15.68         
42.8979       0.05007       -166.10       9.525E-2      -10.35        9.513E-2      -10.15        0.80876       -15.91         
43.4978       0.05009       -165.94       9.522E-2      -10.47        9.514E-2      -10.29        0.80875       -16.15         
44.0978       0.05018       -165.75       9.521E-2      -10.63        9.513E-2      -10.43        0.80857       -16.37         
44.6978       0.0502        -165.63       9.519E-2      -10.77        9.512E-2      -10.62        0.80887       -16.63         
45.2978       0.05027       -165.43       9.522E-2      -10.92        9.51E-2       -10.69        0.80866       -16.85         
45.8977       0.05035       -165.22       9.519E-2      -11.06        9.512E-2      -10.86        0.80884       -17.08         
46.4977       0.05037       -165.09       9.516E-2      -11.20        9.514E-2      -10.99        0.80899       -17.30         
47.0977       0.0504        -164.87       9.518E-2      -11.33        9.519E-2      -11.13        0.80992       -17.52         
47.6976       0.05044       -164.67       9.517E-2      -11.48        9.508E-2      -11.29        0.81006       -17.75         
48.2976       0.05051       -164.57       9.523E-2      -11.62        9.509E-2      -11.41        0.80992       -17.94         
48.8976       0.05056       -164.36       9.519E-2      -11.76        9.509E-2      -11.55        0.81022       -18.16         
49.4975       0.05062       -164.18       9.516E-2      -11.92        9.517E-2      -11.69        0.81021       -18.39         
50.0975       0.05063       -164.06       9.516E-2      -12.02        9.509E-2      -11.85        0.81033       -18.60         
50.6975       0.05069       -163.85       9.519E-2      -12.18        9.508E-2      -12.00        0.81025       -18.84         
51.2975       0.05073       -163.68       9.519E-2      -12.33        9.506E-2      -12.14        0.81036       -19.07         
51.8974       0.0508        -163.53       9.521E-2      -12.51        9.50E-2       -12.22        0.81033       -19.26         
52.4974       0.05156       -163.63       9.534E-2      -12.73        9.528E-2      -12.45        0.80567       -19.53         
53.0974       0.05087       -163.16       9.56E-2       -12.93        9.394E-2      -12.23        0.80938       -19.68         
53.6973       0.05085       -163.14       9.549E-2      -13.01        9.509E-2      -12.70        0.81094       -19.94         
54.2973       0.051         -162.88       9.514E-2      -13.01        9.509E-2      -12.84        0.81099       -20.16         
54.8973       0.05104       -162.68       9.515E-2      -13.16        9.507E-2      -12.96        0.81106       -20.36         
55.4972       0.05106       -162.57       9.511E-2      -13.28        9.511E-2      -13.10        0.81125       -20.59         
56.0972       0.05113       -162.38       9.514E-2      -13.43        9.509E-2      -13.25        0.8111        -20.80         
56.6972       0.05119       -162.17       9.515E-2      -13.58        9.507E-2      -13.36        0.81119       -21.00         
57.2972       0.05128       -162.00       9.511E-2      -13.72        9.512E-2      -13.50        0.81117       -21.22         
57.8971       0.05128       -161.79       9.513E-2      -13.84        9.509E-2      -13.63        0.81131       -21.42         
58.4971       0.05138       -161.66       9.516E-2      -13.99        9.513E-2      -13.82        0.81166       -21.66         
59.0971       0.0514        -161.50       9.518E-2      -14.11        9.513E-2      -13.91        0.81169       -21.84         
59.6970       0.05143       -161.31       9.516E-2      -14.28        9.514E-2      -14.07        0.81181       -22.07         
60.2970       0.05147       -161.14       9.512E-2      -14.39        9.508E-2      -14.20        0.81171       -22.27         
60.8970       0.05156       -160.95       9.514E-2      -14.57        9.514E-2      -14.36        0.81193       -22.49         
61.4969       0.0516        -160.82       9.514E-2      -14.70        9.512E-2      -14.50        0.81195       -22.70         
62.0969       0.05166       -160.64       9.514E-2      -14.83        9.513E-2      -14.64        0.81179       -22.93         
62.6969       0.05169       -160.53       9.515E-2      -14.96        9.507E-2      -14.79        0.8118        -23.13         
63.2969       0.05179       -160.33       9.516E-2      -15.12        9.513E-2      -14.89        0.81202       -23.34         
63.8968       0.05183       -160.20       9.515E-2      -15.24        9.511E-2      -15.08        0.81198       -23.54         
64.4968       0.05192       -160.01       9.517E-2      -15.38        9.511E-2      -15.21        0.81207       -23.76         
65.0968       0.05195       -159.85       9.514E-2      -15.52        9.513E-2      -15.36        0.81212       -23.98         
65.6967       0.05204       -159.67       9.517E-2      -15.68        9.515E-2      -15.48        0.81232       -24.18         
66.2967       0.05204       -159.49       9.517E-2      -15.78        9.513E-2      -15.61        0.81235       -24.39         
66.8967       0.05213       -159.37       9.514E-2      -15.94        9.51E-2       -15.79        0.81212       -24.62         
67.4966       0.05216       -159.17       9.512E-2      -16.06        9.512E-2      -15.91        0.81215       -24.84         
68.0966       0.05217       -159.05       9.514E-2      -16.21        9.516E-2      -16.03        0.81222       -25.06         
68.6966       0.0523        -158.85       9.513E-2      -16.34        9.515E-2      -16.16        0.8123        -25.23         
69.2966       0.05236       -158.67       9.513E-2      -16.50        9.517E-2      -16.27        0.81235       -25.47         
69.8965       0.05245       -158.52       9.516E-2      -16.65        9.514E-2      -16.42        0.81236       -25.69         
70.4965       0.05247       -158.40       9.515E-2      -16.76        9.512E-2      -16.57        0.81254       -25.89         
71.0965       0.05253       -158.24       9.512E-2      -16.91        9.517E-2      -16.70        0.81276       -26.09         
71.6964       0.05263       -158.02       9.514E-2      -17.07        9.516E-2      -16.84        0.81266       -26.30         
72.2964       0.05266       -157.97       9.516E-2      -17.21        9.509E-2      -17.01        0.81274       -26.52         
72.8964       0.05276       -157.81       9.518E-2      -17.37        9.514E-2      -17.12        0.8128        -26.73         
73.4963       0.05284       -157.63       9.516E-2      -17.52        9.512E-2      -17.28        0.81283       -26.95         
74.0963       0.05286       -157.50       9.517E-2      -17.65        9.515E-2      -17.42        0.81306       -27.17         
74.6963       0.05292       -157.42       9.514E-2      -17.80        9.512E-2      -17.54        0.81285       -27.36         
75.2963       0.05301       -157.18       9.517E-2      -17.94        9.511E-2      -17.67        0.81292       -27.58         
75.8962       0.05306       -157.07       9.515E-2      -18.06        9.514E-2      -17.83        0.81309       -27.77         
76.4962       0.05313       -156.82       9.518E-2      -18.20        9.516E-2      -17.96        0.81334       -27.99         
77.0962       0.05319       -156.72       9.516E-2      -18.35        9.515E-2      -18.09        0.81349       -28.21         
77.6961       0.05328       -156.60       9.515E-2      -18.50        9.518E-2      -18.27        0.8138        -28.42         
78.2961       0.05338       -156.42       9.516E-2      -18.59        9.515E-2      -18.37        0.81382       -28.62         
78.8961       0.05342       -156.29       9.514E-2      -18.76        9.518E-2      -18.52        0.81411       -28.82         
79.4960       0.05348       -156.13       9.517E-2      -18.89        9.521E-2      -18.66        0.81437       -29.02         
80.0960       0.05353       -155.97       9.516E-2      -19.04        9.517E-2      -18.79        0.81424       -29.25         
80.6960       0.05357       -155.84       9.517E-2      -19.16        9.515E-2      -18.92        0.81422       -29.44         
81.2960       0.05368       -155.72       9.521E-2      -19.33        9.522E-2      -19.07        0.81478       -29.64         
81.8959       0.05376       -155.56       9.518E-2      -19.42        9.523E-2      -19.20        0.81489       -29.84         
82.4959       0.05383       -155.38       9.516E-2      -19.59        9.521E-2      -19.33        0.81505       -30.06         
83.0959       0.05393       -155.23       9.52E-2       -19.70        9.521E-2      -19.47        0.81509       -30.24         
83.6958       0.05398       -155.06       9.52E-2       -19.86        9.52E-2       -19.64        0.81546       -30.47         
84.2958       0.05404       -154.89       9.524E-2      -20.01        9.519E-2      -19.74        0.81559       -30.65         
84.8958       0.05411       -154.77       9.524E-2      -20.15        9.519E-2      -19.89        0.81552       -30.86         
85.4957       0.05421       -154.66       9.527E-2      -20.29        9.521E-2      -20.05        0.81594       -31.07         
86.0957       0.05425       -154.46       9.525E-2      -20.42        9.52E-2       -20.19        0.81573       -31.28         
86.6957       0.05431       -154.24       9.523E-2      -20.59        9.523E-2      -20.32        0.81604       -31.49         
87.2957       0.05442       -154.15       9.529E-2      -20.71        9.523E-2      -20.49        0.81637       -31.69         
87.8956       0.05445       -154.02       9.525E-2      -20.85        9.516E-2      -20.60        0.81621       -31.88         
88.4956       0.05459       -153.83       9.526E-2      -20.98        9.518E-2      -20.74        0.81631       -32.08         
89.0956       0.05466       -153.64       9.527E-2      -21.11        9.519E-2      -20.90        0.8164        -32.29         
89.6955       0.05472       -153.45       9.533E-2      -21.25        9.52E-2       -21.03        0.81678       -32.48         
90.2955       0.0548        -153.34       9.529E-2      -21.38        9.52E-2       -21.16        0.81676       -32.70         
90.8955       0.05488       -153.20       9.535E-2      -21.53        9.52E-2       -21.30        0.81696       -32.89         
91.4954       0.05493       -153.04       9.536E-2      -21.67        9.517E-2      -21.45        0.81703       -33.10         
92.0954       0.05503       -152.89       9.533E-2      -21.82        9.522E-2      -21.59        0.81702       -33.30         
