!    8/12/2020   02:39:55 
! Ref Plane: 0.000 mm
# MHZ S MA R  50
!
0.3000        0.0483        177.15        9.85E-2       -1.14         9.701E-2      -1.02         0.81866       -0.46          
0.9000        0.04768       178.62        9.457E-2      -0.59         9.571E-2      -0.44         0.81077       -0.64          
1.4999        0.04778       178.98        9.487E-2      -0.53         9.546E-2      -0.43         0.80874       -0.80          
2.0999        0.04775       179.26        9.50E-2       -0.73         9.533E-2      -0.56         0.80865       -1.09          
2.6999        0.0478        179.51        9.506E-2      -0.87         9.524E-2      -0.70         0.80831       -1.34          
3.2999        0.0478        179.82        9.512E-2      -1.00         9.521E-2      -0.84         0.80849       -1.57          
3.8998        0.0479        -179.97       9.51E-2       -1.17         9.521E-2      -0.99         0.80861       -1.81          
4.4998        0.04788       -179.73       9.511E-2      -1.31         9.519E-2      -1.10         0.80869       -2.03          
5.0998        0.04797       -179.43       9.515E-2      -1.42         9.519E-2      -1.22         0.80868       -2.25          
5.6997        0.04791       -179.16       9.514E-2      -1.57         9.519E-2      -1.39         0.80895       -2.49          
6.2997        0.04795       -179.03       9.515E-2      -1.72         9.519E-2      -1.50         0.80873       -2.71          
6.8997        0.04799       -178.77       9.518E-2      -1.90         9.516E-2      -1.64         0.80906       -2.95          
7.4996        0.04804       -178.47       9.516E-2      -1.99         9.518E-2      -1.77         0.80911       -3.18          
8.0996        0.04807       -178.26       9.514E-2      -2.15         9.513E-2      -1.90         0.80863       -3.41          
8.6996        0.04806       -178.04       9.518E-2      -2.24         9.513E-2      -2.04         0.80886       -3.62          
9.2996        0.04808       -177.76       9.524E-2      -2.42         9.518E-2      -2.19         0.8091        -3.84          
9.8995        0.04811       -177.49       9.517E-2      -2.58         9.516E-2      -2.33         0.80884       -4.06          
10.4995       0.04815       -177.32       9.518E-2      -2.70         9.517E-2      -2.44         0.80928       -4.26          
11.0995       0.04823       -177.07       9.519E-2      -2.83         9.516E-2      -2.56         0.80933       -4.50          
11.6994       0.04823       -176.82       9.522E-2      -2.96         9.512E-2      -2.70         0.80944       -4.72          
12.2994       0.04824       -176.58       9.517E-2      -3.09         9.514E-2      -2.84         0.80939       -4.93          
12.8994       0.04824       -176.37       9.52E-2       -3.19         9.512E-2      -2.98         0.80938       -5.15          
13.4993       0.04827       -176.10       9.526E-2      -3.38         9.509E-2      -3.12         0.80957       -5.38          
14.0993       0.04833       -175.91       9.52E-2       -3.49         9.509E-2      -3.29         0.80945       -5.58          
14.6993       0.04834       -175.64       9.517E-2      -3.67         9.515E-2      -3.38         0.80957       -5.77          
15.2993       0.04837       -175.45       9.518E-2      -3.73         9.51E-2       -3.52         0.80981       -5.99          
15.8992       0.04839       -175.26       9.522E-2      -3.87         9.51E-2       -3.66         0.80989       -6.21          
16.4992       0.04842       -175.05       9.519E-2      -4.02         9.512E-2      -3.85         0.80978       -6.44          
17.0992       0.04846       -174.77       9.523E-2      -4.15         9.51E-2       -3.94         0.81003       -6.68          
17.6991       0.04857       -174.56       9.518E-2      -4.28         9.51E-2       -4.09         0.80999       -6.90          
18.2991       0.04855       -174.37       9.516E-2      -4.43         9.513E-2      -4.21         0.81          -7.07          
18.8991       0.04858       -174.13       9.518E-2      -4.57         9.515E-2      -4.32         0.81046       -7.29          
19.4990       0.0486        -173.88       9.524E-2      -4.70         9.509E-2      -4.49         0.81045       -7.50          
20.0990       0.04863       -173.64       9.519E-2      -4.84         9.513E-2      -4.61         0.81036       -7.72          
20.6990       0.04868       -173.46       9.521E-2      -4.99         9.513E-2      -4.76         0.81039       -7.93          
21.2990       0.04866       -173.18       9.517E-2      -5.13         9.513E-2      -4.87         0.81044       -8.14          
21.8989       0.04872       -173.04       9.521E-2      -5.26         9.513E-2      -4.98         0.81065       -8.35          
22.4989       0.04876       -172.79       9.514E-2      -5.42         9.519E-2      -5.14         0.81059       -8.58          
23.0989       0.04884       -172.60       9.518E-2      -5.53         9.517E-2      -5.26         0.81093       -8.79          
23.6988       0.04882       -172.30       9.521E-2      -5.65         9.516E-2      -5.42         0.81057       -9.02          
24.2988       0.04882       -172.15       9.519E-2      -5.78         9.512E-2      -5.54         0.81065       -9.20          
24.8988       0.04892       -171.93       9.517E-2      -5.91         9.514E-2      -5.68         0.81051       -9.43          
25.4987       0.04897       -171.74       9.52E-2       -6.05         9.509E-2      -5.83         0.81058       -9.65          
26.0987       0.04902       -171.48       9.511E-2      -6.20         9.514E-2      -5.93         0.81041       -9.85          
26.6987       0.04903       -171.30       9.514E-2      -6.33         9.511E-2      -6.05         0.81043       -10.05         
27.2987       0.04907       -171.03       9.523E-2      -6.45         9.512E-2      -6.19         0.81034       -10.28         
27.8986       0.04912       -170.85       9.518E-2      -6.62         9.509E-2      -6.33         0.81008       -10.48         
28.4986       0.04915       -170.60       9.518E-2      -6.72         9.51E-2       -6.48         0.81          -10.72         
29.0986       0.04916       -170.50       9.519E-2      -6.84         9.509E-2      -6.63         0.80993       -10.91         
29.6985       0.04928       -170.30       9.517E-2      -6.99         9.508E-2      -6.72         0.81003       -11.13         
30.2985       0.04925       -170.05       9.514E-2      -7.13         9.507E-2      -6.89         0.80974       -11.34         
30.8985       0.04927       -169.81       9.515E-2      -7.28         9.504E-2      -6.99         0.8097        -11.56         
31.4984       0.04933       -169.62       9.514E-2      -7.38         9.503E-2      -7.13         0.80981       -11.77         
32.0984       0.04937       -169.50       9.513E-2      -7.56         9.506E-2      -7.25         0.80981       -11.98         
32.6984       0.0494        -169.24       9.513E-2      -7.65         9.506E-2      -7.38         0.80986       -12.18         
33.2984       0.04942       -169.09       9.514E-2      -7.76         9.504E-2      -7.51         0.80968       -12.37         
33.8983       0.04948       -168.87       9.517E-2      -7.90         9.505E-2      -7.66         0.80988       -12.57         
34.4983       0.04955       -168.66       9.518E-2      -8.03         9.507E-2      -7.76         0.81027       -12.76         
35.0983       0.04953       -168.52       9.516E-2      -8.16         9.505E-2      -7.92         0.8101        -12.98         
35.6982       0.04958       -168.34       9.52E-2       -8.31         9.505E-2      -8.03         0.81051       -13.20         
36.2982       0.04963       -168.13       9.517E-2      -8.44         9.502E-2      -8.21         0.81048       -13.43         
36.8982       0.04966       -167.93       9.515E-2      -8.57         9.505E-2      -8.34         0.81055       -13.64         
37.4981       0.04973       -167.74       9.515E-2      -8.69         9.505E-2      -8.45         0.81041       -13.86         
38.0981       0.04976       -167.56       9.517E-2      -8.83         9.505E-2      -8.60         0.8106        -14.08         
38.6981       0.04978       -167.38       9.517E-2      -8.92         9.501E-2      -8.74         0.81061       -14.30         
39.2981       0.04982       -167.20       9.513E-2      -9.05         9.499E-2      -8.87         0.81069       -14.50         
39.8980       0.04984       -167.02       9.514E-2      -9.24         9.498E-2      -9.03         0.81047       -14.75         
40.4980       0.04987       -166.76       9.516E-2      -9.38         9.502E-2      -9.10         0.81068       -14.95         
41.0980       0.04993       -166.57       9.517E-2      -9.48         9.502E-2      -9.27         0.81047       -15.16         
41.6979       0.04995       -166.44       9.512E-2      -9.63         9.502E-2      -9.41         0.8106        -15.40         
42.2979       0.05004       -166.27       9.513E-2      -9.74         9.503E-2      -9.53         0.81084       -15.62         
42.8979       0.05007       -166.11       9.513E-2      -9.89         9.50E-2       -9.65         0.81096       -15.84         
43.4978       0.05005       -165.95       9.511E-2      -10.02        9.503E-2      -9.79         0.81097       -16.08         
44.0978       0.05014       -165.79       9.511E-2      -10.16        9.501E-2      -9.93         0.81093       -16.30         
44.6978       0.05019       -165.68       9.51E-2       -10.30        9.502E-2      -10.09        0.81129       -16.56         
45.2978       0.05023       -165.45       9.513E-2      -10.42        9.498E-2      -10.19        0.81113       -16.77         
45.8977       0.05031       -165.27       9.509E-2      -10.59        9.50E-2       -10.32        0.81137       -16.99         
46.4977       0.05032       -165.08       9.504E-2      -10.72        9.498E-2      -10.46        0.81155       -17.22         
47.0977       0.05033       -164.88       9.508E-2      -10.85        9.507E-2      -10.61        0.81261       -17.44         
47.6976       0.0504        -164.70       9.506E-2      -10.98        9.496E-2      -10.75        0.81278       -17.66         
48.2976       0.05046       -164.55       9.511E-2      -11.12        9.496E-2      -10.87        0.81267       -17.86         
48.8976       0.0505        -164.38       9.507E-2      -11.23        9.497E-2      -11.00        0.81307       -18.07         
49.4975       0.05057       -164.20       9.506E-2      -11.39        9.503E-2      -11.12        0.81309       -18.30         
50.0975       0.05057       -164.08       9.504E-2      -11.47        9.492E-2      -11.29        0.81329       -18.50         
50.6975       0.05061       -163.83       9.505E-2      -11.65        9.494E-2      -11.42        0.81336       -18.74         
51.2975       0.05066       -163.72       9.508E-2      -11.78        9.492E-2      -11.56        0.81346       -18.96         
51.8974       0.05076       -163.55       9.507E-2      -11.94        9.489E-2      -11.64        0.81349       -19.15         
52.4974       0.05148       -163.65       9.518E-2      -12.14        9.522E-2      -11.89        0.80891       -19.42         
53.0974       0.05079       -163.16       9.536E-2      -12.28        9.454E-2      -11.89        0.81266       -19.56         
53.6973       0.05082       -163.01       9.502E-2      -12.32        9.496E-2      -12.08        0.81432       -19.82         
54.2973       0.0509        -162.88       9.50E-2       -12.45        9.496E-2      -12.24        0.81445       -20.05         
54.8973       0.05091       -162.68       9.50E-2       -12.60        9.495E-2      -12.37        0.81459       -20.24         
55.4972       0.05098       -162.55       9.50E-2       -12.70        9.496E-2      -12.49        0.81483       -20.46         
56.0972       0.05102       -162.38       9.501E-2      -12.84        9.496E-2      -12.63        0.81477       -20.67         
56.6972       0.05106       -162.20       9.502E-2      -12.98        9.492E-2      -12.72        0.81485       -20.86         
57.2972       0.05116       -161.98       9.497E-2      -13.11        9.494E-2      -12.84        0.81501       -21.08         
57.8971       0.05116       -161.80       9.498E-2      -13.24        9.495E-2      -12.99        0.8152        -21.29         
58.4971       0.05125       -161.67       9.505E-2      -13.36        9.497E-2      -13.16        0.81558       -21.52         
59.0971       0.05125       -161.48       9.502E-2      -13.49        9.496E-2      -13.25        0.81572       -21.70         
59.6970       0.05132       -161.31       9.504E-2      -13.65        9.499E-2      -13.40        0.81588       -21.92         
60.2970       0.05134       -161.14       9.50E-2       -13.74        9.495E-2      -13.52        0.81588       -22.11         
60.8970       0.05141       -160.96       9.504E-2      -13.91        9.498E-2      -13.68        0.81616       -22.34         
61.4969       0.05143       -160.81       9.502E-2      -14.03        9.495E-2      -13.81        0.81626       -22.54         
62.0969       0.05153       -160.63       9.502E-2      -14.16        9.494E-2      -13.93        0.81619       -22.76         
62.6969       0.05152       -160.52       9.502E-2      -14.28        9.491E-2      -14.07        0.81626       -22.96         
63.2969       0.05162       -160.33       9.504E-2      -14.43        9.497E-2      -14.18        0.81654       -23.16         
63.8968       0.05166       -160.19       9.501E-2      -14.56        9.497E-2      -14.37        0.8166        -23.36         
64.4968       0.05174       -160.01       9.503E-2      -14.70        9.492E-2      -14.49        0.81677       -23.58         
65.0968       0.05177       -159.85       9.50E-2       -14.83        9.496E-2      -14.61        0.81688       -23.79         
65.6967       0.05185       -159.67       9.503E-2      -14.97        9.498E-2      -14.74        0.81718       -23.99         
66.2967       0.05187       -159.51       9.501E-2      -15.07        9.496E-2      -14.89        0.8173        -24.19         
66.8967       0.05191       -159.35       9.502E-2      -15.21        9.495E-2      -15.03        0.81718       -24.42         
67.4966       0.05194       -159.18       9.498E-2      -15.33        9.495E-2      -15.15        0.81726       -24.63         
68.0966       0.05195       -159.05       9.50E-2       -15.48        9.496E-2      -15.28        0.81739       -24.85         
68.6966       0.05205       -158.83       9.499E-2      -15.60        9.498E-2      -15.38        0.81759       -25.01         
69.2966       0.05215       -158.66       9.496E-2      -15.76        9.498E-2      -15.53        0.81764       -25.25         
69.8965       0.0522        -158.51       9.50E-2       -15.92        9.497E-2      -15.65        0.81776       -25.46         
70.4965       0.05224       -158.40       9.499E-2      -16.00        9.495E-2      -15.79        0.81805       -25.66         
71.0965       0.05227       -158.24       9.498E-2      -16.14        9.50E-2       -15.91        0.81831       -25.86         
71.6964       0.05238       -158.05       9.498E-2      -16.30        9.498E-2      -16.04        0.8183        -26.06         
72.2964       0.05239       -157.94       9.498E-2      -16.44        9.493E-2      -16.20        0.81842       -26.27         
72.8964       0.05249       -157.81       9.501E-2      -16.58        9.495E-2      -16.30        0.81863       -26.49         
73.4963       0.05256       -157.61       9.497E-2      -16.72        9.494E-2      -16.46        0.81868       -26.70         
74.0963       0.05259       -157.49       9.50E-2       -16.85        9.497E-2      -16.60        0.819         -26.91         
74.6963       0.05262       -157.37       9.50E-2       -16.99        9.495E-2      -16.71        0.81888       -27.10         
75.2963       0.0527        -157.18       9.499E-2      -17.10        9.491E-2      -16.83        0.81904       -27.31         
75.8962       0.05275       -157.03       9.499E-2      -17.26        9.496E-2      -16.98        0.81924       -27.50         
76.4962       0.05281       -156.81       9.499E-2      -17.38        9.496E-2      -17.12        0.81962       -27.71         
77.0962       0.05288       -156.72       9.50E-2       -17.52        9.496E-2      -17.23        0.81979       -27.93         
77.6961       0.05295       -156.60       9.498E-2      -17.65        9.497E-2      -17.40        0.82016       -28.14         
78.2961       0.05304       -156.38       9.497E-2      -17.75        9.496E-2      -17.51        0.82026       -28.34         
78.8961       0.05308       -156.29       9.497E-2      -17.90        9.496E-2      -17.62        0.82063       -28.53         
79.4960       0.05313       -156.10       9.499E-2      -18.03        9.499E-2      -17.77        0.82093       -28.73         
80.0960       0.05316       -156.00       9.497E-2      -18.19        9.495E-2      -17.91        0.82091       -28.95         
80.6960       0.05324       -155.86       9.499E-2      -18.30        9.494E-2      -18.03        0.82098       -29.13         
81.2960       0.05329       -155.70       9.50E-2       -18.45        9.501E-2      -18.15        0.82162       -29.34         
81.8959       0.05338       -155.55       9.497E-2      -18.55        9.50E-2       -18.30        0.82181       -29.53         
82.4959       0.05347       -155.39       9.50E-2       -18.71        9.501E-2      -18.41        0.82203       -29.75         
83.0959       0.05351       -155.19       9.50E-2       -18.82        9.501E-2      -18.55        0.82214       -29.91         
83.6958       0.05361       -155.04       9.502E-2      -18.96        9.497E-2      -18.72        0.82256       -30.15         
84.2958       0.05362       -154.88       9.503E-2      -19.11        9.499E-2      -18.79        0.8228        -30.33         
84.8958       0.0537        -154.75       9.501E-2      -19.23        9.496E-2      -18.96        0.82281       -30.53         
85.4957       0.05378       -154.63       9.506E-2      -19.39        9.498E-2      -19.10        0.82327       -30.73         
86.0957       0.05383       -154.44       9.507E-2      -19.50        9.497E-2      -19.23        0.82312       -30.94         
86.6957       0.05387       -154.22       9.504E-2      -19.67        9.498E-2      -19.36        0.82353       -31.14         
87.2957       0.05395       -154.12       9.506E-2      -19.79        9.50E-2       -19.50        0.82395       -31.34         
87.8956       0.05399       -153.99       9.507E-2      -19.94        9.496E-2      -19.62        0.82387       -31.53         
88.4956       0.05413       -153.81       9.502E-2      -20.03        9.497E-2      -19.77        0.82405       -31.72         
89.0956       0.05419       -153.65       9.507E-2      -20.17        9.495E-2      -19.91        0.82422       -31.93         
89.6955       0.05423       -153.44       9.512E-2      -20.30        9.495E-2      -20.04        0.82464       -32.11         
90.2955       0.05432       -153.31       9.508E-2      -20.40        9.498E-2      -20.16        0.82465       -32.32         
90.8955       0.05435       -153.22       9.509E-2      -20.55        9.496E-2      -20.29        0.82498       -32.51         
91.4954       0.05443       -153.00       9.513E-2      -20.69        9.495E-2      -20.42        0.8251        -32.71         
92.0954       0.05452       -152.83       9.511E-2      -20.83        9.497E-2      -20.57        0.82519       -32.91         
