!    8/6/2020   03:56:52 
! Ref Plane: 0.000 mm
# MHZ S MA R  50
!
0.3000        0.04727       -179.65       9.906E-2      -0.88         9.613E-2      -0.97         0.81378       -0.47          
0.9000        0.04766       179.67        9.516E-2      -0.40         9.504E-2      -0.20         0.80824       -0.56          
1.4999        0.04775       179.63        9.526E-2      -0.20         9.527E-2      -0.34         0.80823       -0.73          
2.0999        0.04773       179.76        9.52E-2       -0.31         9.532E-2      -0.41         0.80869       -0.91          
2.6999        0.04778       179.90        9.52E-2       -0.42         9.535E-2      -0.55         0.80872       -1.06          
3.2999        0.04776       -179.81       9.52E-2       -0.51         9.541E-2      -0.70         0.80902       -1.23          
3.8998        0.04784       -179.65       9.515E-2      -0.63         9.543E-2      -0.83         0.80905       -1.41          
4.4998        0.04785       -179.42       9.513E-2      -0.76         9.544E-2      -0.90         0.80907       -1.57          
5.0998        0.04794       -179.13       9.513E-2      -0.84         9.543E-2      -1.01         0.8091        -1.74          
5.6997        0.04789       -178.90       9.513E-2      -0.96         9.549E-2      -1.17         0.80926       -1.93          
6.2997        0.04795       -178.71       9.511E-2      -1.11         9.544E-2      -1.26         0.8091        -2.12          
6.8997        0.048         -178.48       9.512E-2      -1.27         9.545E-2      -1.39         0.80924       -2.30          
7.4996        0.04803       -178.16       9.508E-2      -1.33         9.548E-2      -1.48         0.80923       -2.50          
8.0996        0.04807       -177.98       9.507E-2      -1.49         9.55E-2       -1.63         0.80904       -2.69          
8.6996        0.04813       -177.76       9.51E-2       -1.57         9.552E-2      -1.71         0.80922       -2.86          
9.2996        0.0481        -177.50       9.515E-2      -1.71         9.551E-2      -1.86         0.80936       -3.05          
9.8995        0.04814       -177.25       9.509E-2      -1.86         9.552E-2      -1.97         0.80907       -3.22          
10.4995       0.04819       -177.09       9.509E-2      -1.99         9.551E-2      -2.09         0.80942       -3.40          
11.0995       0.04825       -176.80       9.511E-2      -2.08         9.552E-2      -2.20         0.80945       -3.59          
11.6994       0.04827       -176.58       9.509E-2      -2.19         9.55E-2       -2.33         0.80949       -3.78          
12.2994       0.04828       -176.32       9.506E-2      -2.33         9.55E-2       -2.44         0.80935       -3.97          
12.8994       0.04833       -176.10       9.513E-2      -2.38         9.551E-2      -2.57         0.80935       -4.13          
13.4993       0.04832       -175.84       9.519E-2      -2.56         9.552E-2      -2.73         0.80957       -4.34          
14.0993       0.0484        -175.68       9.511E-2      -2.65         9.55E-2       -2.83         0.80954       -4.51          
14.6993       0.0484        -175.39       9.508E-2      -2.82         9.552E-2      -2.95         0.80943       -4.69          
15.2993       0.04843       -175.21       9.505E-2      -2.87         9.551E-2      -3.07         0.80959       -4.88          
15.8992       0.04847       -175.01       9.508E-2      -2.99         9.55E-2       -3.22         0.8097        -5.05          
16.4992       0.04852       -174.81       9.511E-2      -3.13         9.552E-2      -3.34         0.80956       -5.24          
17.0992       0.04853       -174.53       9.514E-2      -3.23         9.551E-2      -3.46         0.8097        -5.43          
17.6991       0.04863       -174.30       9.509E-2      -3.36         9.549E-2      -3.59         0.80958       -5.62          
18.2991       0.04864       -174.13       9.511E-2      -3.49         9.552E-2      -3.69         0.80965       -5.78          
18.8991       0.04868       -173.91       9.516E-2      -3.62         9.552E-2      -3.81         0.80989       -5.96          
19.4990       0.04866       -173.67       9.517E-2      -3.75         9.553E-2      -3.93         0.8099        -6.14          
20.0990       0.04874       -173.41       9.514E-2      -3.87         9.551E-2      -4.06         0.80974       -6.33          
20.6990       0.04878       -173.21       9.516E-2      -4.00         9.552E-2      -4.17         0.80979       -6.51          
21.2990       0.04876       -172.92       9.514E-2      -4.11         9.552E-2      -4.28         0.80962       -6.69          
21.8989       0.04881       -172.80       9.516E-2      -4.24         9.552E-2      -4.42         0.80972       -6.88          
22.4989       0.04885       -172.55       9.514E-2      -4.36         9.558E-2      -4.52         0.80977       -7.06          
23.0989       0.04892       -172.37       9.513E-2      -4.47         9.559E-2      -4.67         0.80988       -7.25          
23.6988       0.04893       -172.05       9.52E-2       -4.58         9.556E-2      -4.79         0.8095        -7.43          
24.2988       0.04895       -171.91       9.517E-2      -4.70         9.554E-2      -4.88         0.8095        -7.61          
24.8988       0.04902       -171.68       9.516E-2      -4.85         9.554E-2      -5.04         0.80937       -7.79          
25.4987       0.04903       -171.49       9.522E-2      -4.92         9.552E-2      -5.16         0.80937       -7.97          
26.0987       0.04911       -171.23       9.514E-2      -5.06         9.556E-2      -5.25         0.80922       -8.15          
26.6987       0.04915       -171.04       9.514E-2      -5.17         9.551E-2      -5.39         0.809         -8.32          
27.2987       0.04915       -170.80       9.523E-2      -5.29         9.554E-2      -5.50         0.80885       -8.52          
27.8986       0.04919       -170.59       9.519E-2      -5.44         9.555E-2      -5.61         0.80859       -8.68          
28.4986       0.04924       -170.35       9.522E-2      -5.53         9.555E-2      -5.75         0.80852       -8.88          
29.0986       0.04927       -170.27       9.523E-2      -5.64         9.553E-2      -5.89         0.80829       -9.05          
29.6985       0.04937       -170.03       9.521E-2      -5.77         9.552E-2      -5.98         0.80813       -9.25          
30.2985       0.04931       -169.80       9.519E-2      -5.91         9.553E-2      -6.12         0.80787       -9.43          
30.8985       0.04937       -169.55       9.521E-2      -6.05         9.548E-2      -6.21         0.80783       -9.61          
31.4984       0.04943       -169.39       9.518E-2      -6.14         9.546E-2      -6.33         0.80774       -9.79          
32.0984       0.04946       -169.22       9.522E-2      -6.29         9.554E-2      -6.46         0.80771       -9.97          
32.6984       0.0495        -168.98       9.52E-2       -6.38         9.555E-2      -6.56         0.80757       -10.15         
33.2984       0.04954       -168.81       9.52E-2       -6.50         9.548E-2      -6.71         0.80747       -10.32         
33.8983       0.04956       -168.60       9.527E-2      -6.61         9.552E-2      -6.81         0.80757       -10.48         
34.4983       0.04962       -168.39       9.523E-2      -6.72         9.553E-2      -6.91         0.80773       -10.65         
35.0983       0.04961       -168.24       9.526E-2      -6.84         9.553E-2      -7.07         0.80773       -10.85         
35.6982       0.04967       -168.04       9.527E-2      -6.95         9.552E-2      -7.15         0.80785       -11.02         
36.2982       0.0497        -167.82       9.528E-2      -7.10         9.551E-2      -7.33         0.80773       -11.22         
36.8982       0.04974       -167.60       9.527E-2      -7.20         9.55E-2       -7.44         0.80765       -11.40         
37.4981       0.04978       -167.44       9.53E-2       -7.33         9.553E-2      -7.53         0.80755       -11.59         
38.0981       0.04983       -167.26       9.53E-2       -7.43         9.552E-2      -7.67         0.80754       -11.80         
38.6981       0.04986       -167.05       9.53E-2       -7.53         9.551E-2      -7.79         0.80741       -11.99         
39.2981       0.04988       -166.90       9.53E-2       -7.66         9.548E-2      -7.92         0.8074        -12.17         
39.8980       0.0499        -166.70       9.531E-2      -7.82         9.552E-2      -8.08         0.80719       -12.37         
40.4980       0.04991       -166.48       9.531E-2      -7.95         9.554E-2      -8.16         0.80723       -12.54         
41.0980       0.04999       -166.27       9.536E-2      -8.08         9.553E-2      -8.29         0.80688       -12.74         
41.6979       0.05001       -166.11       9.531E-2      -8.17         9.555E-2      -8.39         0.80707       -12.94         
42.2979       0.05008       -165.95       9.531E-2      -8.28         9.555E-2      -8.53         0.80694       -13.15         
42.8979       0.05011       -165.78       9.528E-2      -8.43         9.551E-2      -8.62         0.80701       -13.34         
43.4978       0.0501        -165.61       9.531E-2      -8.53         9.554E-2      -8.77         0.80701       -13.55         
44.0978       0.05016       -165.41       9.529E-2      -8.67         9.553E-2      -8.88         0.80692       -13.75         
44.6978       0.05022       -165.31       9.528E-2      -8.79         9.554E-2      -9.03         0.807         -13.96         
45.2978       0.05026       -165.11       9.536E-2      -8.93         9.552E-2      -9.12         0.80691       -14.16         
45.8977       0.05035       -164.88       9.529E-2      -9.04         9.555E-2      -9.25         0.80703       -14.35         
46.4977       0.05033       -164.73       9.527E-2      -9.18         9.552E-2      -9.36         0.80695       -14.56         
47.0977       0.05035       -164.51       9.535E-2      -9.34         9.558E-2      -9.47         0.80788       -14.75         
47.6976       0.05039       -164.35       9.529E-2      -9.47         9.549E-2      -9.59         0.80788       -14.94         
48.2976       0.05044       -164.20       9.534E-2      -9.61         9.554E-2      -9.71         0.80779       -15.13         
48.8976       0.05048       -164.03       9.53E-2       -9.76         9.551E-2      -9.83         0.80798       -15.33         
49.4975       0.05053       -163.81       9.527E-2      -9.86         9.56E-2       -9.93         0.80785       -15.52         
50.0975       0.05055       -163.68       9.526E-2      -9.97         9.554E-2      -10.08        0.80789       -15.71         
50.6975       0.0506        -163.44       9.525E-2      -10.10        9.56E-2       -10.20        0.80803       -15.92         
51.2975       0.05065       -163.32       9.521E-2      -10.20        9.565E-2      -10.39        0.80802       -16.12         
51.8974       0.05073       -163.17       9.513E-2      -10.26        9.577E-2      -10.56        0.80789       -16.31         
52.4974       0.05146       -163.21       9.498E-2      -10.22        9.74E-2       -11.24        0.80583       -16.51         
53.0974       0.05088       -162.47       9.426E-2      -9.98         9.555E-2      -10.76        0.80537       -16.63         
53.6973       0.05081       -162.59       9.526E-2      -10.68        9.556E-2      -10.87        0.80828       -16.91         
54.2973       0.05088       -162.49       9.524E-2      -10.79        9.558E-2      -11.02        0.80825       -17.10         
54.8973       0.05088       -162.26       9.527E-2      -10.94        9.555E-2      -11.12        0.80823       -17.28         
55.4972       0.05094       -162.12       9.527E-2      -11.04        9.557E-2      -11.23        0.8083        -17.47         
56.0972       0.05099       -161.96       9.526E-2      -11.16        9.556E-2      -11.36        0.80809       -17.67         
56.6972       0.05103       -161.77       9.526E-2      -11.29        9.554E-2      -11.46        0.80806       -17.84         
57.2972       0.05111       -161.57       9.526E-2      -11.42        9.557E-2      -11.57        0.80807       -18.04         
57.8971       0.05111       -161.36       9.526E-2      -11.52        9.556E-2      -11.71        0.80804       -18.22         
58.4971       0.05117       -161.25       9.531E-2      -11.65        9.558E-2      -11.88        0.80818       -18.43         
59.0971       0.05118       -161.07       9.531E-2      -11.77        9.558E-2      -11.98        0.80813       -18.61         
59.6970       0.05124       -160.92       9.532E-2      -11.87        9.56E-2       -12.10        0.80828       -18.81         
60.2970       0.05126       -160.69       9.528E-2      -12.00        9.556E-2      -12.22        0.80819       -18.99         
60.8970       0.05132       -160.52       9.531E-2      -12.14        9.56E-2       -12.37        0.8083        -19.19         
61.4969       0.05136       -160.38       9.529E-2      -12.27        9.559E-2      -12.50        0.80806       -19.38         
62.0969       0.05142       -160.19       9.529E-2      -12.39        9.558E-2      -12.62        0.80793       -19.58         
62.6969       0.05145       -160.09       9.533E-2      -12.51        9.554E-2      -12.76        0.80788       -19.77         
63.2969       0.05154       -159.88       9.53E-2       -12.65        9.558E-2      -12.89        0.80793       -19.97         
63.8968       0.05155       -159.75       9.532E-2      -12.75        9.559E-2      -13.00        0.80788       -20.15         
64.4968       0.05161       -159.55       9.532E-2      -12.90        9.559E-2      -13.14        0.80786       -20.35         
65.0968       0.05167       -159.38       9.529E-2      -13.03        9.559E-2      -13.27        0.80781       -20.54         
65.6967       0.05173       -159.19       9.529E-2      -13.14        9.561E-2      -13.37        0.80781       -20.73         
66.2967       0.05176       -159.05       9.529E-2      -13.25        9.557E-2      -13.51        0.80774       -20.93         
66.8967       0.05176       -158.90       9.529E-2      -13.41        9.559E-2      -13.62        0.80764       -21.13         
67.4966       0.05181       -158.72       9.526E-2      -13.51        9.56E-2       -13.74        0.80749       -21.33         
68.0966       0.05184       -158.55       9.527E-2      -13.63        9.557E-2      -13.85        0.80747       -21.53         
68.6966       0.05191       -158.38       9.528E-2      -13.75        9.558E-2      -13.99        0.80748       -21.70         
69.2966       0.052         -158.21       9.525E-2      -13.91        9.558E-2      -14.08        0.80735       -21.92         
69.8965       0.05206       -158.05       9.529E-2      -14.02        9.557E-2      -14.22        0.80738       -22.12         
70.4965       0.05208       -157.93       9.527E-2      -14.14        9.557E-2      -14.36        0.80746       -22.31         
71.0965       0.0521        -157.77       9.524E-2      -14.28        9.562E-2      -14.48        0.80748       -22.50         
71.6964       0.05218       -157.56       9.523E-2      -14.41        9.556E-2      -14.62        0.80733       -22.69         
72.2964       0.05221       -157.48       9.527E-2      -14.53        9.551E-2      -14.73        0.80735       -22.89         
72.8964       0.05232       -157.34       9.528E-2      -14.67        9.556E-2      -14.87        0.80732       -23.10         
73.4963       0.05239       -157.13       9.524E-2      -14.81        9.553E-2      -15.00        0.8073        -23.29         
74.0963       0.0524        -157.01       9.525E-2      -14.93        9.555E-2      -15.13        0.80736       -23.49         
74.6963       0.05245       -156.92       9.524E-2      -15.04        9.551E-2      -15.24        0.80711       -23.67         
75.2963       0.0525        -156.71       9.52E-2       -15.17        9.551E-2      -15.36        0.80716       -23.87         
75.8962       0.05254       -156.60       9.524E-2      -15.30        9.553E-2      -15.52        0.80714       -24.06         
76.4962       0.05262       -156.36       9.523E-2      -15.41        9.551E-2      -15.64        0.80735       -24.27         
77.0962       0.05267       -156.27       9.521E-2      -15.54        9.552E-2      -15.74        0.80732       -24.45         
77.6961       0.05274       -156.14       9.519E-2      -15.68        9.553E-2      -15.90        0.80752       -24.65         
78.2961       0.05282       -155.94       9.521E-2      -15.77        9.552E-2      -15.99        0.80745       -24.85         
78.8961       0.05285       -155.82       9.519E-2      -15.91        9.552E-2      -16.10        0.80751       -25.04         
79.4960       0.05294       -155.63       9.519E-2      -16.07        9.554E-2      -16.24        0.80772       -25.22         
80.0960       0.05294       -155.51       9.521E-2      -16.18        9.551E-2      -16.35        0.80768       -25.43         
80.6960       0.05301       -155.38       9.518E-2      -16.28        9.549E-2      -16.46        0.80772       -25.61         
81.2960       0.05308       -155.25       9.521E-2      -16.42        9.552E-2      -16.59        0.80783       -25.80         
81.8959       0.05315       -155.06       9.519E-2      -16.55        9.551E-2      -16.72        0.80796       -25.99         
82.4959       0.05322       -154.92       9.519E-2      -16.67        9.551E-2      -16.84        0.80811       -26.19         
83.0959       0.05328       -154.74       9.515E-2      -16.79        9.548E-2      -16.95        0.8081        -26.37         
83.6958       0.05331       -154.62       9.518E-2      -16.93        9.548E-2      -17.09        0.80824       -26.57         
84.2958       0.05338       -154.42       9.518E-2      -17.06        9.545E-2      -17.21        0.80828       -26.76         
84.8958       0.05345       -154.28       9.518E-2      -17.16        9.545E-2      -17.37        0.80819       -26.95         
85.4957       0.05351       -154.19       9.523E-2      -17.30        9.543E-2      -17.51        0.80843       -27.16         
86.0957       0.05358       -153.99       9.521E-2      -17.42        9.546E-2      -17.63        0.80818       -27.37         
86.6957       0.05361       -153.78       9.516E-2      -17.55        9.546E-2      -17.78        0.80832       -27.55         
87.2957       0.0537        -153.71       9.521E-2      -17.68        9.543E-2      -17.89        0.80848       -27.75         
87.8956       0.05373       -153.53       9.515E-2      -17.79        9.539E-2      -18.00        0.8084        -27.93         
88.4956       0.05384       -153.37       9.513E-2      -17.91        9.539E-2      -18.13        0.80838       -28.12         
89.0956       0.05392       -153.20       9.516E-2      -18.04        9.536E-2      -18.27        0.80846       -28.30         
89.6955       0.05396       -153.02       9.518E-2      -18.17        9.536E-2      -18.38        0.80856       -28.49         
90.2955       0.05402       -152.90       9.513E-2      -18.29        9.538E-2      -18.49        0.80872       -28.69         
90.8955       0.0541        -152.78       9.519E-2      -18.40        9.534E-2      -18.60        0.80869       -28.88         
91.4954       0.05418       -152.58       9.517E-2      -18.53        9.532E-2      -18.74        0.80869       -29.08         
92.0954       0.05423       -152.44       9.517E-2      -18.69        9.531E-2      -18.86        0.80858       -29.26         
