!    8/6/2020   03:58:17 
! Ref Plane: 0.000 mm
# MHZ S MA R  50
!
0.3000        0.04643       -179.07       9.913E-2      -0.86         9.593E-2      -0.80         0.8127        -0.48          
0.9000        0.0474        -179.97       9.52E-2       -0.40         9.49E-2       -0.04         0.80766       -0.59          
1.4999        0.04765       179.78        9.524E-2      -0.20         9.518E-2      -0.20         0.80829       -0.76          
2.0999        0.04763       179.87        9.519E-2      -0.34         9.527E-2      -0.30         0.80873       -0.92          
2.6999        0.0477        -179.96       9.518E-2      -0.42         9.536E-2      -0.43         0.809         -1.06          
3.2999        0.0477        -179.70       9.515E-2      -0.53         9.536E-2      -0.58         0.80905       -1.22          
3.8998        0.04779       -179.51       9.511E-2      -0.67         9.536E-2      -0.71         0.80913       -1.40          
4.4998        0.04778       -179.29       9.51E-2       -0.78         9.537E-2      -0.82         0.80912       -1.56          
5.0998        0.04787       -179.01       9.506E-2      -0.87         9.537E-2      -0.92         0.80914       -1.73          
5.6997        0.04787       -178.71       9.507E-2      -1.00         9.543E-2      -1.08         0.80931       -1.91          
6.2997        0.04792       -178.60       9.505E-2      -1.15         9.54E-2       -1.20         0.80918       -2.10          
6.8997        0.048         -178.34       9.51E-2       -1.31         9.54E-2       -1.32         0.80938       -2.28          
7.4996        0.04803       -178.03       9.506E-2      -1.38         9.541E-2      -1.45         0.80938       -2.47          
8.0996        0.0481        -177.84       9.506E-2      -1.54         9.544E-2      -1.59         0.80918       -2.66          
8.6996        0.04809       -177.64       9.506E-2      -1.64         9.545E-2      -1.68         0.80936       -2.83          
9.2996        0.04814       -177.38       9.509E-2      -1.79         9.543E-2      -1.85         0.80949       -3.01          
9.8995        0.04819       -177.14       9.506E-2      -1.94         9.543E-2      -1.97         0.80916       -3.18          
10.4995       0.04822       -176.96       9.504E-2      -2.06         9.544E-2      -2.12         0.80957       -3.37          
11.0995       0.04828       -176.68       9.507E-2      -2.17         9.545E-2      -2.20         0.80963       -3.55          
11.6994       0.04831       -176.45       9.506E-2      -2.29         9.545E-2      -2.35         0.8097        -3.74          
12.2994       0.04834       -176.23       9.504E-2      -2.43         9.543E-2      -2.46         0.80957       -3.92          
12.8994       0.04839       -175.97       9.508E-2      -2.48         9.544E-2      -2.61         0.80959       -4.09          
13.4993       0.04839       -175.76       9.514E-2      -2.69         9.544E-2      -2.76         0.80972       -4.29          
14.0993       0.04848       -175.61       9.508E-2      -2.79         9.545E-2      -2.88         0.80976       -4.45          
14.6993       0.04851       -175.29       9.509E-2      -2.95         9.546E-2      -3.02         0.80967       -4.63          
15.2993       0.04851       -175.12       9.505E-2      -3.01         9.544E-2      -3.14         0.80983       -4.82          
15.8992       0.04856       -174.91       9.508E-2      -3.14         9.543E-2      -3.28         0.80988       -4.99          
16.4992       0.04861       -174.71       9.51E-2       -3.31         9.545E-2      -3.42         0.8098        -5.18          
17.0992       0.04864       -174.48       9.511E-2      -3.39         9.542E-2      -3.54         0.80991       -5.36          
17.6991       0.04874       -174.24       9.509E-2      -3.54         9.543E-2      -3.68         0.80983       -5.55          
18.2991       0.04875       -174.04       9.509E-2      -3.68         9.542E-2      -3.79         0.80988       -5.71          
18.8991       0.04876       -173.85       9.514E-2      -3.78         9.545E-2      -3.89         0.81019       -5.88          
19.4990       0.04881       -173.60       9.516E-2      -3.94         9.544E-2      -4.05         0.81015       -6.07          
20.0990       0.04883       -173.37       9.513E-2      -4.06         9.547E-2      -4.19         0.81001       -6.26          
20.6990       0.04889       -173.16       9.513E-2      -4.21         9.55E-2       -4.31         0.81013       -6.43          
21.2990       0.04887       -172.88       9.513E-2      -4.34         9.547E-2      -4.43         0.80997       -6.60          
21.8989       0.04893       -172.75       9.514E-2      -4.47         9.545E-2      -4.56         0.81006       -6.80          
22.4989       0.04902       -172.50       9.513E-2      -4.60         9.557E-2      -4.69         0.81009       -6.97          
23.0989       0.04905       -172.32       9.514E-2      -4.70         9.553E-2      -4.82         0.81027       -7.16          
23.6988       0.04905       -172.03       9.519E-2      -4.83         9.55E-2       -4.96         0.80988       -7.34          
24.2988       0.04909       -171.86       9.515E-2      -4.95         9.551E-2      -5.07         0.80989       -7.51          
24.8988       0.04916       -171.63       9.514E-2      -5.10         9.547E-2      -5.22         0.80975       -7.69          
25.4987       0.0492        -171.44       9.518E-2      -5.20         9.548E-2      -5.34         0.80978       -7.87          
26.0987       0.04925       -171.18       9.511E-2      -5.34         9.553E-2      -5.47         0.80966       -8.05          
26.6987       0.04931       -171.02       9.516E-2      -5.45         9.547E-2      -5.59         0.8095        -8.22          
27.2987       0.04933       -170.77       9.52E-2       -5.58         9.549E-2      -5.70         0.80927       -8.40          
27.8986       0.04937       -170.59       9.519E-2      -5.75         9.548E-2      -5.85         0.80902       -8.57          
28.4986       0.04939       -170.34       9.52E-2       -5.84         9.547E-2      -5.97         0.80901       -8.77          
29.0986       0.04944       -170.24       9.519E-2      -5.96         9.549E-2      -6.12         0.80876       -8.93          
29.6985       0.04953       -170.00       9.519E-2      -6.10         9.547E-2      -6.21         0.80866       -9.12          
30.2985       0.04952       -169.79       9.518E-2      -6.23         9.547E-2      -6.38         0.80835       -9.30          
30.8985       0.04955       -169.54       9.521E-2      -6.36         9.545E-2      -6.47         0.80836       -9.48          
31.4984       0.04962       -169.35       9.517E-2      -6.47         9.544E-2      -6.61         0.8083        -9.65          
32.0984       0.04966       -169.21       9.52E-2       -6.63         9.549E-2      -6.73         0.80826       -9.83          
32.6984       0.04966       -168.96       9.519E-2      -6.73         9.55E-2       -6.84         0.80814       -10.00         
33.2984       0.04972       -168.82       9.522E-2      -6.86         9.548E-2      -6.97         0.80803       -10.17         
33.8983       0.04976       -168.63       9.525E-2      -6.97         9.545E-2      -7.10         0.80818       -10.33         
34.4983       0.04982       -168.39       9.524E-2      -7.09         9.551E-2      -7.22         0.8083        -10.49         
35.0983       0.0498        -168.23       9.529E-2      -7.22         9.55E-2       -7.39         0.80829       -10.68         
35.6982       0.04987       -168.03       9.527E-2      -7.34         9.549E-2      -7.49         0.80845       -10.85         
36.2982       0.04993       -167.83       9.527E-2      -7.49         9.55E-2       -7.65         0.80836       -11.05         
36.8982       0.04995       -167.64       9.526E-2      -7.60         9.551E-2      -7.77         0.80826       -11.23         
37.4981       0.04999       -167.44       9.529E-2      -7.73         9.553E-2      -7.87         0.80818       -11.41         
38.0981       0.05          -167.28       9.53E-2       -7.84         9.552E-2      -8.02         0.80818       -11.61         
38.6981       0.05007       -167.06       9.532E-2      -7.97         9.55E-2       -8.14         0.80812       -11.79         
39.2981       0.0501        -166.90       9.528E-2      -8.09         9.549E-2      -8.28         0.80807       -11.98         
39.8980       0.05014       -166.72       9.527E-2      -8.26         9.552E-2      -8.45         0.80791       -12.17         
40.4980       0.05016       -166.45       9.533E-2      -8.38         9.554E-2      -8.53         0.80792       -12.33         
41.0980       0.05024       -166.28       9.534E-2      -8.49         9.555E-2      -8.68         0.80761       -12.53         
41.6979       0.05025       -166.14       9.531E-2      -8.63         9.555E-2      -8.81         0.80783       -12.72         
42.2979       0.05031       -165.98       9.532E-2      -8.74         9.558E-2      -8.93         0.80767       -12.93         
42.8979       0.05034       -165.81       9.53E-2       -8.89         9.552E-2      -9.03         0.80774       -13.11         
43.4978       0.05033       -165.62       9.532E-2      -9.00         9.556E-2      -9.18         0.80776       -13.31         
44.0978       0.05039       -165.47       9.533E-2      -9.15         9.554E-2      -9.30         0.80767       -13.52         
44.6978       0.05048       -165.34       9.531E-2      -9.29         9.555E-2      -9.46         0.80779       -13.72         
45.2978       0.0505        -165.14       9.536E-2      -9.43         9.554E-2      -9.54         0.80765       -13.91         
45.8977       0.05058       -164.91       9.535E-2      -9.56         9.554E-2      -9.70         0.80778       -14.10         
46.4977       0.05057       -164.78       9.529E-2      -9.67         9.558E-2      -9.82         0.80775       -14.31         
47.0977       0.05058       -164.55       9.538E-2      -9.86         9.559E-2      -9.92         0.80867       -14.49         
47.6976       0.05065       -164.38       9.535E-2      -9.99         9.554E-2      -10.06        0.80869       -14.67         
48.2976       0.05071       -164.24       9.539E-2      -10.14        9.556E-2      -10.16        0.80864       -14.85         
48.8976       0.05074       -164.09       9.533E-2      -10.27        9.555E-2      -10.29        0.80877       -15.05         
49.4975       0.05082       -163.89       9.534E-2      -10.40        9.563E-2      -10.41        0.80864       -15.23         
50.0975       0.0508        -163.70       9.532E-2      -10.51        9.556E-2      -10.57        0.8087        -15.41         
50.6975       0.05086       -163.51       9.531E-2      -10.66        9.563E-2      -10.71        0.80878       -15.62         
51.2975       0.05093       -163.37       9.527E-2      -10.77        9.569E-2      -10.89        0.80887       -15.82         
51.8974       0.05102       -163.23       9.522E-2      -10.85        9.578E-2      -11.04        0.80872       -15.99         
52.4974       0.05174       -163.32       9.518E-2      -10.87        9.667E-2      -11.54        0.80667       -16.19         
53.0974       0.05113       -162.59       9.436E-2      -10.64        9.56E-2       -11.28        0.80616       -16.30         
53.6973       0.05109       -162.67       9.537E-2      -11.27        9.563E-2      -11.40        0.8091        -16.58         
54.2973       0.05115       -162.56       9.534E-2      -11.39        9.563E-2      -11.55        0.80903       -16.77         
54.8973       0.05115       -162.39       9.534E-2      -11.54        9.562E-2      -11.66        0.80905       -16.94         
55.4972       0.05122       -162.25       9.536E-2      -11.66        9.567E-2      -11.78        0.80913       -17.12         
56.0972       0.05127       -162.06       9.534E-2      -11.80        9.564E-2      -11.92        0.8089        -17.31         
56.6972       0.05132       -161.85       9.534E-2      -11.92        9.561E-2      -12.02        0.80889       -17.47         
57.2972       0.0514        -161.67       9.533E-2      -12.04        9.563E-2      -12.15        0.80891       -17.67         
57.8971       0.0514        -161.49       9.536E-2      -12.17        9.564E-2      -12.31        0.80891       -17.85         
58.4971       0.05145       -161.37       9.539E-2      -12.31        9.567E-2      -12.44        0.80902       -18.05         
59.0971       0.0515        -161.19       9.541E-2      -12.42        9.566E-2      -12.58        0.80892       -18.22         
59.6970       0.05157       -161.02       9.542E-2      -12.54        9.571E-2      -12.70        0.80908       -18.41         
60.2970       0.05157       -160.83       9.538E-2      -12.67        9.566E-2      -12.84        0.80903       -18.59         
60.8970       0.05164       -160.63       9.543E-2      -12.83        9.574E-2      -13.00        0.80917       -18.78         
61.4969       0.05165       -160.51       9.542E-2      -12.95        9.569E-2      -13.12        0.80887       -18.97         
62.0969       0.05172       -160.32       9.543E-2      -13.07        9.571E-2      -13.24        0.80878       -19.16         
62.6969       0.05172       -160.23       9.544E-2      -13.21        9.567E-2      -13.39        0.8087        -19.34         
63.2969       0.05182       -160.01       9.544E-2      -13.34        9.573E-2      -13.52        0.80877       -19.54         
63.8968       0.05188       -159.88       9.542E-2      -13.48        9.569E-2      -13.65        0.80867       -19.71         
64.4968       0.05192       -159.70       9.546E-2      -13.61        9.571E-2      -13.78        0.8087        -19.90         
65.0968       0.05197       -159.52       9.543E-2      -13.74        9.574E-2      -13.93        0.80862       -20.08         
65.6967       0.05205       -159.37       9.542E-2      -13.87        9.576E-2      -14.03        0.80865       -20.26         
66.2967       0.05208       -159.25       9.546E-2      -13.98        9.573E-2      -14.18        0.80857       -20.46         
66.8967       0.05209       -159.08       9.542E-2      -14.14        9.575E-2      -14.30        0.80842       -20.65         
67.4966       0.05213       -158.91       9.542E-2      -14.28        9.575E-2      -14.44        0.80834       -20.85         
68.0966       0.05218       -158.78       9.546E-2      -14.40        9.577E-2      -14.55        0.80832       -21.03         
68.6966       0.05227       -158.57       9.546E-2      -14.52        9.575E-2      -14.68        0.80828       -21.20         
69.2966       0.05235       -158.43       9.545E-2      -14.67        9.577E-2      -14.80        0.80817       -21.41         
69.8965       0.05242       -158.25       9.548E-2      -14.80        9.577E-2      -14.92        0.8082        -21.60         
70.4965       0.05244       -158.14       9.546E-2      -14.92        9.575E-2      -15.08        0.80824       -21.79         
71.0965       0.05246       -158.01       9.542E-2      -15.07        9.58E-2       -15.20        0.80829       -21.97         
71.6964       0.05255       -157.79       9.544E-2      -15.20        9.577E-2      -15.35        0.80816       -22.16         
72.2964       0.05259       -157.73       9.549E-2      -15.35        9.571E-2      -15.49        0.8081        -22.34         
72.8964       0.05269       -157.62       9.548E-2      -15.48        9.577E-2      -15.63        0.80807       -22.55         
73.4963       0.05279       -157.43       9.545E-2      -15.63        9.575E-2      -15.75        0.80806       -22.74         
74.0963       0.05276       -157.28       9.551E-2      -15.75        9.578E-2      -15.89        0.80814       -22.93         
74.6963       0.05281       -157.24       9.545E-2      -15.89        9.576E-2      -16.01        0.80787       -23.11         
75.2963       0.05287       -157.00       9.547E-2      -16.02        9.577E-2      -16.15        0.80795       -23.30         
75.8962       0.05295       -156.88       9.55E-2       -16.16        9.579E-2      -16.31        0.80793       -23.48         
76.4962       0.05302       -156.69       9.548E-2      -16.28        9.577E-2      -16.44        0.80808       -23.68         
77.0962       0.05311       -156.59       9.549E-2      -16.41        9.578E-2      -16.54        0.80809       -23.86         
77.6961       0.05313       -156.42       9.546E-2      -16.56        9.581E-2      -16.69        0.80828       -24.05         
78.2961       0.05322       -156.26       9.55E-2       -16.67        9.578E-2      -16.81        0.80819       -24.24         
78.8961       0.05326       -156.16       9.55E-2       -16.82        9.582E-2      -16.93        0.80828       -24.43         
79.4960       0.05331       -155.98       9.549E-2      -16.96        9.583E-2      -17.07        0.80846       -24.60         
80.0960       0.05334       -155.86       9.55E-2       -17.09        9.58E-2       -17.20        0.80839       -24.80         
80.6960       0.05343       -155.75       9.553E-2      -17.22        9.579E-2      -17.32        0.80848       -24.98         
81.2960       0.05348       -155.64       9.552E-2      -17.36        9.581E-2      -17.46        0.80858       -25.16         
81.8959       0.05354       -155.50       9.552E-2      -17.48        9.583E-2      -17.60        0.8087        -25.34         
82.4959       0.05364       -155.33       9.551E-2      -17.62        9.585E-2      -17.72        0.80882       -25.54         
83.0959       0.05371       -155.16       9.552E-2      -17.74        9.583E-2      -17.85        0.80885       -25.71         
83.6958       0.05373       -155.03       9.555E-2      -17.88        9.58E-2       -18.00        0.80899       -25.91         
84.2958       0.05382       -154.87       9.552E-2      -18.03        9.58E-2       -18.13        0.80901       -26.09         
84.8958       0.05386       -154.76       9.553E-2      -18.15        9.582E-2      -18.29        0.80893       -26.27         
85.4957       0.05396       -154.67       9.558E-2      -18.29        9.581E-2      -18.43        0.8092        -26.47         
86.0957       0.05401       -154.47       9.555E-2      -18.42        9.578E-2      -18.56        0.80895       -26.67         
86.6957       0.05404       -154.27       9.554E-2      -18.56        9.581E-2      -18.72        0.8091        -26.84         
87.2957       0.05414       -154.21       9.553E-2      -18.70        9.579E-2      -18.85        0.80927       -27.04         
87.8956       0.05416       -154.08       9.552E-2      -18.83        9.576E-2      -18.96        0.80923       -27.21         
88.4956       0.05429       -153.91       9.552E-2      -18.96        9.576E-2      -19.11        0.80919       -27.40         
89.0956       0.05435       -153.76       9.552E-2      -19.11        9.575E-2      -19.25        0.80929       -27.57         
89.6955       0.05439       -153.62       9.552E-2      -19.23        9.572E-2      -19.37        0.80942       -27.76         
90.2955       0.05446       -153.48       9.554E-2      -19.36        9.571E-2      -19.49        0.80956       -27.95         
90.8955       0.05452       -153.39       9.554E-2      -19.49        9.57E-2       -19.62        0.80958       -28.13         
91.4954       0.05456       -153.20       9.553E-2      -19.64        9.567E-2      -19.77        0.8096        -28.33         
92.0954       0.05464       -153.07       9.546E-2      -19.79        9.566E-2      -19.90        0.80949       -28.51         
