!    8/12/2020   02:40:45 
! Ref Plane: 0.000 mm
# MHZ S MA R  50
!
0.3000        0.0483        177.28        9.851E-2      -1.20         9.691E-2      -1.09         0.81777       -0.50          
0.9000        0.04773       178.64        9.459E-2      -0.67         9.562E-2      -0.56         0.81039       -0.69          
1.4999        0.0478        178.92        9.483E-2      -0.64         9.541E-2      -0.53         0.80866       -0.85          
2.0999        0.04778       179.20        9.493E-2      -0.84         9.529E-2      -0.62         0.80853       -1.13          
2.6999        0.04783       179.46        9.501E-2      -0.98         9.522E-2      -0.78         0.80841       -1.36          
3.2999        0.04778       179.76        9.507E-2      -1.11         9.52E-2       -0.93         0.80835       -1.59          
3.8998        0.04789       179.94        9.506E-2      -1.29         9.518E-2      -1.10         0.80847       -1.83          
4.4998        0.04787       -179.85       9.509E-2      -1.44         9.518E-2      -1.23         0.80862       -2.04          
5.0998        0.04794       -179.53       9.509E-2      -1.55         9.515E-2      -1.36         0.80856       -2.26          
5.6997        0.0479        -179.28       9.51E-2       -1.73         9.518E-2      -1.54         0.80884       -2.50          
6.2997        0.04796       -179.14       9.51E-2       -1.87         9.516E-2      -1.65         0.80863       -2.71          
6.8997        0.04798       -178.88       9.513E-2      -2.06         9.512E-2      -1.81         0.80897       -2.95          
7.4996        0.04801       -178.58       9.514E-2      -2.15         9.514E-2      -1.95         0.80891       -3.18          
8.0996        0.04803       -178.39       9.51E-2       -2.33         9.511E-2      -2.11         0.8085        -3.41          
8.6996        0.04805       -178.16       9.514E-2      -2.43         9.512E-2      -2.26         0.80873       -3.61          
9.2996        0.04806       -177.90       9.523E-2      -2.60         9.515E-2      -2.41         0.80894       -3.83          
9.8995        0.0481        -177.64       9.518E-2      -2.77         9.514E-2      -2.57         0.8087        -4.05          
10.4995       0.04812       -177.42       9.515E-2      -2.91         9.511E-2      -2.70         0.80906       -4.25          
11.0995       0.04818       -177.21       9.518E-2      -3.05         9.512E-2      -2.83         0.80911       -4.48          
11.6994       0.04816       -176.97       9.518E-2      -3.18         9.511E-2      -2.99         0.80926       -4.71          
12.2994       0.0482        -176.74       9.516E-2      -3.33         9.51E-2       -3.12         0.80919       -4.91          
12.8994       0.0482        -176.52       9.52E-2       -3.42         9.508E-2      -3.29         0.80915       -5.13          
13.4993       0.0482        -176.25       9.525E-2      -3.63         9.51E-2       -3.42         0.80934       -5.36          
14.0993       0.04828       -176.08       9.521E-2      -3.75         9.508E-2      -3.58         0.80917       -5.55          
14.6993       0.0483        -175.82       9.515E-2      -3.94         9.515E-2      -3.72         0.80928       -5.75          
15.2993       0.04833       -175.64       9.517E-2      -3.99         9.51E-2       -3.85         0.8095        -5.97          
15.8992       0.04833       -175.40       9.519E-2      -4.16         9.51E-2       -4.01         0.80959       -6.18          
16.4992       0.04837       -175.22       9.518E-2      -4.33         9.511E-2      -4.19         0.8094        -6.42          
17.0992       0.04839       -174.99       9.522E-2      -4.46         9.513E-2      -4.32         0.80967       -6.65          
17.6991       0.04851       -174.73       9.52E-2       -4.61         9.513E-2      -4.48         0.80961       -6.87          
18.2991       0.04847       -174.53       9.517E-2      -4.77         9.513E-2      -4.59         0.80955       -7.04          
18.8991       0.04852       -174.33       9.52E-2       -4.92         9.516E-2      -4.71         0.80999       -7.26          
19.4990       0.04856       -174.04       9.523E-2      -5.07         9.512E-2      -4.88         0.80995       -7.47          
20.0990       0.0486        -173.84       9.521E-2      -5.21         9.515E-2      -5.03         0.80987       -7.69          
20.6990       0.04863       -173.66       9.523E-2      -5.38         9.519E-2      -5.17         0.80982       -7.90          
21.2990       0.04861       -173.39       9.521E-2      -5.53         9.518E-2      -5.31         0.80981       -8.11          
21.8989       0.0487        -173.25       9.522E-2      -5.66         9.515E-2      -5.43         0.81005       -8.32          
22.4989       0.04871       -173.00       9.519E-2      -5.83         9.523E-2      -5.59         0.80991       -8.55          
23.0989       0.04879       -172.84       9.522E-2      -5.95         9.522E-2      -5.74         0.81021       -8.76          
23.6988       0.04876       -172.52       9.525E-2      -6.09         9.52E-2       -5.90         0.8098        -8.98          
24.2988       0.04881       -172.37       9.523E-2      -6.22         9.518E-2      -6.02         0.80988       -9.17          
24.8988       0.04889       -172.15       9.52E-2       -6.39         9.519E-2      -6.20         0.80968       -9.39          
25.4987       0.04892       -171.95       9.526E-2      -6.52         9.516E-2      -6.34         0.80972       -9.62          
26.0987       0.04897       -171.68       9.517E-2      -6.68         9.519E-2      -6.45         0.80954       -9.82          
26.6987       0.04901       -171.52       9.52E-2       -6.81         9.518E-2      -6.60         0.8095        -10.02         
27.2987       0.04904       -171.26       9.529E-2      -6.94         9.518E-2      -6.73         0.80932       -10.25         
27.8986       0.04909       -171.12       9.522E-2      -7.14         9.516E-2      -6.89         0.80903       -10.45         
28.4986       0.04912       -170.85       9.525E-2      -7.25         9.518E-2      -7.05         0.80892       -10.69         
29.0986       0.04915       -170.76       9.524E-2      -7.39         9.517E-2      -7.21         0.8088        -10.88         
29.6985       0.04923       -170.55       9.527E-2      -7.52         9.518E-2      -7.31         0.80887       -11.11         
30.2985       0.04921       -170.33       9.521E-2      -7.69         9.516E-2      -7.50         0.80853       -11.32         
30.8985       0.04926       -170.08       9.524E-2      -7.85         9.514E-2      -7.60         0.80845       -11.53         
31.4984       0.04934       -169.90       9.521E-2      -7.95         9.512E-2      -7.76         0.80849       -11.75         
32.0984       0.04935       -169.79       9.524E-2      -8.14         9.518E-2      -7.90         0.80842       -11.96         
32.6984       0.0494        -169.53       9.524E-2      -8.27         9.518E-2      -8.05         0.80842       -12.16         
33.2984       0.04944       -169.39       9.523E-2      -8.39         9.516E-2      -8.19         0.80822       -12.35         
33.8983       0.04946       -169.19       9.526E-2      -8.52         9.517E-2      -8.33         0.80833       -12.56         
34.4983       0.04954       -168.95       9.526E-2      -8.66         9.519E-2      -8.46         0.80871       -12.75         
35.0983       0.04954       -168.83       9.528E-2      -8.81         9.519E-2      -8.64         0.80846       -12.97         
35.6982       0.04959       -168.64       9.529E-2      -8.94         9.517E-2      -8.76         0.80876       -13.19         
36.2982       0.04966       -168.44       9.526E-2      -9.12         9.517E-2      -8.94         0.80871       -13.43         
36.8982       0.04966       -168.25       9.527E-2      -9.25         9.518E-2      -9.07         0.80872       -13.63         
37.4981       0.04975       -168.08       9.527E-2      -9.39         9.52E-2       -9.21         0.80848       -13.86         
38.0981       0.04976       -167.89       9.53E-2       -9.52         9.519E-2      -9.37         0.80861       -14.08         
38.6981       0.0498        -167.72       9.528E-2      -9.65         9.519E-2      -9.52         0.80857       -14.30         
39.2981       0.04982       -167.56       9.527E-2      -9.79         9.516E-2      -9.65         0.80856       -14.51         
39.8980       0.04988       -167.34       9.527E-2      -9.98         9.515E-2      -9.86         0.8083        -14.75         
40.4980       0.04991       -167.12       9.53E-2       -10.13        9.516E-2      -9.94         0.80846       -14.96         
41.0980       0.04998       -166.95       9.531E-2      -10.27        9.518E-2      -10.09        0.80817       -15.18         
41.6979       0.05          -166.81       9.527E-2      -10.41        9.519E-2      -10.24        0.80822       -15.42         
42.2979       0.05009       -166.65       9.528E-2      -10.53        9.522E-2      -10.37        0.80838       -15.64         
42.8979       0.05009       -166.48       9.529E-2      -10.71        9.518E-2      -10.51        0.80847       -15.87         
43.4978       0.05011       -166.30       9.526E-2      -10.83        9.522E-2      -10.67        0.80843       -16.10         
44.0978       0.0502        -166.15       9.527E-2      -10.98        9.52E-2       -10.81        0.80829       -16.33         
44.6978       0.05024       -166.04       9.527E-2      -11.14        9.519E-2      -11.01        0.80854       -16.59         
45.2978       0.0503        -165.83       9.53E-2       -11.29        9.517E-2      -11.10        0.80834       -16.80         
45.8977       0.05037       -165.65       9.528E-2      -11.43        9.52E-2       -11.25        0.80849       -17.03         
46.4977       0.05039       -165.48       9.524E-2      -11.59        9.52E-2       -11.40        0.80864       -17.26         
47.0977       0.05042       -165.31       9.522E-2      -11.74        9.529E-2      -11.54        0.80954       -17.48         
47.6976       0.05046       -165.10       9.523E-2      -11.88        9.518E-2      -11.71        0.80965       -17.71         
48.2976       0.05054       -165.00       9.528E-2      -12.05        9.52E-2       -11.84        0.80952       -17.91         
48.8976       0.05061       -164.83       9.528E-2      -12.17        9.518E-2      -11.98        0.80981       -18.12         
49.4975       0.05067       -164.66       9.526E-2      -12.33        9.525E-2      -12.13        0.80979       -18.36         
50.0975       0.05066       -164.48       9.527E-2      -12.44        9.515E-2      -12.31        0.80989       -18.56         
50.6975       0.05075       -164.28       9.527E-2      -12.61        9.52E-2       -12.45        0.80986       -18.81         
51.2975       0.05082       -164.16       9.531E-2      -12.77        9.513E-2      -12.59        0.80993       -19.03         
51.8974       0.05088       -164.00       9.532E-2      -12.94        9.512E-2      -12.69        0.80986       -19.23         
52.4974       0.05163       -164.12       9.543E-2      -13.16        9.539E-2      -12.92        0.8052        -19.50         
53.0974       0.05093       -163.65       9.572E-2      -13.39        9.403E-2      -12.70        0.80892       -19.65         
53.6973       0.05094       -163.62       9.557E-2      -13.46        9.521E-2      -13.18        0.81048       -19.91         
54.2973       0.05105       -163.38       9.522E-2      -13.48        9.521E-2      -13.33        0.81052       -20.14         
54.8973       0.05106       -163.21       9.521E-2      -13.65        9.519E-2      -13.47        0.81059       -20.33         
55.4972       0.05114       -163.05       9.524E-2      -13.76        9.523E-2      -13.61        0.81073       -20.56         
56.0972       0.05117       -162.89       9.524E-2      -13.91        9.52E-2       -13.76        0.8106        -20.78         
56.6972       0.05123       -162.70       9.522E-2      -14.06        9.52E-2       -13.88        0.81061       -20.97         
57.2972       0.05134       -162.49       9.524E-2      -14.21        9.523E-2      -14.01        0.81066       -21.20         
57.8971       0.05133       -162.32       9.522E-2      -14.35        9.521E-2      -14.16        0.81079       -21.40         
58.4971       0.05141       -162.22       9.528E-2      -14.49        9.524E-2      -14.35        0.81106       -21.64         
59.0971       0.05147       -162.07       9.529E-2      -14.62        9.524E-2      -14.45        0.81121       -21.82         
59.6970       0.0515        -161.86       9.526E-2      -14.80        9.526E-2      -14.61        0.81123       -22.06         
60.2970       0.05156       -161.72       9.523E-2      -14.92        9.521E-2      -14.75        0.81116       -22.25         
60.8970       0.05165       -161.52       9.527E-2      -15.09        9.525E-2      -14.93        0.81135       -22.47         
61.4969       0.05165       -161.39       9.526E-2      -15.24        9.524E-2      -15.05        0.81138       -22.68         
62.0969       0.05176       -161.20       9.528E-2      -15.38        9.524E-2      -15.20        0.81124       -22.91         
62.6969       0.05175       -161.10       9.528E-2      -15.50        9.52E-2       -15.34        0.81121       -23.11         
63.2969       0.05185       -160.91       9.529E-2      -15.66        9.527E-2      -15.47        0.81144       -23.32         
63.8968       0.05192       -160.76       9.527E-2      -15.80        9.526E-2      -15.64        0.81143       -23.53         
64.4968       0.05199       -160.62       9.531E-2      -15.95        9.526E-2      -15.79        0.81145       -23.75         
65.0968       0.05203       -160.45       9.529E-2      -16.09        9.53E-2       -15.94        0.81155       -23.96         
65.6967       0.05212       -160.25       9.528E-2      -16.24        9.531E-2      -16.08        0.81171       -24.17         
66.2967       0.05216       -160.12       9.528E-2      -16.36        9.525E-2      -16.23        0.81174       -24.38         
66.8967       0.05216       -160.00       9.528E-2      -16.52        9.524E-2      -16.39        0.81155       -24.61         
67.4966       0.05224       -159.79       9.525E-2      -16.65        9.527E-2      -16.54        0.81158       -24.83         
68.0966       0.05226       -159.68       9.526E-2      -16.80        9.53E-2       -16.65        0.81165       -25.05         
68.6966       0.05238       -159.46       9.527E-2      -16.95        9.53E-2       -16.79        0.81171       -25.22         
69.2966       0.05248       -159.32       9.527E-2      -17.12        9.531E-2      -16.92        0.81174       -25.46         
69.8965       0.05253       -159.16       9.531E-2      -17.26        9.528E-2      -17.07        0.81174       -25.68         
70.4965       0.05257       -159.07       9.53E-2       -17.38        9.529E-2      -17.22        0.81196       -25.88         
71.0965       0.05261       -158.87       9.528E-2      -17.53        9.533E-2      -17.36        0.81218       -26.09         
71.6964       0.05272       -158.70       9.527E-2      -17.69        9.532E-2      -17.51        0.81205       -26.29         
72.2964       0.05279       -158.62       9.533E-2      -17.84        9.526E-2      -17.68        0.81212       -26.51         
72.8964       0.05286       -158.50       9.533E-2      -18.00        9.529E-2      -17.79        0.81219       -26.73         
73.4963       0.05296       -158.31       9.533E-2      -18.17        9.529E-2      -17.94        0.81222       -26.94         
74.0963       0.05299       -158.16       9.535E-2      -18.30        9.531E-2      -18.10        0.81241       -27.17         
74.6963       0.05303       -158.10       9.531E-2      -18.46        9.531E-2      -18.22        0.81221       -27.36         
75.2963       0.05311       -157.92       9.532E-2      -18.61        9.529E-2      -18.36        0.81231       -27.58         
75.8962       0.05316       -157.77       9.535E-2      -18.75        9.531E-2      -18.51        0.81243       -27.77         
76.4962       0.05327       -157.55       9.533E-2      -18.87        9.532E-2      -18.67        0.81276       -27.99         
77.0962       0.05335       -157.46       9.533E-2      -19.03        9.532E-2      -18.80        0.81282       -28.21         
77.6961       0.0534        -157.35       9.531E-2      -19.18        9.535E-2      -18.97        0.81316       -28.42         
78.2961       0.05352       -157.14       9.538E-2      -19.29        9.537E-2      -19.09        0.81321       -28.63         
78.8961       0.05355       -157.07       9.534E-2      -19.46        9.539E-2      -19.22        0.81347       -28.82         
79.4960       0.05363       -156.88       9.537E-2      -19.60        9.541E-2      -19.40        0.81372       -29.02         
80.0960       0.05367       -156.74       9.535E-2      -19.76        9.539E-2      -19.54        0.81364       -29.25         
80.6960       0.05374       -156.64       9.536E-2      -19.89        9.535E-2      -19.68        0.81356       -29.44         
81.2960       0.05382       -156.51       9.54E-2       -20.05        9.543E-2      -19.80        0.81414       -29.65         
81.8959       0.05391       -156.35       9.539E-2      -20.16        9.543E-2      -19.96        0.81426       -29.84         
82.4959       0.05399       -156.16       9.539E-2      -20.32        9.544E-2      -20.09        0.8144        -30.07         
83.0959       0.05405       -156.03       9.538E-2      -20.45        9.544E-2      -20.24        0.81447       -30.24         
83.6958       0.05412       -155.89       9.542E-2      -20.62        9.544E-2      -20.41        0.81485       -30.48         
84.2958       0.05422       -155.70       9.545E-2      -20.75        9.544E-2      -20.53        0.81498       -30.66         
84.8958       0.05428       -155.60       9.543E-2      -20.92        9.542E-2      -20.69        0.81494       -30.87         
85.4957       0.05437       -155.46       9.551E-2      -21.06        9.544E-2      -20.85        0.81538       -31.08         
86.0957       0.05443       -155.31       9.549E-2      -21.21        9.545E-2      -20.97        0.81515       -31.29         
86.6957       0.05448       -155.10       9.545E-2      -21.38        9.546E-2      -21.14        0.81546       -31.50         
87.2957       0.05458       -155.03       9.553E-2      -21.50        9.549E-2      -21.30        0.8158        -31.69         
87.8956       0.05462       -154.88       9.548E-2      -21.65        9.541E-2      -21.42        0.81567       -31.89         
88.4956       0.05478       -154.69       9.546E-2      -21.77        9.545E-2      -21.58        0.81576       -32.09         
89.0956       0.05484       -154.55       9.549E-2      -21.94        9.543E-2      -21.74        0.81591       -32.30         
89.6955       0.05491       -154.38       9.555E-2      -22.07        9.544E-2      -21.87        0.81625       -32.49         
90.2955       0.05499       -154.26       9.551E-2      -22.20        9.546E-2      -22.01        0.81628       -32.70         
90.8955       0.05505       -154.17       9.558E-2      -22.36        9.544E-2      -22.15        0.81648       -32.90         
91.4954       0.05514       -153.96       9.561E-2      -22.52        9.543E-2      -22.31        0.81656       -33.11         
92.0954       0.05523       -153.82       9.556E-2      -22.69        9.545E-2      -22.47        0.81654       -33.31         
