!    8/12/2020   03:03:08 
! Ref Plane: 0.000 mm
# MHZ S MA R  50
!
0.3000        0.81936       0.24          5.662E-5      -71.68        6.639E-5      71.79         1.00278       0.64           
0.9000        0.81687       0.18          8.755E-5      -130.63       5.522E-5      -84.04        1.00125       1.69           
1.4999        0.81805       0.12          5.146E-5      155.05        5.435E-5      10.76         1.00066       2.77           
2.0999        0.81825       0.10          6.02E-5       -101.45       1.524E-5      154.81        1.00044       3.81           
2.6999        0.81829       0.07          5.909E-5      -91.71        2.334E-5      -82.67        1.00038       4.88           
3.2999        0.81838       0.03          3.043E-5      -6.06         1.192E-5      -49.50        1.00021       5.92           
3.8998        0.8184        0.00          2.702E-5      -72.96        2.559E-5      -68.48        1.00028       6.97           
4.4998        0.8183        -0.05         5.168E-5      -135.57       3.155E-5      18.57         1.00024       8.03           
5.0998        0.81831       -0.09         2.247E-5      -71.41        1.156E-5      114.91        1.0002        9.09           
5.6997        0.81823       -0.13         2.882E-5      69.63         1.622E-5      -55.69        1.00028       10.15          
6.2997        0.81832       -0.17         5.934E-5      119.85        1.376E-5      79.43         1.00024       11.21          
6.8997        0.81819       -0.21         5.915E-5      -53.79        2.51E-5       -16.70        1.00028       12.26          
7.4996        0.81828       -0.25         1.966E-5      87.28         4.26E-5       129.84        1.00033       13.32          
8.0996        0.81834       -0.29         5.339E-5      -114.30       8.613E-6      -156.51       1.00036       14.38          
8.6996        0.81824       -0.34         3.658E-5      131.10        1.539E-5      141.55        1.00036       15.43          
9.2996        0.81819       -0.38         3.413E-5      -5.84         5.02E-5       37.36         1.00042       16.49          
9.8995        0.81827       -0.42         4.653E-5      -66.94        4.335E-5      87.10         1.00043       17.55          
10.4995       0.81815       -0.47         2.46E-5       141.51        2.073E-5      -136.43       1.0005        18.61          
11.0995       0.8181        -0.51         4.954E-5      -68.62        1.751E-5      91.02         1.00052       19.67          
11.6994       0.81805       -0.55         2.319E-5      165.51        4.172E-5      53.39         1.00053       20.73          
12.2994       0.81809       -0.59         7.18E-5       -141.54       4.235E-5      118.46        1.00066       21.79          
12.8994       0.81811       -0.63         6.123E-5      98.43         3.66E-5       89.42         1.00068       22.84          
13.4993       0.818         -0.67         6.284E-5      -3.84         2.699E-6      -98.94        1.00075       23.91          
14.0993       0.81805       -0.72         5.375E-5      89.27         4.742E-5      -25.19        1.00077       24.96          
14.6993       0.81798       -0.76         7.838E-5      -102.67       4.24E-6       170.00        1.00083       26.02          
15.2993       0.81791       -0.79         7.863E-5      119.38        5.035E-5      87.10         1.00088       27.08          
15.8992       0.8179        -0.84         3.763E-5      49.92         2.212E-5      -173.80       1.00094       28.15          
16.4992       0.81798       -0.88         3.499E-5      155.29        3.453E-5      12.56         1.00101       29.21          
17.0992       0.81786       -0.92         7.147E-5      89.68         2.243E-5      22.57         1.00099       30.27          
17.6991       0.81792       -0.95         5.713E-5      128.93        1.807E-5      104.68        1.00103       31.33          
18.2991       0.81787       -1.00         4.064E-5      -178.83       2.06E-5       138.67        1.00102       32.39          
18.8991       0.81774       -1.05         2.29E-5       -38.89        8.002E-6      113.37        1.0011        33.46          
19.4990       0.81785       -1.09         3.141E-5      -44.95        9.142E-6      -103.23       1.00116       34.52          
20.0990       0.81776       -1.12         7.793E-6      19.79         8.847E-6      -136.13       1.00122       35.59          
20.6990       0.81781       -1.16         4.215E-5      -16.73        3.28E-5       126.48        1.0012        36.65          
21.2990       0.81774       -1.21         3.089E-5      -88.08        3.725E-5      20.39         1.00119       37.71          
21.8989       0.81771       -1.25         4.426E-5      -44.45        4.146E-5      110.46        1.00132       38.77          
22.4989       0.81772       -1.29         5.571E-5      -119.59       2.34E-5       136.51        1.00128       39.84          
23.0989       0.81764       -1.33         4.103E-5      145.65        1.109E-5      -4.25         1.00129       40.90          
23.6988       0.81766       -1.37         2.234E-5      112.87        2.88E-5       29.30         1.00127       41.97          
24.2988       0.81771       -1.42         1.135E-5      40.63         1.684E-5      -108.15       1.00129       43.03          
24.8988       0.81771       -1.45         2.931E-5      36.11         1.706E-5      100.42        1.00126       44.10          
25.4987       0.81769       -1.49         3.10E-5       51.42         3.31E-5       -7.31         1.0013        45.16          
26.0987       0.81768       -1.52         8.229E-5      159.37        3.998E-5      108.02        1.0013        46.23          
26.6987       0.81765       -1.57         4.33E-5       177.92        2.205E-5      52.06         1.0013        47.28          
27.2987       0.81766       -1.61         4.143E-5      35.86         6.264E-5      86.24         1.00133       48.35          
27.8986       0.81766       -1.66         3.512E-5      -70.46        2.185E-5      60.96         1.00126       49.41          
28.4986       0.81763       -1.69         1.786E-5      29.75         1.967E-5      -26.95        1.00132       50.47          
29.0986       0.8177        -1.73         2.675E-5      40.79         3.974E-5      5.00          1.00137       51.53          
29.6985       0.81752       -1.77         9.939E-6      -153.70       2.718E-5      -95.59        1.0012        52.59          
30.2985       0.8176        -1.81         5.997E-6      108.15        1.532E-6      -166.64       1.00121       53.66          
30.8985       0.81761       -1.85         4.522E-5      -18.12        2.319E-5      -139.41       1.00116       54.71          
31.4984       0.81754       -1.88         4.94E-5       122.83        4.998E-5      -116.56       1.00127       55.77          
32.0984       0.81759       -1.92         3.566E-5      -62.61        1.214E-5      113.96        1.00127       56.84          
32.6984       0.81755       -1.97         2.266E-5      -126.70       1.334E-5      2.73          1.0013        57.90          
33.2984       0.8177        -2.01         3.137E-5      -39.24        3.249E-5      165.43        1.00144       58.97          
33.8983       0.81765       -2.04         6.103E-5      3.48          3.691E-5      35.03         1.00156       60.03          
34.4983       0.81743       -2.08         3.682E-6      -141.16       1.891E-5      163.85        1.00166       61.10          
35.0983       0.81756       -2.11         3.045E-5      -55.40        2.678E-5      -29.56        1.00179       62.16          
35.6982       0.81747       -2.15         4.095E-5      -62.02        2.331E-5      168.92        1.00185       63.22          
36.2982       0.81752       -2.17         1.212E-5      -118.96       5.007E-6      99.25         1.00177       64.27          
36.8982       0.81752       -2.22         3.459E-5      -103.16       8.801E-6      101.93        1.00165       65.33          
37.4981       0.81753       -2.26         1.165E-5      -135.70       1.116E-5      104.86        1.0016        66.40          
38.0981       0.81752       -2.29         1.052E-5      -37.90        3.663E-5      171.51        1.00154       67.46          
38.6981       0.81747       -2.33         3.841E-5      44.09         2.945E-5      -137.89       1.00152       68.52          
39.2981       0.81749       -2.37         5.514E-5      175.88        3.781E-5      -46.20        1.00144       69.58          
39.8980       0.81756       -2.40         3.533E-5      -75.81        4.11E-5       -11.26        1.00145       70.65          
40.4980       0.8175        -2.45         2.138E-5      -41.17        1.564E-5      113.53        1.0015        71.71          
41.0980       0.81754       -2.50         4.363E-5      -24.65        2.778E-5      -100.69       1.00133       72.77          
41.6979       0.81745       -2.52         3.067E-5      84.73         1.728E-5      49.96         1.00142       73.83          
42.2979       0.81751       -2.57         3.435E-5      88.92         2.096E-5      -73.64        1.00131       74.90          
42.8979       0.81746       -2.60         1.638E-5      -118.23       2.427E-5      -136.39       1.00134       75.96          
43.4978       0.81743       -2.63         1.689E-5      169.84        4.58E-5       -151.81       1.00129       77.02          
44.0978       0.81751       -2.67         3.31E-5       -43.84        2.692E-5      15.29         1.00126       78.08          
44.6978       0.81738       -2.70         2.586E-5      -142.95       1.963E-6      -153.25       1.00118       79.14          
45.2978       0.8175        -2.75         2.303E-5      87.05         3.367E-5      -66.94        1.00113       80.20          
45.8977       0.81748       -2.78         4.864E-5      164.60        1.104E-5      178.08        1.00124       81.27          
46.4977       0.81742       -2.81         1.679E-5      -167.86       7.51E-6       65.29         1.00117       82.32          
47.0977       0.81756       -2.83         5.084E-5      90.12         3.198E-5      40.20         1.00135       83.34          
47.6976       0.81737       -2.87         3.691E-5      126.77        3.056E-5      -130.81       1.00151       84.41          
48.2976       0.81748       -2.91         2.818E-5      51.93         1.153E-5      -131.97       1.00153       85.47          
48.8976       0.81742       -2.95         4.513E-5      126.88        2.346E-5      -63.10        1.00153       86.52          
49.4975       0.81741       -2.98         4.696E-6      0.61          6.746E-5      -168.09       1.00157       87.58          
50.0975       0.81742       -3.03         2.056E-5      56.10         3.194E-5      -76.04        1.00161       88.64          
50.6975       0.81744       -3.06         9.265E-6      -105.85       1.677E-5      -68.73        1.00163       89.70          
51.2975       0.81742       -3.09         2.107E-5      110.43        1.413E-5      -49.76        1.00176       90.75          
51.8974       0.81754       -3.14         3.399E-5      134.00        2.79E-5       -122.14       1.0018        91.81          
52.4974       0.81979       -3.17         1.731E-5      53.28         2.706E-5      -144.15       1.00199       92.87          
53.0974       0.81734       -3.31         8.941E-6      -168.83       2.12E-5       -119.56       1.00215       93.93          
53.6973       0.81732       -3.29         5.096E-5      113.83        1.442E-5      -54.93        1.00212       94.99          
54.2973       0.8173        -3.27         2.606E-5      -179.62       1.436E-5      122.37        1.00223       96.04          
54.8973       0.81731       -3.32         1.898E-5      -178.12       4.674E-5      82.24         1.00231       97.10          
55.4972       0.8173        -3.35         6.406E-6      175.90        3.812E-6      -154.17       1.00247       98.16          
56.0972       0.81742       -3.38         4.574E-5      89.84         2.476E-5      154.60        1.00255       99.22          
56.6972       0.8174        -3.43         4.55E-5       7.74          1.014E-5      -111.37       1.00265       100.28         
57.2972       0.8173        -3.47         1.355E-5      -5.00         8.215E-6      -71.48        1.00281       101.34         
57.8971       0.81733       -3.50         1.959E-5      40.36         1.695E-5      17.66         1.00288       102.40         
58.4971       0.81723       -3.53         2.304E-5      72.18         2.601E-5      133.70        1.00301       103.45         
59.0971       0.8173        -3.59         2.231E-5      24.58         1.887E-5      33.54         1.0031        104.52         
59.6970       0.81727       -3.61         2.779E-5      -96.73        3.238E-5      36.32         1.00326       105.57         
60.2970       0.81721       -3.65         1.361E-5      -176.13       1.916E-5      -87.36        1.0034        106.64         
60.8970       0.81717       -3.68         2.354E-5      -120.59       2.932E-5      -165.67       1.00355       107.69         
61.4969       0.81713       -3.71         3.511E-5      -90.69        2.789E-5      91.59         1.00374       108.75         
62.0969       0.81717       -3.75         7.431E-6      -135.68       2.286E-5      -157.92       1.00382       109.82         
62.6969       0.81719       -3.79         8.358E-6      -98.87        1.424E-5      35.95         1.00392       110.88         
63.2969       0.81713       -3.83         9.764E-6      -167.18       3.166E-5      -135.65       1.00415       111.93         
63.8968       0.81697       -3.86         2.525E-5      -150.61       2.13E-5       68.24         1.00431       113.00         
64.4968       0.817         -3.90         1.962E-5      73.95         1.431E-5      -42.07        1.00448       114.05         
65.0968       0.81693       -3.93         2.753E-5      -114.78       2.117E-5      -170.45       1.00455       115.12         
65.6967       0.81693       -3.97         4.713E-5      -35.27        1.321E-5      -167.49       1.00475       116.18         
66.2967       0.8169        -4.01         2.501E-5      2.17          7.664E-6      33.38         1.00497       117.23         
66.8967       0.81703       -4.03         1.889E-5      153.68        3.807E-5      -12.86        1.00505       118.30         
67.4966       0.81708       -4.07         1.787E-5      -175.15       7.234E-6      117.41        1.00529       119.36         
68.0966       0.81711       -4.10         2.815E-5      159.74        2.666E-5      -139.68       1.00545       120.41         
68.6966       0.817         -4.16         1.761E-5      102.33        1.996E-5      144.73        1.00563       121.47         
69.2966       0.817         -4.18         2.844E-5      5.89          2.50E-5       -142.32       1.00575       122.54         
69.8965       0.817         -4.22         1.682E-5      -63.47        1.67E-5       -174.46       1.00595       123.59         
70.4965       0.81696       -4.26         2.738E-5      -16.17        3.815E-5      -52.66        1.00612       124.66         
71.0965       0.8169        -4.30         1.309E-5      147.52        4.171E-5      -124.53       1.00623       125.72         
71.6964       0.81689       -4.34         2.37E-5       133.48        2.762E-5      12.68         1.00644       126.78         
72.2964       0.81685       -4.37         1.57E-5       89.07         3.46E-5       49.37         1.00659       127.84         
72.8964       0.8168        -4.41         1.04E-5       148.45        2.402E-5      77.09         1.00681       128.90         
73.4963       0.81681       -4.45         9.716E-6      160.84        2.607E-5      42.47         1.00695       129.96         
74.0963       0.81684       -4.49         1.937E-5      -87.63        6.537E-6      62.38         1.00708       131.02         
74.6963       0.81687       -4.53         2.336E-5      136.28        2.317E-5      -144.30       1.00725       132.09         
75.2963       0.81684       -4.57         1.881E-5      -139.07       4.776E-5      30.44         1.00743       133.15         
75.8962       0.81677       -4.61         8.884E-6      -40.79        1.947E-5      -52.10        1.00755       134.20         
76.4962       0.81668       -4.64         1.874E-5      35.11         3.065E-5      119.24        1.00763       135.27         
77.0962       0.81668       -4.68         1.244E-5      155.34        1.254E-5      -65.05        1.00778       136.33         
77.6961       0.8166        -4.72         2.894E-5      -163.59       1.617E-5      -150.49       1.00793       137.39         
78.2961       0.81666       -4.75         1.944E-5      60.32         2.254E-5      -30.37        1.00813       138.45         
78.8961       0.81649       -4.79         3.147E-5      48.74         3.703E-5      -65.71        1.00823       139.51         
79.4960       0.81648       -4.83         2.499E-5      -101.27       2.761E-5      163.99        1.00836       140.57         
80.0960       0.81654       -4.86         6.982E-6      -171.48       2.964E-6      -116.87       1.00847       141.62         
80.6960       0.81657       -4.89         2.748E-5      -105.23       3.411E-5      15.88         1.00863       142.69         
81.2960       0.81645       -4.94         2.442E-5      94.68         4.194E-5      -160.79       1.00872       143.74         
81.8959       0.8164        -4.98         2.25E-5       134.66        2.711E-5      -165.78       1.00885       144.80         
82.4959       0.81649       -5.01         1.326E-5      107.13        3.444E-5      -39.08        1.00901       145.86         
83.0959       0.81642       -5.05         1.694E-5      -169.71       4.226E-5      -49.06        1.00905       146.92         
83.6958       0.81631       -5.08         2.959E-5      -133.99       1.027E-5      115.55        1.00918       147.98         
84.2958       0.8163        -5.13         7.131E-6      136.90        5.415E-5      -9.56         1.00934       149.04         
84.8958       0.81629       -5.16         2.436E-5      -43.28        9.325E-6      -17.38        1.00943       150.10         
85.4957       0.81628       -5.20         1.163E-5      -113.72       2.828E-5      -165.87       1.0095        151.16         
86.0957       0.81638       -5.23         1.507E-5      -89.67        2.849E-5      -57.97        1.00967       152.22         
86.6957       0.81624       -5.28         1.727E-5      -177.31       9.497E-7      -66.57        1.00976       153.28         
87.2957       0.81621       -5.31         2.028E-5      -167.13       6.771E-6      19.22         1.0098        154.34         
87.8956       0.8163        -5.36         1.348E-5      176.27        3.99E-5       34.34         1.00998       155.39         
88.4956       0.81629       -5.40         2.047E-5      -148.05       2.417E-5      54.06         1.0101        156.45         
89.0956       0.8162        -5.43         2.222E-5      -130.88       5.664E-5      63.61         1.01018       157.51         
89.6955       0.81612       -5.47         4.895E-6      82.74         2.891E-5      132.18        1.01032       158.57         
90.2955       0.81614       -5.51         8.444E-6      157.51        3.901E-5      -75.21        1.0104        159.63         
90.8955       0.81604       -5.55         1.593E-5      -60.89        3.417E-5      25.40         1.01053       160.69         
91.4954       0.81598       -5.59         1.18E-5       26.37         8.019E-6      -129.56       1.0107        161.74         
92.0954       0.81605       -5.63         1.488E-5      -23.71        2.289E-5      106.36        1.01075       162.80         
