!    8/6/2020   04:06:45 
! Ref Plane: 0.000 mm
# MHZ S MA R  50
!
0.3000        0.04719       -179.48       9.911E-2      -0.96         9.604E-2      -0.98         0.81302       -0.54          
0.9000        0.04771       179.60        9.517E-2      -0.52         9.494E-2      -0.31         0.80776       -0.64          
1.4999        0.0478        179.49        9.524E-2      -0.34         9.52E-2       -0.44         0.80813       -0.79          
2.0999        0.04774       179.60        9.518E-2      -0.50         9.529E-2      -0.54         0.80862       -0.95          
2.6999        0.04776       179.72        9.517E-2      -0.62         9.534E-2      -0.68         0.80871       -1.09          
3.2999        0.04777       179.97        9.518E-2      -0.71         9.538E-2      -0.85         0.80894       -1.24          
3.8998        0.04783       -179.88       9.515E-2      -0.86         9.541E-2      -0.99         0.80898       -1.41          
4.4998        0.04783       -179.71       9.514E-2      -0.98         9.539E-2      -1.12         0.80901       -1.56          
5.0998        0.04791       -179.44       9.51E-2       -1.10         9.538E-2      -1.23         0.80901       -1.72          
5.6997        0.04789       -179.20       9.511E-2      -1.25         9.546E-2      -1.40         0.80921       -1.89          
6.2997        0.04794       -179.06       9.511E-2      -1.40         9.543E-2      -1.54         0.80906       -2.08          
6.8997        0.04797       -178.84       9.513E-2      -1.58         9.543E-2      -1.66         0.80922       -2.25          
7.4996        0.04802       -178.58       9.509E-2      -1.65         9.546E-2      -1.80         0.80926       -2.44          
8.0996        0.04806       -178.43       9.51E-2       -1.83         9.547E-2      -1.95         0.809         -2.61          
8.6996        0.04809       -178.22       9.512E-2      -1.94         9.548E-2      -2.06         0.80925       -2.78          
9.2996        0.04808       -178.00       9.516E-2      -2.11         9.551E-2      -2.25         0.8094        -2.95          
9.8995        0.0481        -177.76       9.51E-2       -2.26         9.551E-2      -2.38         0.80906       -3.12          
10.4995       0.04818       -177.61       9.51E-2       -2.40         9.551E-2      -2.53         0.80949       -3.29          
11.0995       0.04822       -177.39       9.515E-2      -2.52         9.552E-2      -2.66         0.80955       -3.47          
11.6994       0.04824       -177.16       9.513E-2      -2.64         9.551E-2      -2.80         0.8096        -3.65          
12.2994       0.04826       -176.95       9.51E-2       -2.80         9.548E-2      -2.92         0.80945       -3.82          
12.8994       0.04829       -176.75       9.515E-2      -2.88         9.552E-2      -3.08         0.80949       -3.98          
13.4993       0.0483        -176.53       9.522E-2      -3.10         9.55E-2       -3.26         0.80964       -4.18          
14.0993       0.04836       -176.39       9.516E-2      -3.19         9.551E-2      -3.41         0.80964       -4.33          
14.6993       0.0484        -176.14       9.515E-2      -3.37         9.556E-2      -3.51         0.80955       -4.51          
15.2993       0.04841       -175.97       9.512E-2      -3.45         9.554E-2      -3.67         0.80973       -4.69          
15.8992       0.04843       -175.79       9.519E-2      -3.58         9.552E-2      -3.82         0.80981       -4.84          
16.4992       0.04848       -175.59       9.52E-2       -3.75         9.556E-2      -3.98         0.80969       -5.03          
17.0992       0.04852       -175.36       9.522E-2      -3.87         9.554E-2      -4.12         0.80984       -5.20          
17.6991       0.04861       -175.19       9.521E-2      -4.03         9.555E-2      -4.26         0.80977       -5.39          
18.2991       0.04863       -175.05       9.519E-2      -4.19         9.557E-2      -4.39         0.80979       -5.54          
18.8991       0.04865       -174.81       9.526E-2      -4.33         9.558E-2      -4.51         0.81011       -5.70          
19.4990       0.04867       -174.59       9.529E-2      -4.48         9.558E-2      -4.68         0.81011       -5.88          
20.0990       0.04867       -174.39       9.524E-2      -4.61         9.558E-2      -4.82         0.80998       -6.07          
20.6990       0.04874       -174.21       9.529E-2      -4.76         9.564E-2      -4.96         0.81006       -6.23          
21.2990       0.04872       -173.95       9.523E-2      -4.92         9.562E-2      -5.09         0.80993       -6.39          
21.8989       0.04878       -173.86       9.528E-2      -5.06         9.564E-2      -5.24         0.81          -6.58          
22.4989       0.04882       -173.62       9.526E-2      -5.20         9.569E-2      -5.37         0.81011       -6.75          
23.0989       0.04888       -173.47       9.528E-2      -5.31         9.569E-2      -5.53         0.81028       -6.93          
23.6988       0.04889       -173.21       9.533E-2      -5.47         9.567E-2      -5.68         0.8099        -7.10          
24.2988       0.04892       -173.05       9.53E-2       -5.59         9.568E-2      -5.80         0.80986       -7.27          
24.8988       0.049         -172.84       9.53E-2       -5.76         9.566E-2      -5.99         0.80981       -7.44          
25.4987       0.04903       -172.70       9.535E-2      -5.89         9.566E-2      -6.11         0.80979       -7.61          
26.0987       0.04908       -172.47       9.527E-2      -6.05         9.569E-2      -6.25         0.80969       -7.79          
26.6987       0.04912       -172.30       9.534E-2      -6.16         9.568E-2      -6.39         0.8095        -7.95          
27.2987       0.04913       -172.10       9.541E-2      -6.31         9.569E-2      -6.52         0.80932       -8.13          
27.8986       0.04918       -171.91       9.539E-2      -6.47         9.57E-2       -6.66         0.80909       -8.28          
28.4986       0.0492        -171.74       9.541E-2      -6.62         9.57E-2       -6.82         0.80905       -8.48          
29.0986       0.04927       -171.67       9.54E-2       -6.75         9.571E-2      -6.97         0.80884       -8.63          
29.6985       0.0493        -171.45       9.542E-2      -6.88         9.569E-2      -7.09         0.80872       -8.82          
30.2985       0.04929       -171.23       9.54E-2       -7.03         9.572E-2      -7.25         0.80843       -8.99          
30.8985       0.04935       -171.03       9.545E-2      -7.17         9.568E-2      -7.38         0.80844       -9.17          
31.4984       0.04941       -170.88       9.54E-2       -7.27         9.566E-2      -7.52         0.8084        -9.33          
32.0984       0.04946       -170.77       9.546E-2      -7.45         9.576E-2      -7.67         0.80837       -9.51          
32.6984       0.04948       -170.55       9.543E-2      -7.59         9.573E-2      -7.80         0.80823       -9.68          
33.2984       0.0495        -170.42       9.547E-2      -7.74         9.575E-2      -7.95         0.80817       -9.84          
33.8983       0.04955       -170.24       9.55E-2       -7.85         9.575E-2      -8.08         0.8083        -9.99          
34.4983       0.0496        -170.05       9.55E-2       -8.01         9.579E-2      -8.22         0.80846       -10.15         
35.0983       0.04958       -169.94       9.554E-2      -8.15         9.581E-2      -8.38         0.8085        -10.34         
35.6982       0.04962       -169.74       9.555E-2      -8.28         9.578E-2      -8.53         0.80861       -10.50         
36.2982       0.0497        -169.53       9.559E-2      -8.46         9.579E-2      -8.69         0.80856       -10.69         
36.8982       0.04972       -169.34       9.557E-2      -8.60         9.581E-2      -8.83         0.8085        -10.87         
37.4981       0.04978       -169.30       9.558E-2      -8.72         9.586E-2      -8.95         0.8084        -11.04         
38.0981       0.04982       -169.09       9.562E-2      -8.84         9.584E-2      -9.12         0.80842       -11.24         
38.6981       0.04984       -168.92       9.561E-2      -9.00         9.583E-2      -9.25         0.80836       -11.42         
39.2981       0.04988       -168.78       9.563E-2      -9.13         9.582E-2      -9.42         0.80838       -11.59         
39.8980       0.04992       -168.60       9.562E-2      -9.31         9.586E-2      -9.58         0.80819       -11.78         
40.4980       0.04992       -168.42       9.567E-2      -9.46         9.588E-2      -9.68         0.80822       -11.94         
41.0980       0.04998       -168.25       9.569E-2      -9.60         9.591E-2      -9.84         0.80799       -12.13         
41.6979       0.05          -168.14       9.568E-2      -9.73         9.59E-2       -9.99         0.80821       -12.32         
42.2979       0.05009       -168.00       9.568E-2      -9.86         9.596E-2      -10.13        0.80805       -12.52         
42.8979       0.05012       -167.85       9.567E-2      -10.04        9.592E-2      -10.27        0.8081        -12.71         
43.4978       0.05012       -167.68       9.571E-2      -10.17        9.597E-2      -10.42        0.80818       -12.90         
44.0978       0.05016       -167.54       9.572E-2      -10.33        9.596E-2      -10.57        0.8081        -13.10         
44.6978       0.05023       -167.48       9.572E-2      -10.49        9.598E-2      -10.74        0.80828       -13.30         
45.2978       0.05027       -167.28       9.577E-2      -10.63        9.597E-2      -10.84        0.80816       -13.48         
45.8977       0.05035       -167.12       9.574E-2      -10.81        9.60E-2       -11.00        0.80834       -13.67         
46.4977       0.05035       -167.00       9.573E-2      -10.94        9.602E-2      -11.14        0.8083        -13.87         
47.0977       0.05037       -166.83       9.585E-2      -11.14        9.607E-2      -11.31        0.80925       -14.05         
47.6976       0.05042       -166.65       9.576E-2      -11.29        9.60E-2       -11.42        0.8093        -14.23         
48.2976       0.0505        -166.58       9.583E-2      -11.44        9.601E-2      -11.58        0.8093        -14.41         
48.8976       0.05052       -166.39       9.578E-2      -11.60        9.603E-2      -11.73        0.80947       -14.60         
49.4975       0.0506        -166.25       9.578E-2      -11.74        9.612E-2      -11.87        0.80939       -14.78         
50.0975       0.05057       -166.13       9.58E-2       -11.89        9.609E-2      -12.03        0.80946       -14.96         
50.6975       0.05063       -165.97       9.575E-2      -12.04        9.612E-2      -12.18        0.80957       -15.16         
51.2975       0.0507        -165.86       9.573E-2      -12.18        9.619E-2      -12.41        0.80963       -15.35         
51.8974       0.05077       -165.69       9.571E-2      -12.28        9.624E-2      -12.55        0.80954       -15.53         
52.4974       0.05153       -165.79       9.568E-2      -12.34        9.711E-2      -13.05        0.80754       -15.72         
53.0974       0.05089       -165.16       9.499E-2      -12.17        9.613E-2      -12.85        0.80709       -15.83         
53.6973       0.05086       -165.26       9.584E-2      -12.76        9.615E-2      -12.98        0.81009       -16.10         
54.2973       0.05094       -165.18       9.585E-2      -12.92        9.616E-2      -13.15        0.81003       -16.29         
54.8973       0.05094       -164.98       9.584E-2      -13.08        9.618E-2      -13.29        0.81006       -16.45         
55.4972       0.051         -164.89       9.587E-2      -13.20        9.62E-2       -13.42        0.8102        -16.63         
56.0972       0.05103       -164.73       9.588E-2      -13.37        9.617E-2      -13.58        0.81007       -16.82         
56.6972       0.0511        -164.53       9.588E-2      -13.51        9.614E-2      -13.69        0.81007       -16.99         
57.2972       0.05116       -164.43       9.588E-2      -13.67        9.618E-2      -13.85        0.81012       -17.17         
57.8971       0.05115       -164.23       9.586E-2      -13.80        9.62E-2       -14.02        0.81009       -17.35         
58.4971       0.05125       -164.14       9.596E-2      -13.94        9.624E-2      -14.21        0.81036       -17.55         
59.0971       0.05125       -164.00       9.595E-2      -14.07        9.623E-2      -14.31        0.81028       -17.72         
59.6970       0.0513        -163.85       9.597E-2      -14.23        9.628E-2      -14.48        0.81052       -17.91         
60.2970       0.05135       -163.70       9.595E-2      -14.39        9.624E-2      -14.63        0.81052       -18.08         
60.8970       0.05139       -163.51       9.597E-2      -14.54        9.631E-2      -14.80        0.8106        -18.27         
61.4969       0.05144       -163.42       9.596E-2      -14.69        9.626E-2      -14.96        0.81045       -18.46         
62.0969       0.05153       -163.28       9.601E-2      -14.84        9.628E-2      -15.07        0.81032       -18.64         
62.6969       0.05153       -163.22       9.604E-2      -14.98        9.631E-2      -15.26        0.81038       -18.83         
63.2969       0.05162       -163.01       9.606E-2      -15.14        9.633E-2      -15.40        0.81038       -19.03         
63.8968       0.05168       -162.91       9.605E-2      -15.29        9.635E-2      -15.55        0.81039       -19.19         
64.4968       0.05175       -162.73       9.607E-2      -15.45        9.638E-2      -15.69        0.81037       -19.38         
65.0968       0.0518        -162.63       9.608E-2      -15.58        9.642E-2      -15.84        0.81036       -19.56         
65.6967       0.05186       -162.48       9.61E-2       -15.75        9.644E-2      -15.99        0.81042       -19.74         
66.2967       0.05188       -162.38       9.614E-2      -15.88        9.642E-2      -16.15        0.81038       -19.93         
66.8967       0.05191       -162.23       9.616E-2      -16.07        9.646E-2      -16.30        0.81028       -20.12         
67.4966       0.05199       -162.08       9.616E-2      -16.19        9.65E-2       -16.47        0.81021       -20.32         
68.0966       0.05204       -161.99       9.62E-2       -16.36        9.655E-2      -16.60        0.81024       -20.50         
68.6966       0.05213       -161.83       9.622E-2      -16.51        9.656E-2      -16.74        0.81023       -20.66         
69.2966       0.05224       -161.71       9.625E-2      -16.69        9.659E-2      -16.92        0.81018       -20.87         
69.8965       0.05229       -161.59       9.627E-2      -16.85        9.66E-2       -17.07        0.81028       -21.05         
70.4965       0.0523        -161.50       9.629E-2      -17.02        9.659E-2      -17.23        0.81038       -21.24         
71.0965       0.05235       -161.40       9.63E-2       -17.20        9.663E-2      -17.41        0.81045       -21.42         
71.6964       0.05244       -161.24       9.63E-2       -17.36        9.666E-2      -17.59        0.81041       -21.60         
72.2964       0.05248       -161.22       9.634E-2      -17.52        9.661E-2      -17.74        0.81041       -21.78         
72.8964       0.05258       -161.10       9.632E-2      -17.68        9.662E-2      -17.91        0.81043       -21.98         
73.4963       0.05267       -160.94       9.634E-2      -17.86        9.662E-2      -18.06        0.81051       -22.16         
74.0963       0.05265       -160.83       9.638E-2      -17.98        9.667E-2      -18.24        0.81066       -22.36         
74.6963       0.05272       -160.80       9.637E-2      -18.17        9.669E-2      -18.39        0.81044       -22.52         
75.2963       0.05283       -160.67       9.637E-2      -18.33        9.669E-2      -18.53        0.81056       -22.71         
75.8962       0.05288       -160.53       9.641E-2      -18.51        9.677E-2      -18.74        0.81061       -22.90         
76.4962       0.05297       -160.39       9.646E-2      -18.65        9.676E-2      -18.91        0.81083       -23.08         
77.0962       0.05302       -160.30       9.647E-2      -18.83        9.679E-2      -19.04        0.81092       -23.26         
77.6961       0.05309       -160.25       9.648E-2      -19.01        9.68E-2       -19.24        0.81118       -23.45         
78.2961       0.0532        -160.10       9.646E-2      -19.15        9.68E-2       -19.37        0.81121       -23.63         
78.8961       0.05321       -160.05       9.645E-2      -19.35        9.682E-2      -19.54        0.81136       -23.81         
79.4960       0.0533        -159.90       9.652E-2      -19.52        9.686E-2      -19.73        0.81161       -23.98         
80.0960       0.05334       -159.83       9.653E-2      -19.70        9.685E-2      -19.89        0.81166       -24.17         
80.6960       0.05342       -159.75       9.655E-2      -19.87        9.685E-2      -20.05        0.8118        -24.34         
81.2960       0.05347       -159.70       9.656E-2      -20.07        9.69E-2       -20.25        0.81199       -24.52         
81.8959       0.05353       -159.58       9.655E-2      -20.22        9.691E-2      -20.41        0.81224       -24.69         
82.4959       0.05362       -159.47       9.656E-2      -20.39        9.689E-2      -20.59        0.81251       -24.89         
83.0959       0.05368       -159.38       9.657E-2      -20.58        9.688E-2      -20.77        0.81263       -25.05         
83.6958       0.05374       -159.28       9.661E-2      -20.77        9.69E-2       -20.98        0.8129        -25.24         
84.2958       0.05381       -159.16       9.656E-2      -20.96        9.686E-2      -21.16        0.81304       -25.41         
84.8958       0.05388       -159.11       9.66E-2       -21.15        9.687E-2      -21.38        0.81313       -25.59         
85.4957       0.05393       -159.07       9.663E-2      -21.34        9.687E-2      -21.58        0.8135        -25.78         
86.0957       0.05396       -158.96       9.658E-2      -21.53        9.684E-2      -21.78        0.81349       -25.98         
86.6957       0.05398       -158.83       9.653E-2      -21.76        9.682E-2      -21.98        0.8138        -26.15         
87.2957       0.05406       -158.80       9.651E-2      -21.95        9.676E-2      -22.18        0.81413       -26.33         
87.8956       0.05408       -158.76       9.647E-2      -22.15        9.669E-2      -22.38        0.81431       -26.50         
88.4956       0.05418       -158.67       9.639E-2      -22.34        9.663E-2      -22.57        0.81453       -26.68         
89.0956       0.05421       -158.59       9.635E-2      -22.56        9.655E-2      -22.79        0.81489       -26.85         
89.6955       0.05421       -158.50       9.63E-2       -22.76        9.649E-2      -22.98        0.81524       -27.03         
90.2955       0.05421       -158.47       9.619E-2      -22.97        9.639E-2      -23.18        0.81577       -27.22         
90.8955       0.05419       -158.44       9.604E-2      -23.18        9.623E-2      -23.38        0.81605       -27.40         
91.4954       0.05415       -158.34       9.593E-2      -23.38        9.605E-2      -23.60        0.8165        -27.60         
92.0954       0.05411       -158.26       9.568E-2      -23.56        9.586E-2      -23.78        0.81675       -27.79         
