!    8/6/2020   04:05:46 
! Ref Plane: 0.000 mm
# MHZ S MA R  50
!
0.3000        0.04702       -179.34       9.911E-2      -0.95         9.603E-2      -0.93         0.81257       -0.54          
0.9000        0.04766       179.74        9.519E-2      -0.46         9.498E-2      -0.22         0.80792       -0.63          
1.4999        0.04775       179.65        9.529E-2      -0.24         9.52E-2       -0.33         0.80813       -0.79          
2.0999        0.04771       179.71        9.521E-2      -0.38         9.529E-2      -0.41         0.80864       -0.95          
2.6999        0.04776       179.84        9.52E-2       -0.48         9.536E-2      -0.54         0.80862       -1.08          
3.2999        0.04772       -179.86       9.518E-2      -0.55         9.54E-2       -0.69         0.80891       -1.24          
3.8998        0.04784       -179.68       9.515E-2      -0.68         9.541E-2      -0.82         0.80896       -1.41          
4.4998        0.04781       -179.48       9.512E-2      -0.81         9.54E-2       -0.93         0.80903       -1.56          
5.0998        0.04792       -179.16       9.512E-2      -0.89         9.539E-2      -1.02         0.80909       -1.73          
5.6997        0.04789       -178.93       9.509E-2      -1.00         9.547E-2      -1.17         0.8092        -1.91          
6.2997        0.04794       -178.78       9.509E-2      -1.15         9.544E-2      -1.28         0.80903       -2.10          
6.8997        0.04799       -178.54       9.51E-2       -1.31         9.544E-2      -1.40         0.80922       -2.27          
7.4996        0.04802       -178.26       9.508E-2      -1.37         9.544E-2      -1.52         0.80922       -2.47          
8.0996        0.04805       -178.07       9.509E-2      -1.52         9.55E-2       -1.65         0.80898       -2.65          
8.6996        0.04807       -177.85       9.509E-2      -1.61         9.547E-2      -1.74         0.80923       -2.82          
9.2996        0.04808       -177.60       9.513E-2      -1.75         9.55E-2       -1.91         0.80933       -3.00          
9.8995        0.04811       -177.36       9.511E-2      -1.91         9.548E-2      -2.02         0.80904       -3.17          
10.4995       0.0482        -177.14       9.507E-2      -2.02         9.548E-2      -2.16         0.80938       -3.35          
11.0995       0.04822       -176.89       9.51E-2       -2.13         9.552E-2      -2.25         0.80947       -3.53          
11.6994       0.04825       -176.69       9.509E-2      -2.23         9.549E-2      -2.36         0.80952       -3.71          
12.2994       0.04826       -176.42       9.506E-2      -2.37         9.546E-2      -2.50         0.80942       -3.89          
12.8994       0.0483        -176.23       9.512E-2      -2.41         9.547E-2      -2.64         0.80943       -4.06          
13.4993       0.04829       -175.99       9.518E-2      -2.61         9.549E-2      -2.77         0.80958       -4.26          
14.0993       0.04836       -175.81       9.513E-2      -2.70         9.548E-2      -2.89         0.80955       -4.41          
14.6993       0.04841       -175.51       9.511E-2      -2.87         9.551E-2      -3.01         0.80942       -4.59          
15.2993       0.04843       -175.38       9.511E-2      -2.92         9.551E-2      -3.12         0.80962       -4.78          
15.8992       0.04843       -175.13       9.511E-2      -3.06         9.549E-2      -3.27         0.80969       -4.94          
16.4992       0.04852       -174.97       9.512E-2      -3.19         9.552E-2      -3.41         0.80952       -5.14          
17.0992       0.04852       -174.70       9.516E-2      -3.28         9.549E-2      -3.51         0.8097        -5.31          
17.6991       0.04862       -174.48       9.515E-2      -3.40         9.548E-2      -3.64         0.80958       -5.50          
18.2991       0.04862       -174.32       9.513E-2      -3.54         9.552E-2      -3.76         0.80966       -5.66          
18.8991       0.04864       -174.07       9.517E-2      -3.68         9.553E-2      -3.87         0.80995       -5.83          
19.4990       0.04868       -173.85       9.52E-2       -3.81         9.552E-2      -4.00         0.80994       -6.01          
20.0990       0.04872       -173.60       9.517E-2      -3.91         9.551E-2      -4.12         0.8098        -6.20          
20.6990       0.04874       -173.40       9.518E-2      -4.06         9.556E-2      -4.24         0.80984       -6.37          
21.2990       0.04874       -173.14       9.515E-2      -4.18         9.554E-2      -4.36         0.80969       -6.54          
21.8989       0.04879       -173.00       9.52E-2       -4.30         9.555E-2      -4.48         0.80982       -6.74          
22.4989       0.04882       -172.74       9.517E-2      -4.45         9.561E-2      -4.60         0.80989       -6.91          
23.0989       0.04891       -172.59       9.521E-2      -4.55         9.559E-2      -4.73         0.81          -7.10          
23.6988       0.0489        -172.28       9.523E-2      -4.63         9.558E-2      -4.87         0.8096        -7.27          
24.2988       0.04891       -172.13       9.523E-2      -4.77         9.555E-2      -4.97         0.80958       -7.44          
24.8988       0.04898       -171.90       9.52E-2       -4.88         9.558E-2      -5.13         0.80949       -7.62          
25.4987       0.04901       -171.71       9.525E-2      -5.00         9.555E-2      -5.25         0.80949       -7.79          
26.0987       0.04909       -171.49       9.518E-2      -5.14         9.559E-2      -5.34         0.80934       -7.97          
26.6987       0.04912       -171.29       9.52E-2       -5.26         9.557E-2      -5.47         0.80913       -8.14          
27.2987       0.04912       -171.06       9.528E-2      -5.37         9.558E-2      -5.58         0.80898       -8.33          
27.8986       0.04917       -170.86       9.524E-2      -5.53         9.557E-2      -5.70         0.80872       -8.49          
28.4986       0.0492        -170.62       9.526E-2      -5.63         9.556E-2      -5.85         0.80865       -8.69          
29.0986       0.04925       -170.54       9.524E-2      -5.74         9.557E-2      -5.97         0.80845       -8.85          
29.6985       0.04932       -170.30       9.524E-2      -5.86         9.558E-2      -6.06         0.80831       -9.04          
30.2985       0.04931       -170.10       9.525E-2      -5.98         9.555E-2      -6.22         0.808         -9.22          
30.8985       0.04933       -169.83       9.526E-2      -6.12         9.554E-2      -6.31         0.80802       -9.40          
31.4984       0.04941       -169.65       9.527E-2      -6.22         9.551E-2      -6.44         0.80792       -9.57          
32.0984       0.04945       -169.53       9.526E-2      -6.38         9.557E-2      -6.56         0.80788       -9.75          
32.6984       0.04947       -169.26       9.526E-2      -6.46         9.556E-2      -6.67         0.80782       -9.93          
33.2984       0.0495        -169.13       9.53E-2       -6.58         9.554E-2      -6.80         0.80772       -10.09         
33.8983       0.04952       -168.92       9.532E-2      -6.70         9.555E-2      -6.90         0.80776       -10.25         
34.4983       0.04958       -168.69       9.532E-2      -6.82         9.559E-2      -7.03         0.80792       -10.41         
35.0983       0.04957       -168.55       9.534E-2      -6.93         9.56E-2       -7.19         0.80792       -10.60         
35.6982       0.04962       -168.32       9.535E-2      -7.05         9.561E-2      -7.29         0.80808       -10.78         
36.2982       0.04967       -168.18       9.536E-2      -7.20         9.56E-2       -7.44         0.80799       -10.97         
36.8982       0.0497        -167.94       9.534E-2      -7.31         9.56E-2       -7.54         0.80789       -11.15         
37.4981       0.04975       -167.80       9.536E-2      -7.42         9.562E-2      -7.66         0.80779       -11.33         
38.0981       0.04976       -167.59       9.537E-2      -7.52         9.56E-2       -7.80         0.80779       -11.53         
38.6981       0.04981       -167.41       9.539E-2      -7.65         9.559E-2      -7.92         0.80773       -11.72         
39.2981       0.04984       -167.24       9.539E-2      -7.77         9.557E-2      -8.04         0.80771       -11.90         
39.8980       0.04987       -167.04       9.539E-2      -7.94         9.56E-2       -8.20         0.80751       -12.09         
40.4980       0.04987       -166.84       9.543E-2      -8.05         9.564E-2      -8.28         0.80752       -12.27         
41.0980       0.04995       -166.60       9.543E-2      -8.18         9.562E-2      -8.42         0.80725       -12.47         
41.6979       0.04997       -166.53       9.54E-2       -8.29         9.565E-2      -8.52         0.80746       -12.66         
42.2979       0.05004       -166.35       9.539E-2      -8.40         9.567E-2      -8.67         0.8073        -12.86         
42.8979       0.05007       -166.16       9.537E-2      -8.54         9.562E-2      -8.77         0.80739       -13.05         
43.4978       0.05004       -165.99       9.541E-2      -8.66         9.565E-2      -8.91         0.8074        -13.25         
44.0978       0.05013       -165.82       9.543E-2      -8.80         9.565E-2      -9.03         0.80729       -13.46         
44.6978       0.05018       -165.73       9.538E-2      -8.92         9.566E-2      -9.19         0.8074        -13.66         
45.2978       0.0502        -165.53       9.545E-2      -9.05         9.566E-2      -9.26         0.80728       -13.86         
45.8977       0.05029       -165.29       9.542E-2      -9.18         9.567E-2      -9.40         0.80745       -14.05         
46.4977       0.05029       -165.16       9.537E-2      -9.32         9.565E-2      -9.52         0.80738       -14.25         
47.0977       0.0503        -164.97       9.551E-2      -9.47         9.573E-2      -9.64         0.80832       -14.44         
47.6976       0.05035       -164.75       9.544E-2      -9.59         9.564E-2      -9.75         0.80835       -14.63         
48.2976       0.05042       -164.63       9.548E-2      -9.74         9.566E-2      -9.86         0.8083        -14.81         
48.8976       0.05044       -164.48       9.543E-2      -9.87         9.568E-2      -9.99         0.80842       -15.01         
49.4975       0.05053       -164.29       9.54E-2       -10.01        9.575E-2      -10.10        0.80834       -15.19         
50.0975       0.05048       -164.11       9.539E-2      -10.12        9.569E-2      -10.25        0.80838       -15.38         
50.6975       0.05053       -163.93       9.541E-2      -10.26        9.577E-2      -10.40        0.80844       -15.59         
51.2975       0.05059       -163.74       9.536E-2      -10.36        9.58E-2       -10.56        0.80853       -15.79         
51.8974       0.05068       -163.63       9.532E-2      -10.45        9.589E-2      -10.72        0.8084        -15.97         
52.4974       0.05142       -163.72       9.525E-2      -10.45        9.673E-2      -11.19        0.80636       -16.17         
53.0974       0.05077       -163.00       9.454E-2      -10.25        9.574E-2      -10.94        0.80589       -16.28         
53.6973       0.05075       -163.09       9.543E-2      -10.84        9.577E-2      -11.05        0.80877       -16.56         
54.2973       0.05081       -163.00       9.542E-2      -10.94        9.576E-2      -11.20        0.80877       -16.76         
54.8973       0.05083       -162.81       9.544E-2      -11.11        9.575E-2      -11.31        0.80886       -16.93         
55.4972       0.05087       -162.66       9.544E-2      -11.20        9.577E-2      -11.43        0.80886       -17.12         
56.0972       0.05093       -162.49       9.544E-2      -11.34        9.573E-2      -11.55        0.80866       -17.31         
56.6972       0.05098       -162.26       9.543E-2      -11.46        9.573E-2      -11.65        0.80863       -17.48         
57.2972       0.05105       -162.07       9.546E-2      -11.59        9.577E-2      -11.78        0.80866       -17.68         
57.8971       0.05105       -161.90       9.545E-2      -11.72        9.576E-2      -11.92        0.80869       -17.86         
58.4971       0.05112       -161.78       9.547E-2      -11.83        9.578E-2      -12.07        0.80885       -18.06         
59.0971       0.05112       -161.61       9.551E-2      -11.94        9.578E-2      -12.19        0.80876       -18.24         
59.6970       0.05118       -161.43       9.55E-2       -12.05        9.584E-2      -12.32        0.80891       -18.44         
60.2970       0.05122       -161.27       9.549E-2      -12.18        9.579E-2      -12.44        0.80886       -18.62         
60.8970       0.05128       -161.05       9.552E-2      -12.33        9.582E-2      -12.59        0.80897       -18.81         
61.4969       0.05129       -160.94       9.549E-2      -12.47        9.582E-2      -12.73        0.80876       -19.01         
62.0969       0.05138       -160.74       9.551E-2      -12.59        9.582E-2      -12.84        0.8087        -19.20         
62.6969       0.05138       -160.65       9.553E-2      -12.71        9.578E-2      -12.97        0.80858       -19.39         
63.2969       0.05144       -160.45       9.553E-2      -12.84        9.585E-2      -13.13        0.80867       -19.59         
63.8968       0.0515        -160.32       9.555E-2      -12.98        9.582E-2      -13.23        0.8086        -19.76         
64.4968       0.05156       -160.11       9.555E-2      -13.12        9.579E-2      -13.36        0.80861       -19.96         
65.0968       0.05161       -159.95       9.553E-2      -13.24        9.586E-2      -13.49        0.80861       -20.15         
65.6967       0.05167       -159.79       9.552E-2      -13.35        9.588E-2      -13.60        0.80866       -20.33         
66.2967       0.05169       -159.66       9.554E-2      -13.47        9.582E-2      -13.74        0.80859       -20.53         
66.8967       0.05172       -159.50       9.553E-2      -13.62        9.584E-2      -13.87        0.80845       -20.73         
67.4966       0.05174       -159.33       9.549E-2      -13.75        9.584E-2      -14.00        0.80839       -20.93         
68.0966       0.05177       -159.18       9.552E-2      -13.86        9.586E-2      -14.09        0.80835       -21.12         
68.6966       0.05187       -158.99       9.553E-2      -14.00        9.584E-2      -14.23        0.80839       -21.30         
69.2966       0.05195       -158.82       9.552E-2      -14.15        9.586E-2      -14.35        0.80826       -21.51         
69.8965       0.05201       -158.66       9.556E-2      -14.27        9.586E-2      -14.49        0.80833       -21.71         
70.4965       0.05203       -158.56       9.555E-2      -14.37        9.582E-2      -14.59        0.80841       -21.90         
71.0965       0.05204       -158.39       9.551E-2      -14.53        9.588E-2      -14.73        0.80843       -22.08         
71.6964       0.05214       -158.23       9.55E-2       -14.65        9.587E-2      -14.87        0.80832       -22.27         
72.2964       0.05217       -158.11       9.554E-2      -14.78        9.58E-2       -15.02        0.80829       -22.46         
72.8964       0.05226       -158.01       9.557E-2      -14.93        9.582E-2      -15.14        0.8083        -22.67         
73.4963       0.05237       -157.83       9.55E-2       -15.07        9.584E-2      -15.28        0.80835       -22.86         
74.0963       0.05235       -157.66       9.557E-2      -15.18        9.585E-2      -15.40        0.8084        -23.06         
74.6963       0.05238       -157.60       9.554E-2      -15.31        9.586E-2      -15.51        0.80816       -23.24         
75.2963       0.05248       -157.38       9.551E-2      -15.46        9.585E-2      -15.65        0.80825       -23.44         
75.8962       0.0525        -157.25       9.554E-2      -15.57        9.584E-2      -15.80        0.80825       -23.63         
76.4962       0.0526        -157.04       9.552E-2      -15.68        9.583E-2      -15.93        0.80843       -23.82         
77.0962       0.05266       -156.95       9.553E-2      -15.81        9.588E-2      -16.03        0.80845       -24.02         
77.6961       0.05269       -156.82       9.547E-2      -15.95        9.586E-2      -16.18        0.80866       -24.21         
78.2961       0.0528        -156.62       9.555E-2      -16.05        9.585E-2      -16.27        0.80858       -24.41         
78.8961       0.0528        -156.51       9.55E-2       -16.21        9.586E-2      -16.40        0.80874       -24.59         
79.4960       0.05287       -156.34       9.551E-2      -16.35        9.584E-2      -16.55        0.80894       -24.78         
80.0960       0.05291       -156.23       9.552E-2      -16.48        9.585E-2      -16.65        0.80883       -24.98         
80.6960       0.05296       -156.11       9.553E-2      -16.59        9.582E-2      -16.79        0.80894       -25.16         
81.2960       0.05302       -155.98       9.552E-2      -16.72        9.585E-2      -16.91        0.80907       -25.35         
81.8959       0.05309       -155.81       9.551E-2      -16.85        9.585E-2      -17.04        0.80925       -25.53         
82.4959       0.05319       -155.66       9.552E-2      -16.97        9.587E-2      -17.16        0.80936       -25.73         
83.0959       0.05323       -155.52       9.55E-2       -17.10        9.584E-2      -17.29        0.8094        -25.91         
83.6958       0.05331       -155.35       9.552E-2      -17.23        9.584E-2      -17.43        0.80951       -26.11         
84.2958       0.05335       -155.15       9.555E-2      -17.38        9.583E-2      -17.54        0.8096        -26.29         
84.8958       0.05342       -155.06       9.55E-2       -17.48        9.579E-2      -17.70        0.80952       -26.48         
85.4957       0.05347       -154.95       9.557E-2      -17.63        9.582E-2      -17.86        0.80969       -26.68         
86.0957       0.05353       -154.77       9.555E-2      -17.75        9.58E-2       -17.97        0.80957       -26.89         
86.6957       0.05355       -154.57       9.551E-2      -17.90        9.581E-2      -18.12        0.80971       -27.07         
87.2957       0.05366       -154.49       9.555E-2      -18.02        9.58E-2       -18.23        0.80988       -27.27         
87.8956       0.0537        -154.33       9.552E-2      -18.14        9.578E-2      -18.35        0.80984       -27.44         
88.4956       0.05384       -154.16       9.55E-2       -18.25        9.578E-2      -18.48        0.80983       -27.63         
89.0956       0.05386       -154.01       9.549E-2      -18.39        9.575E-2      -18.62        0.80988       -27.81         
89.6955       0.05393       -153.83       9.556E-2      -18.51        9.574E-2      -18.73        0.81002       -28.00         
90.2955       0.05399       -153.72       9.552E-2      -18.64        9.576E-2      -18.86        0.81016       -28.20         
90.8955       0.05403       -153.61       9.554E-2      -18.76        9.575E-2      -18.98        0.81018       -28.38         
91.4954       0.05413       -153.40       9.556E-2      -18.89        9.572E-2      -19.12        0.81027       -28.58         
92.0954       0.05419       -153.28       9.553E-2      -19.05        9.572E-2      -19.24        0.81013       -28.76         
