!    8/6/2020   04:02:56 
! Ref Plane: 0.000 mm
# MHZ S MA R  50
!
0.3000        0.04653       -179.27       9.908E-2      -0.81         9.595E-2      -0.86         0.81304       -0.52          
0.9000        0.04753       179.94        9.523E-2      -0.35         9.496E-2      -0.10         0.80785       -0.57          
1.4999        0.04767       179.79        9.529E-2      -0.13         9.524E-2      -0.22         0.80817       -0.74          
2.0999        0.04765       179.86        9.52E-2       -0.25         9.532E-2      -0.32         0.8087        -0.91          
2.6999        0.04771       179.99        9.519E-2      -0.35         9.536E-2      -0.44         0.80882       -1.04          
3.2999        0.04769       -179.75       9.518E-2      -0.41         9.539E-2      -0.59         0.80909       -1.20          
3.8998        0.04779       -179.53       9.515E-2      -0.55         9.543E-2      -0.71         0.80914       -1.38          
4.4998        0.04778       -179.33       9.515E-2      -0.67         9.541E-2      -0.80         0.80918       -1.53          
5.0998        0.04789       -179.02       9.51E-2       -0.74         9.54E-2       -0.89         0.80915       -1.70          
5.6997        0.04789       -178.76       9.511E-2      -0.87         9.547E-2      -1.04         0.80936       -1.88          
6.2997        0.04793       -178.62       9.507E-2      -1.00         9.547E-2      -1.14         0.80918       -2.07          
6.8997        0.04799       -178.37       9.51E-2       -1.16         9.544E-2      -1.26         0.80939       -2.24          
7.4996        0.04804       -178.09       9.506E-2      -1.23         9.544E-2      -1.35         0.80936       -2.44          
8.0996        0.04808       -177.88       9.507E-2      -1.36         9.549E-2      -1.49         0.80914       -2.63          
8.6996        0.04812       -177.70       9.507E-2      -1.46         9.547E-2      -1.58         0.80935       -2.79          
9.2996        0.04814       -177.44       9.512E-2      -1.60         9.548E-2      -1.73         0.80951       -2.97          
9.8995        0.04819       -177.19       9.508E-2      -1.74         9.548E-2      -1.84         0.80919       -3.14          
10.4995       0.04822       -176.99       9.504E-2      -1.87         9.55E-2       -1.96         0.80959       -3.32          
11.0995       0.04829       -176.71       9.507E-2      -1.96         9.548E-2      -2.05         0.80964       -3.51          
11.6994       0.04829       -176.48       9.505E-2      -2.05         9.551E-2      -2.18         0.80973       -3.69          
12.2994       0.04834       -176.29       9.503E-2      -2.19         9.548E-2      -2.28         0.80959       -3.87          
12.8994       0.04837       -176.06       9.506E-2      -2.23         9.543E-2      -2.43         0.8096        -4.04          
13.4993       0.04837       -175.80       9.516E-2      -2.43         9.546E-2      -2.56         0.80978       -4.24          
14.0993       0.04846       -175.65       9.507E-2      -2.50         9.546E-2      -2.68         0.80979       -4.40          
14.6993       0.04849       -175.37       9.504E-2      -2.67         9.548E-2      -2.78         0.80968       -4.57          
15.2993       0.04848       -175.20       9.504E-2      -2.72         9.544E-2      -2.90         0.80984       -4.76          
15.8992       0.04854       -175.00       9.506E-2      -2.85         9.543E-2      -3.04         0.80998       -4.92          
16.4992       0.04859       -174.79       9.506E-2      -2.99         9.546E-2      -3.17         0.80982       -5.11          
17.0992       0.04861       -174.53       9.509E-2      -3.08         9.542E-2      -3.27         0.80992       -5.29          
17.6991       0.04873       -174.31       9.509E-2      -3.22         9.543E-2      -3.41         0.80991       -5.48          
18.2991       0.04873       -174.13       9.504E-2      -3.34         9.544E-2      -3.51         0.80995       -5.63          
18.8991       0.04875       -173.92       9.51E-2       -3.45         9.545E-2      -3.62         0.81018       -5.80          
19.4990       0.04877       -173.67       9.513E-2      -3.58         9.543E-2      -3.74         0.81024       -5.98          
20.0990       0.04878       -173.42       9.508E-2      -3.68         9.543E-2      -3.86         0.81012       -6.17          
20.6990       0.04884       -173.24       9.511E-2      -3.84         9.546E-2      -3.97         0.81016       -6.34          
21.2990       0.04886       -172.97       9.51E-2       -3.95         9.544E-2      -4.09         0.81004       -6.51          
21.8989       0.04893       -172.82       9.51E-2       -4.05         9.545E-2      -4.21         0.81017       -6.70          
22.4989       0.04894       -172.58       9.507E-2      -4.19         9.55E-2       -4.32         0.8102        -6.87          
23.0989       0.04901       -172.41       9.506E-2      -4.29         9.548E-2      -4.46         0.81036       -7.06          
23.6988       0.049         -172.12       9.511E-2      -4.38         9.544E-2      -4.58         0.81004       -7.22          
24.2988       0.04904       -171.93       9.507E-2      -4.49         9.543E-2      -4.69         0.81001       -7.39          
24.8988       0.0491        -171.73       9.507E-2      -4.64         9.543E-2      -4.84         0.80991       -7.57          
25.4987       0.04911       -171.54       9.511E-2      -4.73         9.539E-2      -4.94         0.80993       -7.74          
26.0987       0.04918       -171.28       9.503E-2      -4.85         9.545E-2      -5.03         0.80981       -7.92          
26.6987       0.04923       -171.09       9.506E-2      -4.95         9.539E-2      -5.14         0.80963       -8.08          
27.2987       0.04923       -170.87       9.513E-2      -5.07         9.542E-2      -5.26         0.80949       -8.26          
27.8986       0.04927       -170.66       9.507E-2      -5.21         9.539E-2      -5.37         0.80926       -8.42          
28.4986       0.04932       -170.43       9.51E-2       -5.31         9.539E-2      -5.49         0.80923       -8.62          
29.0986       0.04937       -170.34       9.511E-2      -5.41         9.537E-2      -5.63         0.80902       -8.77          
29.6985       0.04944       -170.10       9.509E-2      -5.54         9.535E-2      -5.72         0.80884       -8.96          
30.2985       0.04941       -169.91       9.503E-2      -5.67         9.537E-2      -5.87         0.80862       -9.13          
30.8985       0.04946       -169.64       9.508E-2      -5.80         9.534E-2      -5.94         0.80865       -9.31          
31.4984       0.04952       -169.44       9.502E-2      -5.88         9.532E-2      -6.07         0.80855       -9.48          
32.0984       0.04954       -169.32       9.506E-2      -6.03         9.538E-2      -6.19         0.80854       -9.65          
32.6984       0.04958       -169.08       9.505E-2      -6.14         9.533E-2      -6.30         0.80842       -9.82          
33.2984       0.04961       -168.93       9.506E-2      -6.24         9.532E-2      -6.42         0.80838       -9.97          
33.8983       0.04962       -168.72       9.509E-2      -6.34         9.532E-2      -6.52         0.80849       -10.13         
34.4983       0.0497        -168.48       9.509E-2      -6.45         9.534E-2      -6.62         0.80864       -10.29         
35.0983       0.04969       -168.34       9.508E-2      -6.57         9.535E-2      -6.78         0.80866       -10.47         
35.6982       0.04971       -168.14       9.509E-2      -6.67         9.535E-2      -6.87         0.80884       -10.64         
36.2982       0.04977       -167.94       9.509E-2      -6.80         9.531E-2      -7.01         0.80878       -10.83         
36.8982       0.04979       -167.74       9.509E-2      -6.92         9.53E-2       -7.11         0.80867       -11.00         
37.4981       0.04985       -167.58       9.511E-2      -7.04         9.533E-2      -7.21         0.80862       -11.18         
38.0981       0.04988       -167.38       9.51E-2       -7.14         9.532E-2      -7.35         0.80861       -11.37         
38.6981       0.04992       -167.18       9.51E-2       -7.24         9.53E-2       -7.47         0.80856       -11.55         
39.2981       0.04992       -167.02       9.509E-2      -7.36         9.525E-2      -7.57         0.80855       -11.72         
39.8980       0.04995       -166.83       9.507E-2      -7.50         9.53E-2       -7.74         0.80838       -11.91         
40.4980       0.04999       -166.61       9.509E-2      -7.62         9.528E-2      -7.79         0.8084        -12.06         
41.0980       0.05006       -166.39       9.509E-2      -7.73         9.53E-2       -7.93         0.80812       -12.25         
41.6979       0.05005       -166.28       9.506E-2      -7.82         9.528E-2      -8.06         0.80836       -12.44         
42.2979       0.05014       -166.11       9.505E-2      -7.94         9.53E-2       -8.16         0.80821       -12.64         
42.8979       0.05016       -165.93       9.508E-2      -8.07         9.528E-2      -8.27         0.80832       -12.81         
43.4978       0.05013       -165.73       9.506E-2      -8.17         9.531E-2      -8.39         0.80834       -13.01         
44.0978       0.05024       -165.57       9.506E-2      -8.31         9.527E-2      -8.50         0.80828       -13.20         
44.6978       0.05027       -165.48       9.504E-2      -8.43         9.528E-2      -8.63         0.80839       -13.39         
45.2978       0.0503        -165.26       9.508E-2      -8.55         9.528E-2      -8.71         0.80827       -13.58         
45.8977       0.05035       -165.06       9.505E-2      -8.66         9.527E-2      -8.86         0.80844       -13.76         
46.4977       0.05036       -164.89       9.501E-2      -8.79         9.526E-2      -8.97         0.80845       -13.95         
47.0977       0.05036       -164.67       9.509E-2      -8.94         9.529E-2      -9.05         0.80937       -14.13         
47.6976       0.05042       -164.51       9.502E-2      -9.06         9.521E-2      -9.17         0.80938       -14.31         
48.2976       0.05049       -164.37       9.506E-2      -9.21         9.524E-2      -9.26         0.80938       -14.48         
48.8976       0.05049       -164.20       9.50E-2       -9.33         9.522E-2      -9.39         0.8095        -14.67         
49.4975       0.05055       -164.01       9.499E-2      -9.46         9.529E-2      -9.50         0.8094        -14.84         
50.0975       0.05056       -163.83       9.497E-2      -9.54         9.523E-2      -9.62         0.80946       -15.01         
50.6975       0.05058       -163.64       9.498E-2      -9.65         9.53E-2       -9.76         0.80962       -15.21         
51.2975       0.05064       -163.50       9.49E-2       -9.75         9.536E-2      -9.94         0.80967       -15.40         
51.8974       0.05076       -163.35       9.481E-2      -9.81         9.544E-2      -10.09        0.80953       -15.56         
52.4974       0.05146       -163.44       9.468E-2      -9.76         9.718E-2      -10.77        0.80746       -15.75         
53.0974       0.05085       -162.67       9.395E-2      -9.52         9.523E-2      -10.27        0.80702       -15.85         
53.6973       0.05078       -162.84       9.494E-2      -10.21        9.526E-2      -10.38        0.80997       -16.12         
54.2973       0.05085       -162.69       9.494E-2      -10.31        9.526E-2      -10.52        0.80996       -16.29         
54.8973       0.05084       -162.50       9.496E-2      -10.46        9.523E-2      -10.60        0.81002       -16.46         
55.4972       0.0509        -162.36       9.493E-2      -10.54        9.526E-2      -10.71        0.81004       -16.63         
56.0972       0.05095       -162.18       9.495E-2      -10.69        9.523E-2      -10.83        0.80989       -16.82         
56.6972       0.05098       -161.98       9.493E-2      -10.78        9.521E-2      -10.93        0.80982       -16.97         
57.2972       0.05106       -161.81       9.493E-2      -10.90        9.521E-2      -11.05        0.80986       -17.15         
57.8971       0.05104       -161.60       9.492E-2      -11.01        9.521E-2      -11.18        0.8099        -17.32         
58.4971       0.05111       -161.49       9.498E-2      -11.11        9.523E-2      -11.32        0.81004       -17.51         
59.0971       0.05113       -161.31       9.498E-2      -11.23        9.52E-2       -11.40        0.80998       -17.67         
59.6970       0.05117       -161.14       9.498E-2      -11.34        9.525E-2      -11.54        0.81015       -17.85         
60.2970       0.0512        -160.96       9.491E-2      -11.45        9.521E-2      -11.64        0.81015       -18.02         
60.8970       0.05126       -160.75       9.496E-2      -11.60        9.524E-2      -11.80        0.81023       -18.19         
61.4969       0.05126       -160.65       9.494E-2      -11.70        9.522E-2      -11.91        0.81008       -18.38         
62.0969       0.05132       -160.45       9.495E-2      -11.81        9.523E-2      -12.02        0.80996       -18.55         
62.6969       0.05135       -160.36       9.494E-2      -11.91        9.52E-2       -12.15        0.8099        -18.73         
63.2969       0.05141       -160.14       9.494E-2      -12.04        9.52E-2       -12.26        0.80986       -18.91         
63.8968       0.05145       -160.02       9.493E-2      -12.15        9.52E-2       -12.38        0.80989       -19.07         
64.4968       0.0515        -159.82       9.495E-2      -12.29        9.517E-2      -12.51        0.8099        -19.25         
65.0968       0.05155       -159.64       9.492E-2      -12.39        9.524E-2      -12.63        0.80987       -19.42         
65.6967       0.0516        -159.47       9.493E-2      -12.50        9.523E-2      -12.71        0.80989       -19.60         
66.2967       0.05162       -159.33       9.494E-2      -12.62        9.519E-2      -12.85        0.80985       -19.78         
66.8967       0.05162       -159.20       9.49E-2       -12.76        9.52E-2       -12.95        0.80972       -19.96         
67.4966       0.05167       -159.01       9.49E-2       -12.86        9.522E-2      -13.07        0.80971       -20.14         
68.0966       0.05169       -158.88       9.49E-2       -12.98        9.521E-2      -13.16        0.80965       -20.31         
68.6966       0.05177       -158.67       9.491E-2      -13.08        9.52E-2       -13.29        0.80965       -20.48         
69.2966       0.05184       -158.53       9.489E-2      -13.21        9.523E-2      -13.38        0.80956       -20.68         
69.8965       0.05187       -158.36       9.49E-2       -13.34        9.522E-2      -13.50        0.80962       -20.86         
70.4965       0.05191       -158.25       9.49E-2       -13.44        9.52E-2       -13.65        0.80969       -21.03         
71.0965       0.05194       -158.10       9.49E-2       -13.56        9.52E-2       -13.73        0.80973       -21.20         
71.6964       0.052         -157.89       9.487E-2      -13.69        9.519E-2      -13.87        0.80958       -21.38         
72.2964       0.05201       -157.79       9.491E-2      -13.81        9.513E-2      -14.00        0.8096        -21.55         
72.8964       0.05213       -157.68       9.491E-2      -13.93        9.518E-2      -14.12        0.80958       -21.74         
73.4963       0.05218       -157.50       9.487E-2      -14.06        9.513E-2      -14.24        0.80961       -21.92         
74.0963       0.05221       -157.36       9.489E-2      -14.16        9.517E-2      -14.36        0.80968       -22.10         
74.6963       0.05223       -157.29       9.488E-2      -14.29        9.514E-2      -14.46        0.8094        -22.26         
75.2963       0.0523        -157.07       9.486E-2      -14.40        9.512E-2      -14.58        0.80948       -22.45         
75.8962       0.05232       -156.93       9.488E-2      -14.53        9.514E-2      -14.72        0.80951       -22.62         
76.4962       0.05239       -156.72       9.488E-2      -14.62        9.514E-2      -14.82        0.80967       -22.80         
77.0962       0.05247       -156.65       9.49E-2       -14.74        9.516E-2      -14.94        0.80972       -22.97         
77.6961       0.05248       -156.50       9.482E-2      -14.87        9.517E-2      -15.07        0.8099        -23.16         
78.2961       0.05259       -156.34       9.485E-2      -14.96        9.515E-2      -15.15        0.80984       -23.33         
78.8961       0.05258       -156.20       9.484E-2      -15.10        9.515E-2      -15.26        0.80995       -23.50         
79.4960       0.05265       -156.04       9.485E-2      -15.22        9.517E-2      -15.40        0.81015       -23.67         
80.0960       0.05268       -155.89       9.486E-2      -15.35        9.515E-2      -15.50        0.81009       -23.86         
80.6960       0.05271       -155.78       9.486E-2      -15.45        9.512E-2      -15.60        0.81017       -24.02         
81.2960       0.0528        -155.63       9.487E-2      -15.58        9.517E-2      -15.73        0.81028       -24.20         
81.8959       0.05282       -155.49       9.483E-2      -15.68        9.515E-2      -15.84        0.81044       -24.37         
82.4959       0.0529        -155.34       9.483E-2      -15.79        9.514E-2      -15.95        0.81059       -24.55         
83.0959       0.05295       -155.20       9.483E-2      -15.92        9.516E-2      -16.05        0.81058       -24.71         
83.6958       0.05299       -155.04       9.483E-2      -16.04        9.513E-2      -16.20        0.81076       -24.90         
84.2958       0.05306       -154.84       9.486E-2      -16.15        9.511E-2      -16.29        0.81076       -25.07         
84.8958       0.0531        -154.74       9.484E-2      -16.26        9.511E-2      -16.44        0.81076       -25.24         
85.4957       0.05318       -154.63       9.487E-2      -16.38        9.509E-2      -16.58        0.81092       -25.42         
86.0957       0.05322       -154.43       9.487E-2      -16.50        9.508E-2      -16.69        0.81076       -25.62         
86.6957       0.05325       -154.25       9.484E-2      -16.62        9.512E-2      -16.81        0.81089       -25.78         
87.2957       0.05333       -154.16       9.489E-2      -16.73        9.51E-2       -16.93        0.81104       -25.96         
87.8956       0.05333       -154.02       9.483E-2      -16.85        9.505E-2      -17.03        0.811         -26.13         
88.4956       0.05348       -153.82       9.486E-2      -16.95        9.506E-2      -17.15        0.81093       -26.30         
89.0956       0.0535        -153.68       9.484E-2      -17.08        9.504E-2      -17.28        0.81102       -26.47         
89.6955       0.05357       -153.53       9.488E-2      -17.18        9.506E-2      -17.38        0.81119       -26.64         
90.2955       0.05362       -153.39       9.486E-2      -17.30        9.507E-2      -17.49        0.81135       -26.82         
90.8955       0.05369       -153.28       9.488E-2      -17.42        9.504E-2      -17.59        0.81129       -26.99         
91.4954       0.05375       -153.09       9.488E-2      -17.54        9.502E-2      -17.73        0.8114        -27.18         
92.0954       0.05382       -152.94       9.485E-2      -17.68        9.502E-2      -17.83        0.81126       -27.34         
