!    8/6/2020   04:04:54 
! Ref Plane: 0.000 mm
# MHZ S MA R  50
!
0.3000        0.04681       -179.36       9.911E-2      -0.85         9.60E-2       -0.91         0.81369       -0.48          
0.9000        0.04753       179.87        9.518E-2      -0.40         9.494E-2      -0.16         0.80795       -0.56          
1.4999        0.0477        179.67        9.528E-2      -0.18         9.521E-2      -0.28         0.80832       -0.72          
2.0999        0.04769       179.76        9.521E-2      -0.33         9.526E-2      -0.39         0.80877       -0.89          
2.6999        0.04773       179.92        9.517E-2      -0.42         9.532E-2      -0.52         0.80884       -1.03          
3.2999        0.04771       -179.83       9.518E-2      -0.49         9.537E-2      -0.67         0.80913       -1.19          
3.8998        0.04784       -179.65       9.511E-2      -0.64         9.538E-2      -0.80         0.80918       -1.36          
4.4998        0.0478        -179.45       9.512E-2      -0.76         9.539E-2      -0.91         0.80921       -1.52          
5.0998        0.04788       -179.13       9.51E-2       -0.86         9.537E-2      -1.00         0.80922       -1.69          
5.6997        0.04787       -178.89       9.51E-2       -0.98         9.544E-2      -1.15         0.80939       -1.86          
6.2997        0.04794       -178.77       9.507E-2      -1.13         9.542E-2      -1.28         0.80929       -2.05          
6.8997        0.04799       -178.53       9.509E-2      -1.28         9.54E-2       -1.39         0.80944       -2.22          
7.4996        0.04804       -178.24       9.505E-2      -1.35         9.543E-2      -1.50         0.80944       -2.42          
8.0996        0.04807       -178.03       9.506E-2      -1.51         9.543E-2      -1.66         0.80921       -2.60          
8.6996        0.0481        -177.83       9.504E-2      -1.60         9.544E-2      -1.74         0.80941       -2.77          
9.2996        0.04812       -177.60       9.511E-2      -1.76         9.544E-2      -1.89         0.80959       -2.95          
9.8995        0.04813       -177.37       9.504E-2      -1.89         9.546E-2      -2.01         0.80924       -3.11          
10.4995       0.04822       -177.16       9.503E-2      -2.02         9.545E-2      -2.15         0.80964       -3.29          
11.0995       0.04827       -176.94       9.506E-2      -2.13         9.546E-2      -2.25         0.80968       -3.47          
11.6994       0.04828       -176.70       9.505E-2      -2.24         9.548E-2      -2.38         0.80977       -3.66          
12.2994       0.04832       -176.48       9.504E-2      -2.38         9.545E-2      -2.48         0.80968       -3.83          
12.8994       0.04834       -176.26       9.508E-2      -2.43         9.546E-2      -2.64         0.80968       -4.00          
13.4993       0.04835       -176.00       9.515E-2      -2.64         9.545E-2      -2.79         0.80983       -4.20          
14.0993       0.04843       -175.86       9.509E-2      -2.71         9.544E-2      -2.91         0.80981       -4.36          
14.6993       0.04845       -175.58       9.505E-2      -2.89         9.547E-2      -3.02         0.80973       -4.54          
15.2993       0.04844       -175.42       9.505E-2      -2.96         9.544E-2      -3.16         0.80989       -4.72          
15.8992       0.04848       -175.21       9.507E-2      -3.08         9.541E-2      -3.30         0.80995       -4.88          
16.4992       0.04855       -175.04       9.506E-2      -3.23         9.548E-2      -3.44         0.80986       -5.07          
17.0992       0.04857       -174.76       9.51E-2       -3.33         9.543E-2      -3.55         0.81003       -5.25          
17.6991       0.04868       -174.56       9.508E-2      -3.48         9.545E-2      -3.69         0.80993       -5.43          
18.2991       0.04866       -174.38       9.508E-2      -3.59         9.546E-2      -3.81         0.80998       -5.59          
18.8991       0.0487        -174.17       9.51E-2       -3.73         9.543E-2      -3.91         0.81023       -5.76          
19.4990       0.04871       -173.92       9.515E-2      -3.87         9.545E-2      -4.05         0.81026       -5.94          
20.0990       0.04876       -173.68       9.509E-2      -3.97         9.549E-2      -4.19         0.81012       -6.12          
20.6990       0.0488        -173.48       9.514E-2      -4.13         9.549E-2      -4.30         0.81019       -6.29          
21.2990       0.0488        -173.24       9.509E-2      -4.25         9.545E-2      -4.43         0.81001       -6.46          
21.8989       0.04886       -173.10       9.515E-2      -4.38         9.546E-2      -4.55         0.81018       -6.65          
22.4989       0.04891       -172.88       9.509E-2      -4.51         9.553E-2      -4.67         0.81021       -6.82          
23.0989       0.04898       -172.68       9.511E-2      -4.61         9.551E-2      -4.81         0.81037       -7.00          
23.6988       0.04895       -172.41       9.517E-2      -4.73         9.551E-2      -4.96         0.80998       -7.17          
24.2988       0.04898       -172.26       9.515E-2      -4.83         9.546E-2      -5.04         0.81002       -7.34          
24.8988       0.04906       -172.06       9.513E-2      -4.99         9.546E-2      -5.21         0.80989       -7.52          
25.4987       0.04911       -171.83       9.516E-2      -5.09         9.544E-2      -5.33         0.8099        -7.69          
26.0987       0.04914       -171.62       9.508E-2      -5.23         9.548E-2      -5.42         0.8098        -7.86          
26.6987       0.04922       -171.43       9.511E-2      -5.34         9.544E-2      -5.55         0.80959       -8.03          
27.2987       0.04922       -171.21       9.517E-2      -5.46         9.546E-2      -5.67         0.80943       -8.21          
27.8986       0.04923       -171.01       9.513E-2      -5.62         9.544E-2      -5.79         0.80919       -8.37          
28.4986       0.0493        -170.76       9.516E-2      -5.75         9.542E-2      -5.95         0.80915       -8.56          
29.0986       0.04932       -170.71       9.517E-2      -5.84         9.546E-2      -6.06         0.80894       -8.72          
29.6985       0.04939       -170.46       9.515E-2      -5.96         9.543E-2      -6.16         0.80878       -8.90          
30.2985       0.04938       -170.27       9.512E-2      -6.10         9.543E-2      -6.32         0.8085        -9.08          
30.8985       0.04943       -170.05       9.516E-2      -6.24         9.541E-2      -6.42         0.80851       -9.26          
31.4984       0.04947       -169.84       9.512E-2      -6.33         9.539E-2      -6.53         0.80846       -9.42          
32.0984       0.0495        -169.72       9.516E-2      -6.50         9.544E-2      -6.66         0.80837       -9.59          
32.6984       0.04953       -169.45       9.512E-2      -6.59         9.544E-2      -6.78         0.8083        -9.76          
33.2984       0.0496        -169.32       9.515E-2      -6.71         9.541E-2      -6.92         0.80823       -9.92          
33.8983       0.04961       -169.14       9.519E-2      -6.83         9.54E-2       -7.05         0.80836       -10.08         
34.4983       0.04968       -168.92       9.518E-2      -6.95         9.543E-2      -7.14         0.80849       -10.23         
35.0983       0.04966       -168.77       9.52E-2       -7.06         9.545E-2      -7.29         0.80846       -10.42         
35.6982       0.04971       -168.58       9.521E-2      -7.19         9.543E-2      -7.38         0.80867       -10.58         
36.2982       0.04976       -168.37       9.521E-2      -7.34         9.54E-2       -7.55         0.80856       -10.77         
36.8982       0.04978       -168.19       9.518E-2      -7.46         9.545E-2      -7.67         0.80846       -10.95         
37.4981       0.04985       -168.04       9.522E-2      -7.57         9.543E-2      -7.78         0.80836       -11.12         
38.0981       0.04987       -167.83       9.521E-2      -7.68         9.542E-2      -7.92         0.80837       -11.31         
38.6981       0.0499        -167.66       9.521E-2      -7.78         9.542E-2      -8.04         0.80832       -11.49         
39.2981       0.04993       -167.48       9.521E-2      -7.92         9.539E-2      -8.17         0.80825       -11.67         
39.8980       0.04995       -167.32       9.521E-2      -8.08         9.542E-2      -8.33         0.80812       -11.85         
40.4980       0.04997       -167.08       9.522E-2      -8.20         9.542E-2      -8.41         0.80809       -12.02         
41.0980       0.05005       -166.88       9.525E-2      -8.32         9.544E-2      -8.54         0.80787       -12.20         
41.6979       0.05006       -166.75       9.521E-2      -8.42         9.544E-2      -8.67         0.80806       -12.39         
42.2979       0.05014       -166.61       9.522E-2      -8.55         9.545E-2      -8.79         0.8079        -12.59         
42.8979       0.05015       -166.44       9.52E-2       -8.70         9.542E-2      -8.90         0.80797       -12.77         
43.4978       0.05015       -166.28       9.521E-2      -8.79         9.543E-2      -9.04         0.80801       -12.96         
44.0978       0.05021       -166.10       9.522E-2      -8.95         9.545E-2      -9.16         0.80791       -13.15         
44.6978       0.05028       -166.00       9.518E-2      -9.08         9.543E-2      -9.31         0.80801       -13.35         
45.2978       0.05033       -165.82       9.523E-2      -9.20         9.54E-2       -9.40         0.8079        -13.54         
45.8977       0.05037       -165.59       9.522E-2      -9.33         9.544E-2      -9.54         0.80804       -13.72         
46.4977       0.05036       -165.47       9.518E-2      -9.47         9.542E-2      -9.65         0.808         -13.91         
47.0977       0.05041       -165.28       9.529E-2      -9.62         9.55E-2       -9.76         0.80892       -14.09         
47.6976       0.05044       -165.07       9.522E-2      -9.77         9.538E-2      -9.87         0.80895       -14.27         
48.2976       0.05052       -164.96       9.525E-2      -9.91         9.541E-2      -9.99         0.80891       -14.44         
48.8976       0.05056       -164.79       9.521E-2      -10.05        9.541E-2      -10.13        0.80906       -14.63         
49.4975       0.05059       -164.60       9.518E-2      -10.17        9.549E-2      -10.23        0.80892       -14.80         
50.0975       0.05058       -164.45       9.517E-2      -10.27        9.544E-2      -10.38        0.80895       -14.98         
50.6975       0.05061       -164.26       9.516E-2      -10.43        9.549E-2      -10.52        0.80907       -15.17         
51.2975       0.05071       -164.10       9.51E-2       -10.52        9.555E-2      -10.72        0.8091        -15.37         
51.8974       0.05077       -163.99       9.501E-2      -10.60        9.563E-2      -10.89        0.80901       -15.54         
52.4974       0.05151       -164.06       9.491E-2      -10.56        9.728E-2      -11.56        0.80692       -15.73         
53.0974       0.05091       -163.29       9.417E-2      -10.32        9.545E-2      -11.08        0.80642       -15.83         
53.6973       0.05085       -163.45       9.518E-2      -11.00        9.544E-2      -11.19        0.80945       -16.09         
54.2973       0.05093       -163.35       9.519E-2      -11.10        9.547E-2      -11.35        0.80938       -16.27         
54.8973       0.05094       -163.19       9.516E-2      -11.27        9.545E-2      -11.45        0.80939       -16.44         
55.4972       0.05097       -163.04       9.52E-2       -11.37        9.546E-2      -11.56        0.80943       -16.61         
56.0972       0.05103       -162.86       9.519E-2      -11.50        9.544E-2      -11.69        0.80922       -16.80         
56.6972       0.05107       -162.65       9.518E-2      -11.61        9.541E-2      -11.79        0.80923       -16.95         
57.2972       0.05115       -162.47       9.517E-2      -11.75        9.544E-2      -11.91        0.80923       -17.13         
57.8971       0.05114       -162.29       9.516E-2      -11.88        9.543E-2      -12.05        0.80919       -17.31         
58.4971       0.05119       -162.20       9.522E-2      -11.98        9.549E-2      -12.19        0.80941       -17.49         
59.0971       0.05123       -162.02       9.52E-2       -12.11        9.548E-2      -12.33        0.80926       -17.66         
59.6970       0.05127       -161.82       9.521E-2      -12.21        9.55E-2       -12.44        0.80943       -17.84         
60.2970       0.05129       -161.67       9.52E-2       -12.35        9.544E-2      -12.58        0.80942       -18.00         
60.8970       0.05136       -161.48       9.521E-2      -12.49        9.549E-2      -12.71        0.80949       -18.19         
61.4969       0.05138       -161.36       9.52E-2       -12.61        9.547E-2      -12.85        0.80933       -18.37         
62.0969       0.05143       -161.19       9.517E-2      -12.73        9.548E-2      -12.97        0.80918       -18.54         
62.6969       0.05147       -161.10       9.524E-2      -12.86        9.544E-2      -13.10        0.80912       -18.72         
63.2969       0.05153       -160.94       9.521E-2      -12.98        9.548E-2      -13.23        0.80915       -18.91         
63.8968       0.05158       -160.79       9.521E-2      -13.10        9.548E-2      -13.35        0.80912       -19.06         
64.4968       0.05166       -160.58       9.523E-2      -13.24        9.547E-2      -13.47        0.80909       -19.25         
65.0968       0.05167       -160.40       9.521E-2      -13.36        9.551E-2      -13.61        0.80907       -19.42         
65.6967       0.05176       -160.29       9.52E-2       -13.49        9.548E-2      -13.72        0.80911       -19.59         
66.2967       0.05175       -160.13       9.52E-2       -13.60        9.548E-2      -13.87        0.80906       -19.77         
66.8967       0.05176       -160.04       9.519E-2      -13.75        9.547E-2      -13.96        0.80886       -19.95         
67.4966       0.05183       -159.83       9.516E-2      -13.86        9.552E-2      -14.09        0.80882       -20.14         
68.0966       0.05185       -159.68       9.521E-2      -13.98        9.55E-2       -14.20        0.80885       -20.31         
68.6966       0.05193       -159.49       9.519E-2      -14.11        9.549E-2      -14.34        0.80877       -20.48         
69.2966       0.05203       -159.36       9.52E-2       -14.27        9.55E-2       -14.43        0.80868       -20.68         
69.8965       0.05207       -159.19       9.522E-2      -14.39        9.547E-2      -14.57        0.8087        -20.85         
70.4965       0.0521        -159.11       9.521E-2      -14.49        9.548E-2      -14.70        0.80881       -21.03         
71.0965       0.05213       -158.94       9.52E-2       -14.64        9.552E-2      -14.82        0.8088        -21.20         
71.6964       0.05221       -158.78       9.519E-2      -14.76        9.546E-2      -14.96        0.8087        -21.37         
72.2964       0.05223       -158.68       9.523E-2      -14.88        9.546E-2      -15.08        0.80869       -21.55         
72.8964       0.05232       -158.57       9.521E-2      -15.02        9.547E-2      -15.20        0.80866       -21.74         
73.4963       0.05239       -158.38       9.519E-2      -15.15        9.547E-2      -15.35        0.80867       -21.92         
74.0963       0.05241       -158.27       9.521E-2      -15.27        9.548E-2      -15.48        0.80873       -22.10         
74.6963       0.05246       -158.19       9.519E-2      -15.39        9.55E-2       -15.59        0.80849       -22.26         
75.2963       0.0525        -158.00       9.518E-2      -15.52        9.546E-2      -15.72        0.80858       -22.45         
75.8962       0.05258       -157.85       9.519E-2      -15.65        9.549E-2      -15.86        0.80858       -22.62         
76.4962       0.05265       -157.67       9.519E-2      -15.75        9.55E-2       -15.98        0.80875       -22.80         
77.0962       0.0527        -157.56       9.522E-2      -15.88        9.549E-2      -16.09        0.80875       -22.97         
77.6961       0.05274       -157.46       9.518E-2      -16.02        9.551E-2      -16.22        0.809         -23.15         
78.2961       0.05285       -157.28       9.522E-2      -16.11        9.55E-2       -16.33        0.80892       -23.33         
78.8961       0.05287       -157.18       9.517E-2      -16.26        9.552E-2      -16.44        0.80902       -23.50         
79.4960       0.0529        -157.00       9.522E-2      -16.40        9.552E-2      -16.59        0.80919       -23.66         
80.0960       0.05294       -156.89       9.521E-2      -16.53        9.553E-2      -16.69        0.80917       -23.85         
80.6960       0.05301       -156.76       9.524E-2      -16.66        9.549E-2      -16.80        0.80925       -24.01         
81.2960       0.05307       -156.66       9.523E-2      -16.78        9.553E-2      -16.94        0.80933       -24.18         
81.8959       0.05315       -156.51       9.521E-2      -16.89        9.554E-2      -17.06        0.80949       -24.35         
82.4959       0.0532        -156.35       9.523E-2      -17.02        9.554E-2      -17.19        0.80965       -24.54         
83.0959       0.05327       -156.21       9.524E-2      -17.14        9.553E-2      -17.30        0.8097        -24.69         
83.6958       0.05333       -156.06       9.525E-2      -17.27        9.552E-2      -17.44        0.80982       -24.88         
84.2958       0.05341       -155.90       9.526E-2      -17.40        9.549E-2      -17.57        0.8099        -25.04         
84.8958       0.05345       -155.80       9.524E-2      -17.52        9.551E-2      -17.72        0.80983       -25.21         
85.4957       0.05353       -155.67       9.529E-2      -17.64        9.551E-2      -17.87        0.81003       -25.40         
86.0957       0.05357       -155.53       9.528E-2      -17.77        9.551E-2      -17.98        0.80993       -25.59         
86.6957       0.0536        -155.33       9.525E-2      -17.90        9.553E-2      -18.13        0.81001       -25.75         
87.2957       0.05369       -155.23       9.53E-2       -18.05        9.551E-2      -18.24        0.81017       -25.93         
87.8956       0.0537        -155.12       9.525E-2      -18.15        9.547E-2      -18.35        0.81012       -26.09         
88.4956       0.05385       -154.95       9.525E-2      -18.26        9.549E-2      -18.48        0.81014       -26.25         
89.0956       0.0539        -154.81       9.524E-2      -18.42        9.548E-2      -18.61        0.81025       -26.42         
89.6955       0.05397       -154.66       9.532E-2      -18.53        9.548E-2      -18.73        0.81042       -26.59         
90.2955       0.05402       -154.54       9.527E-2      -18.65        9.546E-2      -18.84        0.81057       -26.77         
90.8955       0.05407       -154.41       9.532E-2      -18.77        9.547E-2      -18.95        0.81058       -26.94         
91.4954       0.05413       -154.22       9.531E-2      -18.90        9.543E-2      -19.11        0.81067       -27.12         
92.0954       0.05421       -154.14       9.53E-2       -19.04        9.547E-2      -19.23        0.81057       -27.28         
