!    8/10/2020   01:46:50 
! Ref Plane: 0.000 mm
# MHZ S MA R  50
!
0.3000        0.82089       0.19          4.111E-5      -1.32         5.456E-5      54.18         0.99635       -0.37          
0.9000        0.81892       0.23          1.008E-4      -129.14       4.677E-5      -77.96        0.99723       -0.32          
1.4999        0.82015       0.21          3.849E-5      171.26        5.486E-5      8.92          0.99844       -0.29          
2.0999        0.81998       0.18          7.302E-5      -98.87        1.693E-5      110.42        0.99887       -0.24          
2.6999        0.81984       0.13          8.123E-5      -91.16        2.19E-5       -131.46       0.99904       -0.20          
3.2999        0.81973       0.09          2.392E-5      27.09         1.318E-5      -65.53        0.99902       -0.16          
3.8998        0.8197        0.06          6.746E-6      161.84        2.354E-5      -120.23       0.9991        -0.15          
4.4998        0.81955       0.00          3.718E-5      -84.07        2.553E-5      15.10         0.99906       -0.13          
5.0998        0.81946       -0.04         2.337E-5      -125.84       1.132E-5      -55.86        0.99907       -0.12          
5.6997        0.81937       -0.09         4.671E-5      104.63        3.275E-5      -110.53       0.99915       -0.12          
6.2997        0.8194        -0.12         3.542E-5      135.57        3.566E-5      39.20         0.99912       -0.11          
6.8997        0.81935       -0.17         4.699E-5      -59.80        6.61E-6       108.64        0.99918       -0.11          
7.4996        0.81935       -0.20         1.639E-5      67.47         4.217E-5      119.90        0.99919       -0.10          
8.0996        0.81943       -0.24         4.125E-5      -153.44       7.473E-6      -11.37        0.9992        -0.10          
8.6996        0.81932       -0.29         4.743E-5      79.22         3.129E-5      127.44        0.99919       -0.09          
9.2996        0.81922       -0.33         5.753E-5      -26.67        4.257E-5      20.95         0.99919       -0.09          
9.8995        0.81933       -0.37         4.827E-5      -71.84        1.975E-5      60.64         0.9992        -0.09          
10.4995       0.8192        -0.42         2.907E-5      71.95         1.801E-5      -146.61       0.99928       -0.09          
11.0995       0.81915       -0.46         4.304E-5      -97.40        4.207E-5      58.83         0.99924       -0.09          
11.6994       0.81905       -0.49         1.85E-5       175.07        2.402E-5      38.44         0.99919       -0.09          
12.2994       0.81912       -0.54         7.915E-5      -138.30       4.369E-5      91.30         0.99927       -0.09          
12.8994       0.81914       -0.58         6.638E-5      109.37        3.086E-5      38.53         0.99924       -0.09          
13.4993       0.81907       -0.61         4.184E-5      -29.66        2.142E-5      90.19         0.99931       -0.09          
14.0993       0.81906       -0.66         4.191E-5      64.89         3.149E-5      -75.43        0.99927       -0.09          
14.6993       0.81902       -0.71         9.414E-5      -112.05       1.202E-5      -138.64       0.99929       -0.09          
15.2993       0.81893       -0.74         6.501E-5      125.00        7.574E-5      80.54         0.99929       -0.09          
15.8992       0.81892       -0.79         3.148E-5      65.45         1.479E-5      -88.61        0.99939       -0.09          
16.4992       0.81897       -0.82         3.953E-5      136.09        3.754E-5      -33.15        0.99936       -0.09          
17.0992       0.81885       -0.85         6.152E-5      60.03         9.32E-6       157.76        0.99938       -0.09          
17.6991       0.81888       -0.88         7.032E-5      122.65        1.358E-5      172.79        0.99937       -0.09          
18.2991       0.81883       -0.93         4.145E-5      178.99        6.386E-6      -106.28       0.99933       -0.08          
18.8991       0.81869       -0.98         8.628E-6      -59.97        2.427E-5      87.93         0.99938       -0.09          
19.4990       0.81881       -1.02         4.543E-5      -41.20        2.75E-5       -47.56        0.99943       -0.09          
20.0990       0.81879       -1.06         2.549E-5      -1.70         3.302E-6      155.41        0.99939       -0.09          
20.6990       0.81877       -1.10         6.226E-5      -34.67        9.651E-6      65.27         0.9994        -0.09          
21.2990       0.81872       -1.14         4.848E-5      -147.34       1.669E-5      64.03         0.99943       -0.09          
21.8989       0.81869       -1.18         3.274E-5      -80.61        4.522E-5      88.38         0.99948       -0.09          
22.4989       0.81869       -1.22         9.559E-5      -132.23       1.659E-5      -1.66         0.99946       -0.09          
23.0989       0.8186        -1.25         3.78E-5       130.66        1.468E-5      9.37          0.99946       -0.10          
23.6988       0.81868       -1.29         2.012E-5      78.50         3.945E-5      -12.20        0.9995        -0.10          
24.2988       0.81862       -1.34         1.939E-5      8.52          2.052E-5      -5.79         0.99944       -0.10          
24.8988       0.81862       -1.38         1.815E-5      -148.02       2.407E-5      21.61         0.9995        -0.10          
25.4987       0.81867       -1.41         5.445E-5      5.14          5.081E-5      -37.59        0.99947       -0.10          
26.0987       0.81864       -1.45         6.948E-5      147.48        6.27E-5       59.35         0.99945       -0.09          
26.6987       0.81865       -1.49         2.529E-5      -163.24       1.998E-5      164.27        0.99948       -0.10          
27.2987       0.8186        -1.53         5.69E-5       17.41         6.241E-5      51.42         0.99955       -0.10          
27.8986       0.81858       -1.57         2.266E-5      -109.30       2.934E-5      27.25         0.9994        -0.10          
28.4986       0.81853       -1.61         1.962E-5      16.22         1.193E-5      -80.37        0.99954       -0.11          
29.0986       0.81858       -1.65         8.829E-6      -25.35        3.648E-5      -41.43        0.99964       -0.11          
29.6985       0.81841       -1.68         2.133E-5      139.77        1.013E-5      -21.86        0.9995        -0.11          
30.2985       0.81846       -1.72         2.208E-5      141.65        1.171E-5      -37.91        0.99956       -0.11          
30.8985       0.81849       -1.76         3.844E-5      -49.37        2.703E-5      134.95        0.9995        -0.11          
31.4984       0.81845       -1.79         6.828E-5      91.88         5.233E-5      -153.99       0.9995        -0.11          
32.0984       0.81851       -1.83         3.016E-5      -111.01       6.609E-6      93.79         0.99952       -0.11          
32.6984       0.81844       -1.87         5.628E-6      -136.23       1.106E-5      33.83         0.9995        -0.12          
33.2984       0.81861       -1.91         1.258E-5      -66.19        3.177E-5      -174.15       0.99952       -0.11          
33.8983       0.81852       -1.95         4.995E-5      6.30          5.669E-6      -14.87        0.99952       -0.12          
34.4983       0.81828       -1.98         1.253E-5      -1.93         1.692E-5      40.96         0.99957       -0.11          
35.0983       0.81846       -2.02         4.693E-5      -109.76       3.54E-5       -49.82        0.99953       -0.12          
35.6982       0.81836       -2.05         7.074E-5      -78.92        3.117E-5      103.08        0.99955       -0.12          
36.2982       0.8184        -2.08         4.488E-5      -132.18       8.079E-6      -42.42        0.99959       -0.12          
36.8982       0.81838       -2.12         7.422E-5      -150.80       2.865E-5      6.05          0.99942       -0.12          
37.4981       0.81841       -2.15         3.17E-5       176.27        3.12E-5       86.82         0.99952       -0.12          
38.0981       0.81838       -2.19         9.851E-6      -69.58        1.921E-5      161.90        0.99957       -0.13          
38.6981       0.81838       -2.22         2.605E-5      4.14          2.983E-5      96.27         0.99954       -0.13          
39.2981       0.81837       -2.27         3.239E-5      165.80        8.936E-6      -142.71       0.99949       -0.13          
39.8980       0.81846       -2.29         3.029E-5      -111.04       3.452E-5      -73.46        0.9995        -0.13          
40.4980       0.81836       -2.34         1.677E-5      -88.28        5.121E-5      49.98         0.99957       -0.13          
41.0980       0.81836       -2.39         4.411E-5      -70.09        2.662E-5      -66.65        0.99956       -0.14          
41.6979       0.81833       -2.41         3.329E-5      46.13         3.336E-6      20.96         0.99966       -0.14          
42.2979       0.81842       -2.46         4.099E-5      56.90         1.815E-5      18.25         0.99955       -0.14          
42.8979       0.81832       -2.49         5.922E-5      170.23        2.867E-5      117.21        0.99962       -0.14          
43.4978       0.81826       -2.52         3.921E-5      110.42        1.629E-5      133.59        0.99958       -0.15          
44.0978       0.8183        -2.56         2.043E-5      -41.39        2.115E-5      -36.47        0.99957       -0.14          
44.6978       0.81818       -2.58         1.393E-5      173.47        1.135E-5      42.60         0.99958       -0.15          
45.2978       0.81836       -2.63         4.331E-5      11.21         2.078E-5      128.55        0.99964       -0.15          
45.8977       0.81836       -2.66         4.135E-5      155.38        4.063E-5      -38.96        0.9996        -0.15          
46.4977       0.81822       -2.70         5.161E-5      140.59        1.462E-5      12.75         0.99956       -0.15          
47.0977       0.81824       -2.72         7.854E-5      58.86         3.996E-5      29.99         0.99967       -0.15          
47.6976       0.81809       -2.75         4.144E-5      62.15         4.463E-5      146.50        0.99968       -0.16          
48.2976       0.81816       -2.80         4.189E-5      29.57         3.651E-5      171.60        0.99972       -0.16          
48.8976       0.81808       -2.83         4.526E-5      77.18         4.003E-5      -158.66       0.99965       -0.16          
49.4975       0.8181        -2.86         1.593E-5      18.01         4.824E-5      84.61         0.99963       -0.16          
50.0975       0.81811       -2.91         9.591E-6      72.19         3.244E-5      -133.89       0.99963       -0.16          
50.6975       0.81812       -2.93         1.323E-5      172.88        4.895E-6      -178.87       0.99961       -0.16          
51.2975       0.81812       -2.96         2.518E-5      10.63         1.156E-5      -85.53        0.99969       -0.17          
51.8974       0.81823       -3.01         5.715E-5      53.63         1.463E-5      145.34        0.99962       -0.17          
52.4974       0.82045       -3.03         4.814E-5      53.63         2.617E-5      43.21         0.99962       -0.17          
53.0974       0.81804       -3.08         7.25E-6       150.29        3.995E-5      -144.42       0.99968       -0.17          
53.6973       0.81814       -3.10         4.56E-5       90.32         8.413E-6      -136.80       0.99967       -0.17          
54.2973       0.81807       -3.13         4.473E-5      146.34        1.983E-5      -51.27        0.99962       -0.18          
54.8973       0.81806       -3.18         3.765E-5      -171.18       3.227E-5      -61.76        0.99965       -0.18          
55.4972       0.81806       -3.20         3.294E-5      128.02        2.356E-5      -103.33       0.99965       -0.18          
56.0972       0.81817       -3.24         6.611E-5      34.50         3.432E-5      43.77         0.99962       -0.18          
56.6972       0.81817       -3.29         5.403E-5      -22.51        3.73E-6       -148.02       0.99968       -0.18          
57.2972       0.81808       -3.33         2.115E-5      -22.33        4.57E-7       -84.73        0.99969       -0.18          
57.8971       0.81809       -3.36         3.939E-5      22.40         1.651E-5      128.90        0.99966       -0.19          
58.4971       0.81798       -3.38         2.053E-5      -99.04        2.60E-5       31.68         0.99968       -0.19          
59.0971       0.81803       -3.44         3.694E-5      -30.06        1.688E-5      88.63         0.99967       -0.19          
59.6970       0.818         -3.46         3.591E-5      112.74        4.053E-5      21.04         0.99966       -0.19          
60.2970       0.81794       -3.50         4.959E-5      137.00        1.497E-5      -107.33       0.99969       -0.19          
60.8970       0.81788       -3.53         4.197E-5      -153.91       1.247E-5      -19.64        0.99967       -0.19          
61.4969       0.81787       -3.56         3.175E-5      -163.44       2.076E-5      -14.10        0.99969       -0.20          
62.0969       0.81792       -3.59         2.335E-5      -66.32        2.852E-5      119.62        0.99971       -0.20          
62.6969       0.81791       -3.64         1.562E-5      -43.02        2.005E-5      -7.16         0.99965       -0.20          
63.2969       0.81784       -3.67         3.586E-5      131.81        4.427E-6      -96.01        0.99964       -0.20          
63.8968       0.81767       -3.70         6.963E-5      134.76        1.382E-5      -15.62        0.99965       -0.20          
64.4968       0.8177        -3.74         3.173E-5      -21.96        2.234E-5      140.69        0.99971       -0.21          
65.0968       0.81764       -3.77         5.154E-5      161.31        2.316E-5      89.69         0.99972       -0.21          
65.6967       0.81764       -3.80         3.47E-5       -84.64        3.033E-5      4.73          0.9997        -0.21          
66.2967       0.8176        -3.84         5.213E-5      -46.20        1.266E-5      -48.52        0.99964       -0.21          
66.8967       0.81767       -3.87         4.019E-5      146.65        3.055E-5      -43.41        0.99975       -0.21          
67.4966       0.8178        -3.90         3.792E-5      121.46        2.24E-5       173.88        0.99964       -0.21          
68.0966       0.8178        -3.93         2.531E-5      27.04         1.479E-5      -13.70        0.99967       -0.21          
68.6966       0.81769       -3.99         4.706E-5      38.75         4.46E-6       69.54         0.99967       -0.21          
69.2966       0.81766       -4.01         1.631E-5      -61.85        7.042E-6      -115.48       0.99969       -0.22          
69.8965       0.81766       -4.05         3.312E-5      -74.90        3.293E-5      44.46         0.99972       -0.22          
70.4965       0.81762       -4.09         3.538E-5      22.90         2.199E-5      -146.62       0.99972       -0.22          
71.0965       0.81758       -4.13         3.958E-6      -146.64       1.408E-5      105.35        0.99965       -0.22          
71.6964       0.8176        -4.16         3.146E-5      42.93         1.883E-5      -159.36       0.9997        -0.22          
72.2964       0.81749       -4.20         3.621E-5      139.87        8.069E-6      3.90          0.9997        -0.22          
72.8964       0.81742       -4.24         1.813E-5      -176.51       1.122E-5      143.20        0.99976       -0.23          
73.4963       0.81745       -4.27         1.72E-5       -99.42        3.058E-5      -20.63        0.99969       -0.23          
74.0963       0.81748       -4.31         6.713E-5      -137.32       3.218E-5      74.59         0.99967       -0.22          
74.6963       0.81752       -4.36         7.476E-6      -48.21        2.041E-5      -84.31        0.99971       -0.23          
75.2963       0.81749       -4.39         2.984E-5      139.61        5.403E-5      -90.89        0.99968       -0.23          
75.8962       0.81739       -4.43         4.245E-5      -178.74       1.986E-5      178.44        0.99971       -0.23          
76.4962       0.81731       -4.46         2.512E-5      -59.76        3.079E-5      106.05        0.99966       -0.23          
77.0962       0.81732       -4.50         1.875E-5      150.87        2.454E-5      164.47        0.99971       -0.23          
77.6961       0.81726       -4.53         3.615E-5      151.44        1.693E-5      96.52         0.99969       -0.23          
78.2961       0.81731       -4.57         4.241E-5      -23.25        1.082E-5      116.61        0.99976       -0.23          
78.8961       0.81719       -4.60         5.714E-5      42.28         1.504E-5      -161.82       0.99964       -0.23          
79.4960       0.81709       -4.64         6.037E-5      -141.68       1.331E-5      129.98        0.99966       -0.23          
80.0960       0.81715       -4.67         1.426E-5      -159.26       9.037E-6      -96.77        0.99966       -0.23          
80.6960       0.81719       -4.70         7.078E-5      -162.84       2.177E-5      -103.00       0.99967       -0.23          
81.2960       0.81707       -4.75         1.767E-5      156.33        3.371E-5      77.74         0.99969       -0.23          
81.8959       0.81706       -4.79         3.477E-5      18.90         1.968E-5      50.41         0.99971       -0.23          
82.4959       0.81711       -4.82         5.781E-6      81.87         1.036E-5      104.66        0.99967       -0.23          
83.0959       0.81705       -4.86         2.18E-5       90.79         3.562E-5      -169.19       0.99967       -0.24          
83.6958       0.81692       -4.88         4.595E-5      128.49        8.572E-6      -89.68        0.99964       -0.24          
84.2958       0.81692       -4.93         3.067E-5      -128.99       2.315E-5      131.29        0.9997        -0.24          
84.8958       0.81693       -4.97         2.526E-5      -67.16        2.514E-5      -168.35       0.99966       -0.24          
85.4957       0.81679       -5.00         2.345E-5      145.43        4.858E-5      78.22         0.99968       -0.24          
86.0957       0.81701       -5.04         3.233E-5      -88.92        8.529E-6      -104.67       0.9996        -0.25          
86.6957       0.81684       -5.07         2.295E-5      -81.25        1.107E-5      -75.65        0.99961       -0.25          
87.2957       0.81679       -5.11         4.473E-5      106.59        1.159E-5      113.00        0.99971       -0.24          
87.8956       0.81684       -5.15         2.079E-5      -45.44        9.522E-6      -112.56       0.99962       -0.25          
88.4956       0.81685       -5.19         5.53E-5       60.80         3.117E-5      -175.50       0.99966       -0.25          
89.0956       0.81682       -5.22         7.993E-5      141.06        4.351E-5      -69.88        0.99963       -0.25          
89.6955       0.81672       -5.27         4.369E-5      105.15        3.693E-5      60.07         0.99961       -0.25          
90.2955       0.81672       -5.30         1.822E-5      -122.14       1.695E-5      55.59         0.99963       -0.25          
90.8955       0.81661       -5.34         7.129E-5      -125.79       1.735E-5      153.21        0.99962       -0.26          
91.4954       0.81657       -5.38         6.136E-5      -116.54       8.70E-6       -30.62        0.99962       -0.26          
92.0954       0.81662       -5.42         3.937E-5      152.68        1.037E-5      177.99        0.99964       -0.25          
