!    8/6/2020   01:05:33 
! Ref Plane: 0.000 mm
# MHZ S MA R  50
!
0.3000        0.00277       35.46         9.995E-1      -0.42         9.937E-1      0.08          0.0018        22.57          
0.9000        0.00336       51.21         9.999E-1      -1.01         9.958E-1      -0.70         0.00239       39.71          
1.4999        0.00413       54.11         9.999E-1      -1.58         9.974E-1      -1.50         0.00318       45.47          
2.0999        0.00488       54.99         9.99E-1       -2.21         9.977E-1      -2.18         0.0039        49.48          
2.6999        0.0056        54.92         9.983E-1      -2.89         9.979E-1      -2.85         0.00463       50.23          
3.2999        0.0064        54.22         9.976E-1      -3.53         9.973E-1      -3.54         0.00533       48.48          
3.8998        0.00691       53.22         9.97E-1       -4.20         9.97E-1       -4.18         0.00599       48.87          
4.4998        0.00755       51.82         9.964E-1      -4.87         9.966E-1      -4.84         0.00657       47.52          
5.0998        0.00802       50.56         9.959E-1      -5.52         9.962E-1      -5.50         0.00714       45.76          
5.6997        0.00849       48.79         9.953E-1      -6.17         9.957E-1      -6.15         0.00777       45.50          
6.2997        0.00904       47.51         9.949E-1      -6.82         9.954E-1      -6.81         0.00822       43.69          
6.8997        0.00946       45.90         9.942E-1      -7.46         9.95E-1       -7.45         0.00862       42.56          
7.4996        0.00982       44.34         9.938E-1      -8.10         9.945E-1      -8.10         0.00911       40.85          
8.0996        0.0102        42.75         9.935E-1      -8.75         9.944E-1      -8.74         0.00956       39.27          
8.6996        0.01043       41.28         9.93E-1       -9.41         9.94E-1       -9.38         0.00991       37.62          
9.2996        0.01086       40.13         9.927E-1      -10.06        9.934E-1      -10.03        0.01022       36.25          
9.8995        0.01117       38.36         9.924E-1      -10.70        9.933E-1      -10.67        0.01056       34.94          
10.4995       0.01139       37.12         9.918E-1      -11.34        9.929E-1      -11.34        0.01087       33.50          
11.0995       0.0116        35.93         9.915E-1      -11.98        9.925E-1      -11.97        0.01114       32.00          
11.6994       0.01181       34.83         9.911E-1      -12.62        9.922E-1      -12.61        0.0114        30.97          
12.2994       0.01204       33.39         9.909E-1      -13.28        9.919E-1      -13.25        0.0117        29.82          
12.8994       0.01222       31.89         9.906E-1      -13.92        9.918E-1      -13.89        0.0119        28.61          
13.4993       0.01246       30.62         9.904E-1      -14.55        9.913E-1      -14.53        0.01213       27.37          
14.0993       0.01266       29.52         9.902E-1      -15.20        9.911E-1      -15.19        0.01241       25.93          
14.6993       0.01279       28.16         9.90E-1       -15.86        9.908E-1      -15.83        0.01254       24.88          
15.2993       0.01298       27.17         9.895E-1      -16.50        9.906E-1      -16.47        0.01276       23.69          
15.8992       0.01308       26.08         9.895E-1      -17.13        9.903E-1      -17.13        0.01294       22.54          
16.4992       0.01323       25.28         9.893E-1      -17.78        9.904E-1      -17.74        0.01311       21.79          
17.0992       0.0134        23.63         9.891E-1      -18.41        9.90E-1       -18.38        0.01332       20.74          
17.6991       0.01354       22.78         9.889E-1      -19.05        9.90E-1       -19.02        0.01356       19.89          
18.2991       0.01361       21.67         9.888E-1      -19.70        9.898E-1      -19.69        0.0136        18.48          
18.8991       0.01375       20.45         9.884E-1      -20.35        9.894E-1      -20.32        0.01386       17.53          
19.4990       0.01392       19.33         9.883E-1      -20.99        9.894E-1      -20.96        0.01396       16.89          
20.0990       0.01401       18.32         9.882E-1      -21.63        9.892E-1      -21.60        0.01413       15.62          
20.6990       0.01408       17.31         9.881E-1      -22.27        9.891E-1      -22.23        0.01425       14.29          
21.2990       0.01426       16.22         9.879E-1      -22.90        9.889E-1      -22.89        0.01442       13.27          
21.8989       0.01436       15.14         9.876E-1      -23.54        9.888E-1      -23.53        0.01456       12.35          
22.4989       0.01442       14.11         9.876E-1      -24.17        9.887E-1      -24.16        0.01469       11.20          
23.0989       0.01454       13.07         9.872E-1      -24.81        9.885E-1      -24.80        0.0148        10.51          
23.6988       0.01468       11.92         9.874E-1      -25.44        9.884E-1      -25.43        0.01493       9.06           
24.2988       0.01476       10.84         9.873E-1      -26.10        9.883E-1      -26.07        0.0151        8.41           
24.8988       0.01493       9.91          9.872E-1      -26.74        9.882E-1      -26.70        0.01523       7.02           
25.4987       0.01487       8.79          9.87E-1       -27.36        9.882E-1      -27.34        0.01537       6.35           
26.0987       0.01505       7.75          9.87E-1       -28.00        9.881E-1      -27.97        0.01539       5.15           
26.6987       0.01514       6.76          9.869E-1      -28.63        9.879E-1      -28.63        0.01554       4.43           
27.2987       0.01527       5.41          9.866E-1      -29.26        9.879E-1      -29.26        0.01571       3.04           
27.8986       0.01531       4.51          9.867E-1      -29.90        9.878E-1      -29.90        0.01578       2.35           
28.4986       0.0153        3.54          9.867E-1      -30.53        9.876E-1      -30.52        0.01588       1.18           
29.0986       0.01557       2.50          9.865E-1      -31.18        9.875E-1      -31.16        0.01599       0.44           
29.6985       0.01558       1.63          9.862E-1      -31.81        9.873E-1      -31.79        0.01613       -0.55          
30.2985       0.01565       0.56          9.863E-1      -32.45        9.872E-1      -32.43        0.0162        -1.42          
30.8985       0.01572       -0.30         9.861E-1      -33.08        9.87E-1       -33.07        0.01632       -2.64          
31.4984       0.01583       -1.44         9.859E-1      -33.72        9.868E-1      -33.70        0.01636       -3.29          
32.0984       0.01583       -2.31         9.858E-1      -34.35        9.867E-1      -34.36        0.01655       -4.35          
32.6984       0.01591       -3.42         9.856E-1      -34.99        9.866E-1      -34.99        0.01657       -5.44          
33.2984       0.01609       -4.27         9.855E-1      -35.65        9.868E-1      -35.63        0.01674       -6.21          
33.8983       0.01609       -5.14         9.857E-1      -36.29        9.864E-1      -36.27        0.0168        -6.98          
34.4983       0.01611       -6.10         9.854E-1      -36.93        9.863E-1      -36.92        0.01686       -7.63          
35.0983       0.01614       -7.01         9.852E-1      -37.57        9.864E-1      -37.56        0.01706       -8.93          
35.6982       0.01631       -7.77         9.85E-1       -38.20        9.859E-1      -38.19        0.01703       -9.71          
36.2982       0.01635       -8.74         9.847E-1      -38.82        9.86E-1       -38.82        0.01717       -10.39         
36.8982       0.01646       -9.67         9.845E-1      -39.47        9.857E-1      -39.45        0.0173        -11.30         
37.4981       0.01651       -10.52        9.845E-1      -40.09        9.855E-1      -40.08        0.01738       -12.29         
38.0981       0.01666       -11.48        9.843E-1      -40.72        9.851E-1      -40.71        0.01745       -13.32         
38.6981       0.0167        -12.20        9.839E-1      -41.35        9.852E-1      -41.34        0.01755       -13.89         
39.2981       0.01676       -13.04        9.839E-1      -42.00        9.848E-1      -41.97        0.01767       -14.71         
39.8980       0.01681       -13.83        9.838E-1      -42.61        9.849E-1      -42.60        0.0177        -15.61         
40.4980       0.01694       -14.71        9.834E-1      -43.24        9.846E-1      -43.25        0.01781       -16.73         
41.0980       0.01696       -15.54        9.834E-1      -43.89        9.846E-1      -43.88        0.01801       -17.41         
41.6979       0.01709       -16.31        9.832E-1      -44.50        9.844E-1      -44.51        0.01795       -18.03         
42.2979       0.01717       -16.85        9.829E-1      -45.15        9.841E-1      -45.14        0.01812       -18.98         
42.8979       0.01725       -17.43        9.827E-1      -45.78        9.839E-1      -45.77        0.01817       -19.47         
43.4978       0.0174        -17.98        9.825E-1      -46.41        9.837E-1      -46.40        0.01825       -20.40         
44.0978       0.01744       -18.84        9.825E-1      -47.05        9.836E-1      -47.03        0.01841       -21.16         
44.6978       0.0175        -19.35        9.821E-1      -47.68        9.833E-1      -47.64        0.01853       -21.83         
45.2978       0.01753       -20.06        9.821E-1      -48.31        9.834E-1      -48.29        0.01862       -22.45         
45.8977       0.01767       -20.92        9.818E-1      -48.94        9.831E-1      -48.92        0.01874       -23.13         
46.4977       0.01779       -21.27        9.817E-1      -49.58        9.827E-1      -49.55        0.01883       -23.82         
47.0977       0.01781       -21.88        9.814E-1      -50.21        9.822E-1      -50.24        0.01871       -24.07         
47.6976       0.01792       -22.86        9.812E-1      -50.86        9.821E-1      -50.85        0.01878       -24.83         
48.2976       0.01801       -23.20        9.81E-1       -51.50        9.822E-1      -51.51        0.0189        -25.71         
48.8976       0.01808       -24.21        9.808E-1      -52.14        9.819E-1      -52.14        0.019         -26.43         
49.4975       0.01819       -24.67        9.807E-1      -52.77        9.817E-1      -52.77        0.01906       -27.30         
50.0975       0.01833       -25.54        9.804E-1      -53.42        9.817E-1      -53.40        0.01921       -28.02         
50.6975       0.01834       -26.14        9.803E-1      -54.04        9.817E-1      -54.03        0.01926       -28.76         
51.2975       0.01831       -26.75        9.799E-1      -54.65        9.819E-1      -54.69        0.01936       -29.34         
51.8974       0.01847       -27.56        9.794E-1      -55.27        9.822E-1      -55.36        0.01946       -30.30         
52.4974       0.01853       -28.27        9.772E-1      -55.74        9.898E-1      -56.11        0.01946       -31.42         
53.0974       0.01855       -28.91        9.816E-1      -56.65        9.811E-1      -56.56        0.01996       -31.46         
53.6973       0.01863       -29.65        9.797E-1      -57.23        9.809E-1      -57.20        0.01998       -32.37         
54.2973       0.01866       -30.52        9.796E-1      -57.86        9.807E-1      -57.83        0.02007       -33.16         
54.8973       0.01867       -31.30        9.795E-1      -58.50        9.805E-1      -58.48        0.02015       -34.07         
55.4972       0.01873       -32.10        9.793E-1      -59.13        9.805E-1      -59.10        0.0202        -34.63         
56.0972       0.01875       -32.93        9.794E-1      -59.77        9.804E-1      -59.73        0.02027       -35.63         
56.6972       0.01876       -33.89        9.793E-1      -60.40        9.802E-1      -60.39        0.02027       -36.57         
57.2972       0.01869       -34.88        9.792E-1      -61.03        9.801E-1      -61.02        0.0203        -37.48         
57.8971       0.01879       -35.76        9.79E-1       -61.67        9.80E-1       -61.65        0.02039       -38.21         
58.4971       0.01871       -36.60        9.787E-1      -62.30        9.798E-1      -62.27        0.02044       -39.06         
59.0971       0.01869       -37.50        9.787E-1      -62.95        9.796E-1      -62.92        0.02046       -39.87         
59.6970       0.01865       -38.39        9.786E-1      -63.56        9.795E-1      -63.56        0.02054       -40.75         
60.2970       0.01863       -39.01        9.784E-1      -64.22        9.794E-1      -64.19        0.02048       -41.83         
60.8970       0.0186        -40.15        9.783E-1      -64.85        9.792E-1      -64.81        0.02049       -42.54         
61.4969       0.01852       -40.96        9.782E-1      -65.49        9.791E-1      -65.44        0.02044       -43.26         
62.0969       0.01848       -41.92        9.781E-1      -66.12        9.792E-1      -66.07        0.02051       -44.23         
62.6969       0.01842       -42.65        9.78E-1       -66.74        9.791E-1      -66.73        0.02052       -45.10         
63.2969       0.0183        -43.51        9.778E-1      -67.38        9.789E-1      -67.36        0.02052       -45.84         
63.8968       0.01823       -44.26        9.778E-1      -68.02        9.787E-1      -67.99        0.02041       -46.58         
64.4968       0.01811       -45.17        9.776E-1      -68.65        9.787E-1      -68.62        0.02042       -47.48         
65.0968       0.01811       -45.87        9.775E-1      -69.28        9.785E-1      -69.26        0.02042       -48.39         
65.6967       0.01806       -46.79        9.774E-1      -69.91        9.783E-1      -69.89        0.02038       -49.08         
66.2967       0.01793       -47.46        9.773E-1      -70.54        9.782E-1      -70.54        0.0203        -49.82         
66.8967       0.01788       -48.34        9.773E-1      -71.18        9.783E-1      -71.15        0.02031       -50.60         
67.4966       0.01779       -48.96        9.773E-1      -71.81        9.781E-1      -71.78        0.02026       -51.51         
68.0966       0.01772       -49.84        9.772E-1      -72.44        9.78E-1       -72.41        0.02022       -52.26         
68.6966       0.01759       -50.62        9.771E-1      -73.09        9.779E-1      -73.07        0.02016       -53.00         
69.2966       0.0175        -51.34        9.77E-1       -73.70        9.778E-1      -73.70        0.02015       -53.84         
69.8965       0.01744       -52.16        9.77E-1       -74.33        9.777E-1      -74.33        0.02007       -54.45         
70.4965       0.01731       -52.84        9.767E-1      -74.98        9.775E-1      -74.96        0.01998       -55.36         
71.0965       0.01728       -53.61        9.766E-1      -75.62        9.772E-1      -75.59        0.01992       -55.98         
71.6964       0.0172        -54.48        9.765E-1      -76.25        9.774E-1      -76.23        0.01993       -56.70         
72.2964       0.0171        -55.00        9.764E-1      -76.88        9.772E-1      -76.86        0.01984       -57.40         
72.8964       0.01697       -55.71        9.763E-1      -77.51        9.771E-1      -77.49        0.01978       -58.07         
73.4963       0.01694       -56.52        9.762E-1      -78.14        9.77E-1       -78.12        0.0197        -58.78         
74.0963       0.01684       -57.19        9.761E-1      -78.77        9.768E-1      -78.75        0.01968       -59.45         
74.6963       0.01674       -57.85        9.76E-1       -79.40        9.769E-1      -79.40        0.01958       -60.23         
75.2963       0.01673       -58.76        9.759E-1      -80.03        9.768E-1      -80.03        0.01953       -60.96         
75.8962       0.0166        -59.26        9.758E-1      -80.67        9.766E-1      -80.67        0.01946       -61.54         
76.4962       0.01664       -60.13        9.756E-1      -81.29        9.763E-1      -81.30        0.01941       -62.31         
77.0962       0.01653       -60.75        9.754E-1      -81.92        9.763E-1      -81.92        0.01937       -62.98         
77.6961       0.01647       -61.44        9.752E-1      -82.55        9.76E-1       -82.55        0.01933       -63.73         
78.2961       0.01641       -62.31        9.751E-1      -83.18        9.76E-1       -83.18        0.0192        -64.31         
78.8961       0.01635       -63.08        9.75E-1       -83.82        9.756E-1      -83.81        0.01917       -65.08         
79.4960       0.0163        -63.80        9.749E-1      -84.45        9.754E-1      -84.45        0.01913       -65.51         
80.0960       0.01622       -64.47        9.748E-1      -85.07        9.755E-1      -85.07        0.01907       -66.22         
80.6960       0.01618       -65.28        9.748E-1      -85.71        9.754E-1      -85.71        0.01904       -67.03         
81.2960       0.01608       -65.97        9.744E-1      -86.33        9.751E-1      -86.35        0.01899       -67.57         
81.8959       0.01606       -66.88        9.743E-1      -86.99        9.75E-1       -86.96        0.01894       -68.24         
82.4959       0.01588       -67.68        9.743E-1      -87.59        9.748E-1      -87.61        0.01888       -68.97         
83.0959       0.01586       -68.48        9.742E-1      -88.25        9.747E-1      -88.24        0.01882       -69.56         
83.6958       0.01584       -69.13        9.738E-1      -88.87        9.746E-1      -88.85        0.01882       -70.28         
84.2958       0.01579       -69.92        9.737E-1      -89.50        9.744E-1      -89.51        0.01874       -71.15         
84.8958       0.01569       -70.60        9.738E-1      -90.13        9.743E-1      -90.14        0.01872       -71.67         
85.4957       0.01559       -71.63        9.734E-1      -90.76        9.741E-1      -90.77        0.01866       -72.45         
86.0957       0.01553       -72.48        9.735E-1      -91.39        9.742E-1      -91.40        0.01864       -73.27         
86.6957       0.01553       -73.29        9.733E-1      -92.02        9.739E-1      -92.03        0.01856       -74.13         
87.2957       0.0154        -74.28        9.729E-1      -92.66        9.739E-1      -92.66        0.01857       -74.62         
87.8956       0.01534       -75.00        9.73E-1       -93.28        9.738E-1      -93.31        0.01846       -75.45         
88.4956       0.01524       -76.10        9.728E-1      -93.94        9.737E-1      -93.92        0.01833       -76.33         
89.0956       0.01517       -77.02        9.727E-1      -94.57        9.736E-1      -94.55        0.0183        -77.03         
89.6955       0.01508       -77.88        9.724E-1      -95.20        9.734E-1      -95.20        0.01824       -77.89         
90.2955       0.01495       -78.92        9.725E-1      -95.83        9.732E-1      -95.83        0.01822       -78.61         
90.8955       0.01486       -79.73        9.722E-1      -96.46        9.731E-1      -96.47        0.01816       -79.34         
91.4954       0.01472       -80.75        9.721E-1      -97.09        9.73E-1       -97.10        0.01803       -79.99         
92.0954       0.01464       -81.78        9.721E-1      -97.73        9.728E-1      -97.73        0.01797       -80.95         
