!    8/6/2020   03:29:03 
! Ref Plane: 0.000 mm
# MHZ S MA R  50
!
0.3000        0.04777       178.87        9.885E-2      -1.05         9.643E-2      -0.96         0.8152        -0.41          
0.9000        0.04778       179.17        9.502E-2      -0.49         9.526E-2      -0.32         0.80916       -0.51          
1.4999        0.04781       179.23        9.518E-2      -0.33         9.539E-2      -0.45         0.80903       -0.66          
2.0999        0.04776       179.38        9.521E-2      -0.49         9.536E-2      -0.56         0.80919       -0.85          
2.6999        0.0478        179.56        9.523E-2      -0.64         9.539E-2      -0.70         0.80916       -1.02          
3.2999        0.04779       179.83        9.524E-2      -0.72         9.54E-2       -0.86         0.80942       -1.19          
3.8998        0.04786       -180.00       9.519E-2      -0.89         9.539E-2      -1.00         0.80935       -1.37          
4.4998        0.04784       -179.83       9.522E-2      -1.04         9.541E-2      -1.13         0.80944       -1.52          
5.0998        0.0479        -179.53       9.52E-2       -1.16         9.539E-2      -1.24         0.80944       -1.69          
5.6997        0.04791       -179.28       9.52E-2       -1.29         9.544E-2      -1.40         0.80958       -1.87          
6.2997        0.04794       -179.19       9.516E-2      -1.45         9.542E-2      -1.53         0.80938       -2.06          
6.8997        0.04798       -178.95       9.52E-2       -1.63         9.542E-2      -1.66         0.80961       -2.23          
7.4996        0.04803       -178.69       9.52E-2       -1.71         9.542E-2      -1.80         0.80955       -2.42          
8.0996        0.04809       -178.54       9.519E-2      -1.88         9.544E-2      -1.96         0.80936       -2.60          
8.6996        0.04807       -178.33       9.519E-2      -1.98         9.546E-2      -2.06         0.80959       -2.77          
9.2996        0.0481        -178.07       9.524E-2      -2.17         9.546E-2      -2.23         0.80971       -2.95          
9.8995        0.04809       -177.87       9.52E-2       -2.32         9.547E-2      -2.35         0.80936       -3.11          
10.4995       0.04817       -177.69       9.519E-2      -2.44         9.545E-2      -2.51         0.80974       -3.29          
11.0995       0.04822       -177.43       9.522E-2      -2.59         9.55E-2       -2.63         0.80983       -3.47          
11.6994       0.04821       -177.22       9.523E-2      -2.71         9.548E-2      -2.76         0.8099        -3.65          
12.2994       0.04823       -176.99       9.518E-2      -2.86         9.548E-2      -2.90         0.80982       -3.82          
12.8994       0.04825       -176.80       9.523E-2      -2.93         9.548E-2      -3.05         0.80978       -3.98          
13.4993       0.04828       -176.56       9.532E-2      -3.15         9.548E-2      -3.21         0.80994       -4.18          
14.0993       0.04835       -176.40       9.525E-2      -3.24         9.547E-2      -3.35         0.80995       -4.33          
14.6993       0.04835       -176.18       9.524E-2      -3.42         9.553E-2      -3.49         0.80982       -4.50          
15.2993       0.04838       -176.00       9.523E-2      -3.50         9.55E-2       -3.63         0.80998       -4.68          
15.8992       0.04841       -175.83       9.527E-2      -3.65         9.548E-2      -3.78         0.81008       -4.84          
16.4992       0.04847       -175.66       9.528E-2      -3.81         9.551E-2      -3.93         0.80998       -5.03          
17.0992       0.04848       -175.39       9.529E-2      -3.91         9.55E-2       -4.06         0.81015       -5.20          
17.6991       0.04859       -175.20       9.529E-2      -4.09         9.55E-2       -4.20         0.81006       -5.39          
18.2991       0.04857       -175.05       9.529E-2      -4.22         9.552E-2      -4.34         0.81007       -5.53          
18.8991       0.04862       -174.83       9.533E-2      -4.36         9.554E-2      -4.46         0.8104        -5.70          
19.4990       0.04859       -174.64       9.537E-2      -4.52         9.553E-2      -4.62         0.81033       -5.88          
20.0990       0.04865       -174.41       9.531E-2      -4.65         9.554E-2      -4.75         0.81026       -6.06          
20.6990       0.0487        -174.23       9.536E-2      -4.81         9.558E-2      -4.87         0.8103        -6.22          
21.2990       0.0487        -173.99       9.534E-2      -4.93         9.559E-2      -5.04         0.81019       -6.39          
21.8989       0.04876       -173.85       9.537E-2      -5.09         9.56E-2       -5.16         0.81028       -6.57          
22.4989       0.0488        -173.65       9.535E-2      -5.24         9.567E-2      -5.30         0.81035       -6.74          
23.0989       0.04886       -173.50       9.535E-2      -5.36         9.566E-2      -5.46         0.81048       -6.92          
23.6988       0.04885       -173.21       9.54E-2       -5.49         9.566E-2      -5.60         0.81013       -7.09          
24.2988       0.0489        -173.06       9.542E-2      -5.60         9.562E-2      -5.73         0.81015       -7.26          
24.8988       0.04898       -172.90       9.54E-2       -5.79         9.564E-2      -5.89         0.81006       -7.43          
25.4987       0.04899       -172.70       9.542E-2      -5.90         9.562E-2      -6.03         0.81008       -7.60          
26.0987       0.04901       -172.47       9.536E-2      -6.04         9.567E-2      -6.15         0.80993       -7.78          
26.6987       0.04909       -172.31       9.543E-2      -6.17         9.565E-2      -6.30         0.8098        -7.94          
27.2987       0.04912       -172.09       9.55E-2       -6.32         9.566E-2      -6.43         0.80958       -8.12          
27.8986       0.04912       -171.95       9.548E-2      -6.48         9.563E-2      -6.56         0.80935       -8.27          
28.4986       0.04918       -171.71       9.552E-2      -6.61         9.567E-2      -6.72         0.80936       -8.46          
29.0986       0.04925       -171.68       9.551E-2      -6.73         9.567E-2      -6.86         0.8091        -8.62          
29.6985       0.0493        -171.42       9.55E-2       -6.87         9.567E-2      -6.97         0.80898       -8.80          
30.2985       0.04927       -171.25       9.548E-2      -7.03         9.568E-2      -7.15         0.80873       -8.97          
30.8985       0.04934       -171.02       9.552E-2      -7.17         9.567E-2      -7.26         0.80874       -9.15          
31.4984       0.04938       -170.87       9.547E-2      -7.28         9.565E-2      -7.40         0.80866       -9.31          
32.0984       0.04944       -170.75       9.553E-2      -7.44         9.571E-2      -7.55         0.80865       -9.49          
32.6984       0.04946       -170.52       9.553E-2      -7.57         9.572E-2      -7.66         0.80852       -9.66          
33.2984       0.04948       -170.40       9.555E-2      -7.71         9.57E-2       -7.83         0.80849       -9.81          
33.8983       0.04954       -170.21       9.56E-2       -7.84         9.574E-2      -7.96         0.80862       -9.97          
34.4983       0.04958       -170.02       9.56E-2       -7.98         9.577E-2      -8.08         0.80871       -10.13         
35.0983       0.04957       -169.88       9.563E-2      -8.13         9.58E-2       -8.26         0.80878       -10.31         
35.6982       0.04963       -169.71       9.564E-2      -8.25         9.579E-2      -8.37         0.80894       -10.47         
36.2982       0.04969       -169.54       9.566E-2      -8.43         9.578E-2      -8.54         0.80892       -10.67         
36.8982       0.04973       -169.36       9.567E-2      -8.56         9.578E-2      -8.69         0.80884       -10.84         
37.4981       0.04976       -169.27       9.568E-2      -8.69         9.582E-2      -8.81         0.80875       -11.01         
38.0981       0.04983       -169.05       9.571E-2      -8.80         9.582E-2      -8.96         0.80873       -11.21         
38.6981       0.04985       -168.89       9.575E-2      -8.95         9.582E-2      -9.10         0.80869       -11.39         
39.2981       0.04987       -168.74       9.572E-2      -9.09         9.578E-2      -9.25         0.80867       -11.56         
39.8980       0.04988       -168.56       9.572E-2      -9.26         9.582E-2      -9.42         0.80855       -11.75         
40.4980       0.04991       -168.37       9.576E-2      -9.39         9.586E-2      -9.52         0.80858       -11.91         
41.0980       0.04999       -168.21       9.578E-2      -9.54         9.59E-2       -9.69         0.80833       -12.10         
41.6979       0.04999       -168.11       9.579E-2      -9.69         9.59E-2       -9.84         0.80854       -12.29         
42.2979       0.05008       -167.95       9.578E-2      -9.83         9.593E-2      -9.97         0.80842       -12.49         
42.8979       0.05009       -167.82       9.575E-2      -9.99         9.589E-2      -10.09        0.80851       -12.67         
43.4978       0.0501        -167.63       9.578E-2      -10.11        9.594E-2      -10.25        0.80856       -12.86         
44.0978       0.05019       -167.49       9.581E-2      -10.27        9.59E-2       -10.39        0.80848       -13.06         
44.6978       0.05024       -167.43       9.579E-2      -10.42        9.596E-2      -10.55        0.80866       -13.26         
45.2978       0.05029       -167.24       9.584E-2      -10.55        9.594E-2      -10.66        0.80853       -13.45         
45.8977       0.05036       -167.05       9.586E-2      -10.71        9.597E-2      -10.82        0.80872       -13.63         
46.4977       0.05036       -166.96       9.579E-2      -10.87        9.597E-2      -10.96        0.80871       -13.83         
47.0977       0.05039       -166.76       9.589E-2      -11.03        9.601E-2      -11.11        0.80961       -14.01         
47.6976       0.05043       -166.60       9.587E-2      -11.19        9.595E-2      -11.25        0.80973       -14.19         
48.2976       0.05051       -166.54       9.592E-2      -11.33        9.598E-2      -11.38        0.80968       -14.36         
48.8976       0.05054       -166.32       9.587E-2      -11.48        9.602E-2      -11.53        0.80986       -14.56         
49.4975       0.05059       -166.20       9.59E-2       -11.62        9.608E-2      -11.67        0.8098        -14.73         
50.0975       0.05059       -166.05       9.59E-2       -11.76        9.602E-2      -11.84        0.8099        -14.91         
50.6975       0.05065       -165.86       9.59E-2       -11.91        9.606E-2      -11.98        0.80999       -15.11         
51.2975       0.05073       -165.77       9.585E-2      -12.03        9.611E-2      -12.18        0.81009       -15.31         
51.8974       0.0508        -165.63       9.579E-2      -12.15        9.621E-2      -12.33        0.81001       -15.48         
52.4974       0.05155       -165.73       9.575E-2      -12.21        9.705E-2      -12.79        0.80801       -15.67         
53.0974       0.05093       -165.10       9.512E-2      -12.08        9.609E-2      -12.59        0.80757       -15.78         
53.6973       0.05089       -165.14       9.592E-2      -12.61        9.611E-2      -12.73        0.81062       -16.05         
54.2973       0.05095       -165.06       9.593E-2      -12.77        9.612E-2      -12.89        0.81055       -16.23         
54.8973       0.05101       -164.92       9.594E-2      -12.95        9.612E-2      -13.02        0.81054       -16.40         
55.4972       0.05106       -164.80       9.598E-2      -13.04        9.613E-2      -13.15        0.81068       -16.58         
56.0972       0.0511        -164.63       9.596E-2      -13.19        9.614E-2      -13.29        0.81053       -16.77         
56.6972       0.05115       -164.44       9.596E-2      -13.34        9.611E-2      -13.40        0.81056       -16.93         
57.2972       0.05123       -164.26       9.598E-2      -13.48        9.614E-2      -13.55        0.81056       -17.12         
57.8971       0.05124       -164.10       9.60E-2       -13.61        9.616E-2      -13.70        0.81059       -17.30         
58.4971       0.0513        -164.00       9.605E-2      -13.75        9.619E-2      -13.86        0.81078       -17.49         
59.0971       0.05137       -163.86       9.604E-2      -13.90        9.623E-2      -14.00        0.81072       -17.66         
59.6970       0.05141       -163.67       9.609E-2      -14.02        9.627E-2      -14.14        0.81097       -17.85         
60.2970       0.05143       -163.53       9.609E-2      -14.17        9.625E-2      -14.29        0.81093       -18.03         
60.8970       0.05152       -163.35       9.613E-2      -14.31        9.633E-2      -14.44        0.81102       -18.21         
61.4969       0.05155       -163.25       9.613E-2      -14.43        9.631E-2      -14.59        0.81088       -18.40         
62.0969       0.05164       -163.09       9.621E-2      -14.60        9.636E-2      -14.71        0.81071       -18.58         
62.6969       0.05166       -163.01       9.623E-2      -14.72        9.635E-2      -14.89        0.81066       -18.77         
63.2969       0.05179       -162.83       9.625E-2      -14.88        9.642E-2      -15.01        0.81073       -18.96         
63.8968       0.05186       -162.70       9.626E-2      -15.02        9.645E-2      -15.16        0.81067       -19.12         
64.4968       0.05194       -162.60       9.634E-2      -15.16        9.648E-2      -15.32        0.8107        -19.31         
65.0968       0.05197       -162.40       9.633E-2      -15.30        9.655E-2      -15.46        0.81069       -19.48         
65.6967       0.05208       -162.29       9.636E-2      -15.47        9.655E-2      -15.61        0.81072       -19.66         
66.2967       0.05208       -162.21       9.641E-2      -15.61        9.657E-2      -15.78        0.8107        -19.84         
66.8967       0.05214       -162.07       9.644E-2      -15.78        9.66E-2       -15.91        0.81056       -20.03         
67.4966       0.0522        -161.90       9.644E-2      -15.94        9.664E-2      -16.07        0.81052       -20.22         
68.0966       0.05224       -161.80       9.647E-2      -16.09        9.669E-2      -16.23        0.81055       -20.40         
68.6966       0.05235       -161.66       9.653E-2      -16.24        9.67E-2       -16.38        0.8106        -20.56         
69.2966       0.05246       -161.52       9.653E-2      -16.43        9.676E-2      -16.53        0.81053       -20.77         
69.8965       0.05251       -161.39       9.66E-2       -16.59        9.676E-2      -16.68        0.81062       -20.95         
70.4965       0.05255       -161.33       9.657E-2      -16.73        9.676E-2      -16.84        0.81076       -21.13         
71.0965       0.05259       -161.22       9.659E-2      -16.92        9.68E-2       -17.02        0.81082       -21.30         
71.6964       0.0527        -161.04       9.658E-2      -17.05        9.678E-2      -17.18        0.81074       -21.48         
72.2964       0.05273       -160.98       9.666E-2      -17.23        9.676E-2      -17.35        0.81083       -21.66         
72.8964       0.05285       -160.89       9.667E-2      -17.38        9.682E-2      -17.49        0.81082       -21.86         
73.4963       0.05294       -160.74       9.668E-2      -17.56        9.684E-2      -17.66        0.81087       -22.03         
74.0963       0.05298       -160.62       9.671E-2      -17.69        9.689E-2      -17.81        0.81099       -22.22         
74.6963       0.05301       -160.58       9.672E-2      -17.87        9.693E-2      -17.96        0.81079       -22.39         
75.2963       0.05312       -160.44       9.677E-2      -18.04        9.692E-2      -18.13        0.8109        -22.58         
75.8962       0.0532        -160.34       9.68E-2       -18.20        9.701E-2      -18.29        0.81097       -22.75         
76.4962       0.0533        -160.16       9.683E-2      -18.34        9.70E-2       -18.48        0.81123       -22.94         
77.0962       0.05336       -160.10       9.686E-2      -18.50        9.705E-2      -18.61        0.81127       -23.12         
77.6961       0.05341       -160.01       9.686E-2      -18.69        9.707E-2      -18.80        0.81156       -23.30         
78.2961       0.05353       -159.87       9.687E-2      -18.82        9.706E-2      -18.92        0.81151       -23.48         
78.8961       0.05357       -159.81       9.69E-2       -19.01        9.711E-2      -19.11        0.81171       -23.65         
79.4960       0.05363       -159.68       9.692E-2      -19.18        9.714E-2      -19.26        0.81197       -23.82         
80.0960       0.05369       -159.58       9.695E-2      -19.36        9.716E-2      -19.45        0.812         -24.01         
80.6960       0.05377       -159.52       9.697E-2      -19.51        9.718E-2      -19.60        0.81213       -24.18         
81.2960       0.05384       -159.44       9.705E-2      -19.71        9.724E-2      -19.77        0.81232       -24.35         
81.8959       0.05393       -159.31       9.705E-2      -19.86        9.723E-2      -19.94        0.81253       -24.53         
82.4959       0.05401       -159.22       9.706E-2      -20.03        9.726E-2      -20.11        0.81281       -24.71         
83.0959       0.0541        -159.09       9.707E-2      -20.22        9.725E-2      -20.29        0.81294       -24.87         
83.6958       0.05414       -158.99       9.712E-2      -20.39        9.729E-2      -20.48        0.81321       -25.06         
84.2958       0.05426       -158.89       9.714E-2      -20.58        9.729E-2      -20.64        0.81333       -25.23         
84.8958       0.05431       -158.84       9.714E-2      -20.76        9.734E-2      -20.86        0.81334       -25.40         
85.4957       0.0544        -158.81       9.721E-2      -20.95        9.734E-2      -21.07        0.81372       -25.58         
86.0957       0.05445       -158.68       9.721E-2      -21.13        9.732E-2      -21.26        0.81363       -25.77         
86.6957       0.05452       -158.52       9.722E-2      -21.32        9.738E-2      -21.45        0.81391       -25.94         
87.2957       0.0546        -158.50       9.724E-2      -21.54        9.738E-2      -21.65        0.81428       -26.12         
87.8956       0.05466       -158.47       9.722E-2      -21.74        9.733E-2      -21.85        0.81435       -26.28         
88.4956       0.05479       -158.36       9.721E-2      -21.93        9.734E-2      -22.06        0.81452       -26.45         
89.0956       0.05485       -158.33       9.722E-2      -22.15        9.731E-2      -22.27        0.81481       -26.61         
89.6955       0.0549        -158.24       9.722E-2      -22.38        9.732E-2      -22.48        0.8152        -26.78         
90.2955       0.05497       -158.21       9.721E-2      -22.59        9.729E-2      -22.70        0.81564       -26.96         
90.8955       0.05499       -158.24       9.716E-2      -22.85        9.719E-2      -22.94        0.81591       -27.13         
91.4954       0.05501       -158.18       9.706E-2      -23.11        9.714E-2      -23.22        0.8164        -27.31         
92.0954       0.05499       -158.16       9.695E-2      -23.38        9.698E-2      -23.48        0.81673       -27.48         
