!    8/6/2020   03:27:17 
! Ref Plane: 0.000 mm
# MHZ S MA R  50
!
0.3000        0.04768       179.29        9.895E-2      -1.11         9.639E-2      -0.91         0.8146        -0.42          
0.9000        0.04782       179.15        9.501E-2      -0.55         9.525E-2      -0.29         0.80921       -0.57          
1.4999        0.04783       179.29        9.516E-2      -0.37         9.534E-2      -0.37         0.80886       -0.71          
2.0999        0.04779       179.46        9.518E-2      -0.52         9.531E-2      -0.45         0.8091        -0.90          
2.6999        0.04781       179.67        9.521E-2      -0.60         9.536E-2      -0.58         0.80904       -1.06          
3.2999        0.04779       179.93        9.522E-2      -0.69         9.536E-2      -0.73         0.80928       -1.23          
3.8998        0.04787       -179.88       9.518E-2      -0.83         9.537E-2      -0.84         0.80922       -1.42          
4.4998        0.04784       -179.68       9.517E-2      -0.96         9.54E-2       -0.97         0.8093        -1.57          
5.0998        0.04793       -179.37       9.518E-2      -1.04         9.54E-2       -1.05         0.80931       -1.75          
5.6997        0.04791       -179.12       9.517E-2      -1.17         9.541E-2      -1.20         0.80949       -1.93          
6.2997        0.04795       -178.97       9.515E-2      -1.30         9.542E-2      -1.30         0.80927       -2.12          
6.8997        0.04799       -178.73       9.518E-2      -1.45         9.538E-2      -1.43         0.80942       -2.29          
7.4996        0.04803       -178.46       9.517E-2      -1.53         9.538E-2      -1.55         0.80946       -2.49          
8.0996        0.04806       -178.25       9.516E-2      -1.66         9.541E-2      -1.68         0.8092        -2.67          
8.6996        0.04807       -178.03       9.517E-2      -1.76         9.542E-2      -1.78         0.80943       -2.84          
9.2996        0.04809       -177.78       9.524E-2      -1.90         9.544E-2      -1.93         0.80958       -3.02          
9.8995        0.04809       -177.55       9.519E-2      -2.04         9.543E-2      -2.04         0.80926       -3.19          
10.4995       0.04815       -177.33       9.516E-2      -2.16         9.544E-2      -2.17         0.80965       -3.37          
11.0995       0.0482        -177.06       9.518E-2      -2.27         9.545E-2      -2.28         0.80971       -3.55          
11.6994       0.04821       -176.84       9.521E-2      -2.37         9.544E-2      -2.38         0.80978       -3.74          
12.2994       0.04824       -176.60       9.514E-2      -2.49         9.542E-2      -2.49         0.80965       -3.91          
12.8994       0.04825       -176.38       9.523E-2      -2.56         9.542E-2      -2.65         0.80968       -4.08          
13.4993       0.04826       -176.12       9.53E-2       -2.75         9.541E-2      -2.77         0.80981       -4.28          
14.0993       0.04833       -176.00       9.521E-2      -2.82         9.544E-2      -2.90         0.8098        -4.44          
14.6993       0.04834       -175.70       9.516E-2      -3.00         9.544E-2      -3.00         0.80967       -4.61          
15.2993       0.04838       -175.52       9.518E-2      -3.06         9.54E-2       -3.13         0.8099        -4.79          
15.8992       0.04839       -175.30       9.524E-2      -3.17         9.542E-2      -3.27         0.8099        -4.96          
16.4992       0.04843       -175.13       9.521E-2      -3.31         9.544E-2      -3.39         0.80976       -5.15          
17.0992       0.04844       -174.84       9.525E-2      -3.40         9.543E-2      -3.49         0.80998       -5.33          
17.6991       0.04856       -174.63       9.522E-2      -3.54         9.542E-2      -3.65         0.80988       -5.51          
18.2991       0.04854       -174.44       9.519E-2      -3.67         9.546E-2      -3.74         0.8099        -5.67          
18.8991       0.04857       -174.22       9.523E-2      -3.79         9.544E-2      -3.86         0.8102        -5.84          
19.4990       0.04856       -173.97       9.526E-2      -3.93         9.546E-2      -3.98         0.81016       -6.02          
20.0990       0.04862       -173.77       9.522E-2      -4.04         9.545E-2      -4.10         0.81006       -6.21          
20.6990       0.04867       -173.54       9.529E-2      -4.18         9.548E-2      -4.21         0.81007       -6.37          
21.2990       0.04867       -173.29       9.524E-2      -4.29         9.545E-2      -4.34         0.80993       -6.54          
21.8989       0.0487        -173.18       9.528E-2      -4.43         9.546E-2      -4.45         0.81009       -6.73          
22.4989       0.04876       -172.90       9.522E-2      -4.56         9.555E-2      -4.57         0.81011       -6.90          
23.0989       0.04882       -172.75       9.524E-2      -4.65         9.553E-2      -4.69         0.81023       -7.09          
23.6988       0.04883       -172.44       9.531E-2      -4.76         9.551E-2      -4.84         0.80986       -7.26          
24.2988       0.04883       -172.28       9.527E-2      -4.86         9.55E-2       -4.94         0.80987       -7.43          
24.8988       0.04891       -172.08       9.525E-2      -5.01         9.551E-2      -5.09         0.80975       -7.60          
25.4987       0.04894       -171.88       9.53E-2       -5.12         9.546E-2      -5.21         0.80975       -7.78          
26.0987       0.04899       -171.62       9.523E-2      -5.24         9.55E-2       -5.29         0.8096        -7.96          
26.6987       0.04906       -171.43       9.525E-2      -5.34         9.547E-2      -5.42         0.80942       -8.12          
27.2987       0.04904       -171.20       9.533E-2      -5.46         9.55E-2       -5.54         0.8092        -8.31          
27.8986       0.04908       -171.03       9.53E-2       -5.61         9.549E-2      -5.66         0.80902       -8.47          
28.4986       0.04912       -170.75       9.531E-2      -5.71         9.548E-2      -5.78         0.80891       -8.66          
29.0986       0.04915       -170.69       9.53E-2       -5.82         9.549E-2      -5.92         0.80866       -8.82          
29.6985       0.04923       -170.48       9.531E-2      -5.94         9.548E-2      -6.00         0.80856       -9.01          
30.2985       0.04919       -170.23       9.527E-2      -6.09         9.547E-2      -6.15         0.80825       -9.18          
30.8985       0.04926       -169.98       9.534E-2      -6.21         9.546E-2      -6.25         0.80822       -9.37          
31.4984       0.04932       -169.82       9.527E-2      -6.30         9.543E-2      -6.40         0.80817       -9.53          
32.0984       0.04935       -169.69       9.53E-2       -6.45         9.549E-2      -6.49         0.80813       -9.71          
32.6984       0.04938       -169.45       9.531E-2      -6.54         9.55E-2       -6.59         0.80799       -9.88          
33.2984       0.0494        -169.28       9.531E-2      -6.67         9.546E-2      -6.74         0.80788       -10.04         
33.8983       0.04941       -169.10       9.536E-2      -6.77         9.547E-2      -6.85         0.808         -10.20         
34.4983       0.04949       -168.89       9.533E-2      -6.88         9.55E-2       -6.94         0.80814       -10.36         
35.0983       0.04949       -168.72       9.538E-2      -7.02         9.552E-2      -7.10         0.80815       -10.55         
35.6982       0.04955       -168.54       9.538E-2      -7.11         9.55E-2       -7.20         0.80827       -10.71         
36.2982       0.04959       -168.34       9.537E-2      -7.25         9.547E-2      -7.35         0.80819       -10.91         
36.8982       0.04962       -168.14       9.535E-2      -7.36         9.549E-2      -7.46         0.8081        -11.09         
37.4981       0.04965       -167.96       9.539E-2      -7.48         9.552E-2      -7.58         0.80797       -11.27         
38.0981       0.04968       -167.78       9.54E-2       -7.59         9.55E-2       -7.71         0.80797       -11.46         
38.6981       0.04973       -167.59       9.538E-2      -7.69         9.547E-2      -7.84         0.80785       -11.65         
39.2981       0.04971       -167.42       9.538E-2      -7.82         9.546E-2      -7.94         0.80785       -11.82         
39.8980       0.04981       -167.26       9.538E-2      -7.99         9.551E-2      -8.11         0.80764       -12.01         
40.4980       0.0498        -167.03       9.54E-2       -8.10         9.55E-2       -8.17         0.80766       -12.18         
41.0980       0.04987       -166.81       9.542E-2      -8.22         9.554E-2      -8.30         0.80735       -12.37         
41.6979       0.04988       -166.69       9.537E-2      -8.32         9.553E-2      -8.43         0.80759       -12.57         
42.2979       0.04995       -166.53       9.538E-2      -8.45         9.556E-2      -8.55         0.80743       -12.76         
42.8979       0.04998       -166.37       9.54E-2       -8.59         9.55E-2       -8.67         0.80746       -12.95         
43.4978       0.04997       -166.19       9.54E-2       -8.68         9.553E-2      -8.80         0.80747       -13.15         
44.0978       0.05005       -166.00       9.54E-2       -8.81         9.554E-2      -8.90         0.80738       -13.35         
44.6978       0.05011       -165.94       9.537E-2      -8.93         9.553E-2      -9.04         0.80751       -13.55         
45.2978       0.05014       -165.72       9.543E-2      -9.07         9.552E-2      -9.13         0.80736       -13.74         
45.8977       0.05023       -165.52       9.539E-2      -9.20         9.554E-2      -9.28         0.80747       -13.92         
46.4977       0.05021       -165.34       9.534E-2      -9.33         9.554E-2      -9.40         0.80743       -14.12         
47.0977       0.05023       -165.14       9.542E-2      -9.47         9.558E-2      -9.52         0.80831       -14.30         
47.6976       0.05029       -164.95       9.54E-2       -9.58         9.549E-2      -9.64         0.80836       -14.49         
48.2976       0.05036       -164.81       9.544E-2      -9.72         9.553E-2      -9.74         0.80831       -14.67         
48.8976       0.05038       -164.68       9.539E-2      -9.84         9.552E-2      -9.87         0.80842       -14.86         
49.4975       0.05043       -164.49       9.539E-2      -9.98         9.561E-2      -9.98         0.80831       -15.04         
50.0975       0.05043       -164.33       9.536E-2      -10.08        9.55E-2       -10.12        0.80833       -15.23         
50.6975       0.0505        -164.11       9.539E-2      -10.21        9.559E-2      -10.25        0.8084        -15.43         
51.2975       0.05055       -163.97       9.536E-2      -10.32        9.557E-2      -10.40        0.80841       -15.63         
51.8974       0.05063       -163.85       9.53E-2       -10.43        9.56E-2       -10.54        0.80829       -15.80         
52.4974       0.05136       -163.95       9.528E-2      -10.48        9.634E-2      -10.86        0.80625       -15.99         
53.0974       0.05065       -163.48       9.531E-2      -10.58        9.556E-2      -10.78        0.80577       -16.10         
53.6973       0.0507        -163.32       9.534E-2      -10.80        9.558E-2      -10.87        0.80874       -16.37         
54.2973       0.05077       -163.19       9.538E-2      -10.92        9.557E-2      -11.01        0.80865       -16.56         
54.8973       0.05081       -163.01       9.538E-2      -11.06        9.558E-2      -11.13        0.80859       -16.73         
55.4972       0.05084       -162.87       9.536E-2      -11.16        9.557E-2      -11.25        0.80873       -16.91         
56.0972       0.05089       -162.69       9.538E-2      -11.28        9.558E-2      -11.37        0.80846       -17.10         
56.6972       0.05092       -162.50       9.534E-2      -11.40        9.552E-2      -11.47        0.80844       -17.26         
57.2972       0.05102       -162.32       9.535E-2      -11.53        9.556E-2      -11.58        0.80848       -17.45         
57.8971       0.05101       -162.11       9.535E-2      -11.64        9.558E-2      -11.72        0.80842       -17.63         
58.4971       0.05108       -162.01       9.54E-2       -11.77        9.559E-2      -11.87        0.80855       -17.83         
59.0971       0.0511        -161.84       9.541E-2      -11.88        9.557E-2      -11.96        0.80849       -18.00         
59.6970       0.05116       -161.67       9.54E-2       -12.01        9.56E-2       -12.11        0.80864       -18.19         
60.2970       0.05118       -161.49       9.539E-2      -12.12        9.556E-2      -12.21        0.80856       -18.36         
60.8970       0.05125       -161.31       9.54E-2       -12.26        9.56E-2       -12.37        0.80862       -18.55         
61.4969       0.05128       -161.17       9.54E-2       -12.39        9.56E-2       -12.48        0.80848       -18.73         
62.0969       0.05134       -160.99       9.542E-2      -12.50        9.56E-2       -12.60        0.80827       -18.92         
62.6969       0.05136       -160.88       9.541E-2      -12.63        9.557E-2      -12.74        0.80824       -19.10         
63.2969       0.05145       -160.68       9.541E-2      -12.75        9.56E-2       -12.84        0.80825       -19.29         
63.8968       0.05149       -160.55       9.541E-2      -12.86        9.559E-2      -12.98        0.80817       -19.46         
64.4968       0.05156       -160.36       9.54E-2       -13.01        9.56E-2       -13.09        0.80817       -19.65         
65.0968       0.05161       -160.19       9.54E-2       -13.13        9.561E-2      -13.23        0.80814       -19.83         
65.6967       0.0517        -160.04       9.538E-2      -13.25        9.561E-2      -13.33        0.80815       -20.00         
66.2967       0.05168       -159.92       9.539E-2      -13.35        9.56E-2       -13.48        0.80811       -20.19         
66.8967       0.05172       -159.76       9.54E-2       -13.49        9.558E-2      -13.60        0.80792       -20.38         
67.4966       0.05175       -159.56       9.537E-2      -13.60        9.561E-2      -13.73        0.80785       -20.58         
68.0966       0.05177       -159.44       9.537E-2      -13.72        9.56E-2       -13.82        0.80784       -20.76         
68.6966       0.05187       -159.28       9.538E-2      -13.83        9.561E-2      -13.96        0.80781       -20.92         
69.2966       0.05197       -159.05       9.537E-2      -13.97        9.561E-2      -14.06        0.8077        -21.14         
69.8965       0.05203       -158.93       9.539E-2      -14.11        9.562E-2      -14.19        0.80768       -21.32         
70.4965       0.05204       -158.85       9.539E-2      -14.21        9.559E-2      -14.31        0.80776       -21.50         
71.0965       0.05207       -158.63       9.536E-2      -14.36        9.56E-2       -14.42        0.80777       -21.68         
71.6964       0.05216       -158.47       9.535E-2      -14.48        9.56E-2       -14.57        0.80765       -21.86         
72.2964       0.05217       -158.35       9.538E-2      -14.61        9.554E-2      -14.69        0.80762       -22.04         
72.8964       0.05229       -158.24       9.539E-2      -14.74        9.556E-2      -14.81        0.80755       -22.24         
73.4963       0.05239       -158.07       9.536E-2      -14.89        9.553E-2      -14.94        0.80756       -22.42         
74.0963       0.05239       -157.94       9.538E-2      -14.99        9.557E-2      -15.06        0.80758       -22.61         
74.6963       0.0524        -157.83       9.535E-2      -15.12        9.555E-2      -15.18        0.8073        -22.78         
75.2963       0.0525        -157.64       9.532E-2      -15.25        9.556E-2      -15.31        0.80744       -22.98         
75.8962       0.05252       -157.50       9.537E-2      -15.36        9.557E-2      -15.45        0.8074        -23.15         
76.4962       0.05262       -157.27       9.538E-2      -15.46        9.559E-2      -15.57        0.80755       -23.35         
77.0962       0.05271       -157.19       9.536E-2      -15.60        9.557E-2      -15.67        0.80757       -23.52         
77.6961       0.05274       -157.03       9.533E-2      -15.73        9.557E-2      -15.81        0.80773       -23.71         
78.2961       0.05285       -156.88       9.535E-2      -15.84        9.558E-2      -15.90        0.80759       -23.89         
78.8961       0.05287       -156.78       9.531E-2      -15.97        9.556E-2      -16.02        0.80772       -24.07         
79.4960       0.05294       -156.60       9.535E-2      -16.09        9.558E-2      -16.17        0.80789       -24.24         
80.0960       0.05297       -156.46       9.534E-2      -16.22        9.558E-2      -16.27        0.80784       -24.43         
80.6960       0.053         -156.36       9.534E-2      -16.34        9.555E-2      -16.39        0.80785       -24.60         
81.2960       0.0531        -156.20       9.536E-2      -16.47        9.559E-2      -16.52        0.80796       -24.79         
81.8959       0.05316       -156.04       9.534E-2      -16.57        9.558E-2      -16.62        0.8081        -24.96         
82.4959       0.05325       -155.89       9.531E-2      -16.69        9.558E-2      -16.75        0.80823       -25.15         
83.0959       0.0533        -155.72       9.532E-2      -16.80        9.559E-2      -16.87        0.80826       -25.32         
83.6958       0.05336       -155.57       9.534E-2      -16.94        9.557E-2      -17.00        0.80833       -25.51         
84.2958       0.05343       -155.39       9.533E-2      -17.07        9.552E-2      -17.10        0.80832       -25.68         
84.8958       0.05348       -155.29       9.533E-2      -17.19        9.552E-2      -17.25        0.80829       -25.86         
85.4957       0.05357       -155.15       9.534E-2      -17.31        9.553E-2      -17.39        0.80846       -26.05         
86.0957       0.05359       -154.98       9.537E-2      -17.44        9.551E-2      -17.51        0.80827       -26.25         
86.6957       0.05366       -154.79       9.532E-2      -17.58        9.553E-2      -17.64        0.80837       -26.42         
87.2957       0.05375       -154.71       9.536E-2      -17.69        9.549E-2      -17.78        0.8085        -26.61         
87.8956       0.05376       -154.55       9.531E-2      -17.80        9.55E-2       -17.88        0.80844       -26.77         
88.4956       0.0539        -154.37       9.532E-2      -17.91        9.551E-2      -17.99        0.80837       -26.95         
89.0956       0.05398       -154.20       9.531E-2      -18.04        9.547E-2      -18.14        0.80848       -27.12         
89.6955       0.05401       -154.04       9.537E-2      -18.15        9.546E-2      -18.24        0.80858       -27.29         
90.2955       0.0541        -153.93       9.533E-2      -18.27        9.547E-2      -18.36        0.80869       -27.48         
90.8955       0.05417       -153.81       9.535E-2      -18.39        9.544E-2      -18.47        0.80865       -27.66         
91.4954       0.05423       -153.59       9.538E-2      -18.52        9.543E-2      -18.61        0.80869       -27.85         
92.0954       0.05431       -153.46       9.532E-2      -18.67        9.543E-2      -18.72        0.8085        -28.01         
