!    8/6/2020   03:24:19 
! Ref Plane: 0.000 mm
# MHZ S MA R  50
!
0.3000        0.04747       179.46        9.889E-2      -1.06         9.63E-2       -0.87         0.81423       -0.46          
0.9000        0.04775       179.24        9.507E-2      -0.55         9.522E-2      -0.28         0.80908       -0.60          
1.4999        0.0478        179.34        9.521E-2      -0.36         9.532E-2      -0.37         0.80876       -0.75          
2.0999        0.04774       179.51        9.518E-2      -0.49         9.534E-2      -0.44         0.80908       -0.93          
2.6999        0.04777       179.70        9.52E-2       -0.59         9.535E-2      -0.56         0.80922       -1.08          
3.2999        0.04775       179.98        9.522E-2      -0.66         9.535E-2      -0.69         0.80927       -1.26          
3.8998        0.04786       -179.85       9.514E-2      -0.79         9.536E-2      -0.83         0.80925       -1.44          
4.4998        0.04781       -179.62       9.515E-2      -0.90         9.536E-2      -0.93         0.80934       -1.60          
5.0998        0.04791       -179.33       9.511E-2      -0.99         9.534E-2      -1.02         0.80933       -1.77          
5.6997        0.0479        -179.07       9.515E-2      -1.11         9.54E-2       -1.17         0.80953       -1.95          
6.2997        0.04794       -178.96       9.512E-2      -1.24         9.538E-2      -1.27         0.80934       -2.14          
6.8997        0.04797       -178.68       9.513E-2      -1.40         9.535E-2      -1.37         0.80956       -2.32          
7.4996        0.04802       -178.39       9.51E-2       -1.46         9.536E-2      -1.50         0.80961       -2.52          
8.0996        0.04806       -178.22       9.51E-2       -1.59         9.538E-2      -1.62         0.80941       -2.70          
8.6996        0.04805       -177.98       9.512E-2      -1.69         9.539E-2      -1.71         0.80959       -2.87          
9.2996        0.04807       -177.73       9.519E-2      -1.81         9.538E-2      -1.86         0.80979       -3.04          
9.8995        0.04809       -177.45       9.511E-2      -1.97         9.541E-2      -1.97         0.80946       -3.21          
10.4995       0.04813       -177.26       9.51E-2       -2.06         9.538E-2      -2.09         0.80987       -3.39          
11.0995       0.04819       -177.03       9.511E-2      -2.17         9.538E-2      -2.18         0.80996       -3.57          
11.6994       0.04821       -176.76       9.511E-2      -2.27         9.536E-2      -2.29         0.81001       -3.76          
12.2994       0.04824       -176.55       9.508E-2      -2.40         9.533E-2      -2.41         0.80999       -3.93          
12.8994       0.04825       -176.34       9.51E-2       -2.43         9.534E-2      -2.54         0.81003       -4.10          
13.4993       0.04824       -176.11       9.518E-2      -2.63         9.533E-2      -2.68         0.81017       -4.29          
14.0993       0.04832       -175.92       9.512E-2      -2.70         9.533E-2      -2.78         0.81021       -4.45          
14.6993       0.04834       -175.63       9.504E-2      -2.87         9.534E-2      -2.89         0.81013       -4.62          
15.2993       0.04836       -175.46       9.507E-2      -2.92         9.531E-2      -3.00         0.81036       -4.81          
15.8992       0.04839       -175.25       9.507E-2      -3.03         9.529E-2      -3.14         0.81042       -4.96          
16.4992       0.04845       -175.04       9.505E-2      -3.18         9.532E-2      -3.26         0.81036       -5.16          
17.0992       0.04847       -174.81       9.51E-2       -3.26         9.531E-2      -3.35         0.81058       -5.33          
17.6991       0.04856       -174.57       9.506E-2      -3.37         9.53E-2       -3.49         0.81048       -5.51          
18.2991       0.04855       -174.40       9.503E-2      -3.51         9.53E-2       -3.59         0.81054       -5.66          
18.8991       0.04859       -174.15       9.508E-2      -3.63         9.529E-2      -3.68         0.81092       -5.83          
19.4990       0.04859       -173.94       9.512E-2      -3.74         9.53E-2       -3.80         0.81093       -6.01          
20.0990       0.04866       -173.70       9.506E-2      -3.85         9.529E-2      -3.93         0.81087       -6.19          
20.6990       0.04868       -173.50       9.509E-2      -3.97         9.532E-2      -4.05         0.81099       -6.35          
21.2990       0.04866       -173.22       9.503E-2      -4.11         9.527E-2      -4.12         0.81091       -6.52          
21.8989       0.04874       -173.11       9.505E-2      -4.19         9.53E-2       -4.25         0.81104       -6.70          
22.4989       0.04877       -172.86       9.501E-2      -4.34         9.534E-2      -4.36         0.81115       -6.87          
23.0989       0.04883       -172.68       9.502E-2      -4.41         9.533E-2      -4.49         0.8114        -7.05          
23.6988       0.04884       -172.38       9.506E-2      -4.52         9.528E-2      -4.60         0.81106       -7.21          
24.2988       0.04887       -172.21       9.503E-2      -4.63         9.527E-2      -4.71         0.81111       -7.37          
24.8988       0.04892       -172.01       9.501E-2      -4.75         9.528E-2      -4.85         0.81102       -7.54          
25.4987       0.04897       -171.82       9.504E-2      -4.85         9.523E-2      -4.96         0.81114       -7.71          
26.0987       0.04901       -171.59       9.497E-2      -4.96         9.526E-2      -5.05         0.81107       -7.88          
26.6987       0.04907       -171.38       9.496E-2      -5.06         9.523E-2      -5.15         0.81091       -8.04          
27.2987       0.04907       -171.12       9.503E-2      -5.16         9.523E-2      -5.27         0.81081       -8.22          
27.8986       0.04909       -170.98       9.50E-2       -5.30         9.522E-2      -5.37         0.81065       -8.37          
28.4986       0.04914       -170.70       9.501E-2      -5.41         9.52E-2       -5.49         0.81068       -8.55          
29.0986       0.04916       -170.63       9.50E-2       -5.50         9.52E-2       -5.61         0.81049       -8.70          
29.6985       0.04925       -170.40       9.498E-2      -5.60         9.517E-2      -5.68         0.81043       -8.88          
30.2985       0.04923       -170.20       9.494E-2      -5.74         9.515E-2      -5.84         0.81023       -9.05          
30.8985       0.04929       -169.91       9.498E-2      -5.87         9.513E-2      -5.91         0.81027       -9.22          
31.4984       0.04933       -169.77       9.493E-2      -5.94         9.509E-2      -6.03         0.81028       -9.37          
32.0984       0.04938       -169.62       9.493E-2      -6.08         9.516E-2      -6.14         0.81038       -9.54          
32.6984       0.04941       -169.39       9.493E-2      -6.16         9.513E-2      -6.25         0.81028       -9.70          
33.2984       0.04943       -169.25       9.494E-2      -6.27         9.511E-2      -6.35         0.81027       -9.84          
33.8983       0.04943       -169.04       9.496E-2      -6.38         9.511E-2      -6.47         0.8105        -9.99          
34.4983       0.04952       -168.79       9.494E-2      -6.47         9.514E-2      -6.56         0.81067       -10.14         
35.0983       0.04952       -168.67       9.498E-2      -6.58         9.513E-2      -6.70         0.81081       -10.32         
35.6982       0.04955       -168.47       9.498E-2      -6.68         9.509E-2      -6.78         0.81102       -10.47         
36.2982       0.04963       -168.27       9.496E-2      -6.80         9.509E-2      -6.93         0.81102       -10.66         
36.8982       0.04965       -168.07       9.492E-2      -6.92         9.507E-2      -7.02         0.81101       -10.81         
37.4981       0.0497        -167.92       9.492E-2      -7.01         9.51E-2       -7.11         0.81101       -10.98         
38.0981       0.04973       -167.75       9.496E-2      -7.12         9.511E-2      -7.23         0.8111        -11.16         
38.6981       0.04975       -167.54       9.492E-2      -7.20         9.507E-2      -7.36         0.81112       -11.33         
39.2981       0.04978       -167.38       9.489E-2      -7.31         9.501E-2      -7.46         0.81117       -11.49         
39.8980       0.04982       -167.21       9.491E-2      -7.44         9.504E-2      -7.59         0.81111       -11.66         
40.4980       0.04983       -166.98       9.491E-2      -7.57         9.504E-2      -7.65         0.81121       -11.81         
41.0980       0.0499        -166.75       9.493E-2      -7.66         9.504E-2      -7.78         0.81103       -11.99         
41.6979       0.04994       -166.63       9.489E-2      -7.76         9.503E-2      -7.89         0.81134       -12.16         
42.2979       0.04997       -166.50       9.489E-2      -7.88         9.507E-2      -7.99         0.81127       -12.35         
42.8979       0.05          -166.29       9.488E-2      -7.98         9.502E-2      -8.10         0.81145       -12.52         
43.4978       0.05          -166.16       9.487E-2      -8.09         9.505E-2      -8.21         0.81157       -12.69         
44.0978       0.05008       -165.98       9.488E-2      -8.20         9.50E-2       -8.31         0.81162       -12.87         
44.6978       0.05012       -165.88       9.487E-2      -8.32         9.50E-2       -8.45         0.81183       -13.05         
45.2978       0.05017       -165.68       9.489E-2      -8.42         9.499E-2      -8.52         0.8118        -13.23         
45.8977       0.05023       -165.46       9.482E-2      -8.54         9.501E-2      -8.63         0.81203       -13.39         
46.4977       0.05023       -165.32       9.48E-2       -8.65         9.499E-2      -8.73         0.81215       -13.58         
47.0977       0.05024       -165.13       9.488E-2      -8.77         9.505E-2      -8.84         0.81313       -13.73         
47.6976       0.0503        -164.95       9.482E-2      -8.89         9.495E-2      -8.95         0.81328       -13.90         
48.2976       0.05036       -164.83       9.487E-2      -9.02         9.497E-2      -9.04         0.81343       -14.06         
48.8976       0.05042       -164.65       9.482E-2      -9.11         9.496E-2      -9.16         0.81366       -14.23         
49.4975       0.05045       -164.47       9.481E-2      -9.23         9.503E-2      -9.25         0.81365       -14.39         
50.0975       0.05045       -164.31       9.478E-2      -9.31         9.495E-2      -9.37         0.81379       -14.55         
50.6975       0.05051       -164.09       9.477E-2      -9.43         9.499E-2      -9.48         0.81403       -14.73         
51.2975       0.05054       -164.00       9.476E-2      -9.52         9.501E-2      -9.63         0.81414       -14.91         
51.8974       0.05063       -163.83       9.471E-2      -9.62         9.504E-2      -9.74         0.81416       -15.06         
52.4974       0.05137       -163.92       9.465E-2      -9.66         9.577E-2      -10.08        0.81223       -15.23         
53.0974       0.05066       -163.43       9.458E-2      -9.71         9.496E-2      -9.96         0.81185       -15.31         
53.6973       0.05069       -163.26       9.477E-2      -9.96         9.497E-2      -10.03        0.81495       -15.56         
54.2973       0.05075       -163.17       9.477E-2      -10.06        9.497E-2      -10.17        0.81504       -15.72         
54.8973       0.05078       -162.99       9.478E-2      -10.17        9.495E-2      -10.26        0.81515       -15.87         
55.4972       0.05082       -162.85       9.477E-2      -10.26        9.50E-2       -10.36        0.81534       -16.03         
56.0972       0.05088       -162.70       9.477E-2      -10.36        9.495E-2      -10.46        0.8153        -16.19         
56.6972       0.05093       -162.49       9.478E-2      -10.49        9.492E-2      -10.53        0.81539       -16.33         
57.2972       0.05099       -162.31       9.473E-2      -10.58        9.495E-2      -10.66        0.81554       -16.49         
57.8971       0.05101       -162.13       9.474E-2      -10.68        9.495E-2      -10.78        0.81562       -16.65         
58.4971       0.05105       -162.01       9.479E-2      -10.78        9.499E-2      -10.91        0.81594       -16.82         
59.0971       0.0511        -161.84       9.477E-2      -10.89        9.499E-2      -10.98        0.81595       -16.96         
59.6970       0.05112       -161.64       9.478E-2      -11.00        9.501E-2      -11.12        0.81629       -17.13         
60.2970       0.05115       -161.46       9.475E-2      -11.08        9.496E-2      -11.21        0.81635       -17.27         
60.8970       0.05124       -161.29       9.481E-2      -11.22        9.501E-2      -11.34        0.81662       -17.44         
61.4969       0.05122       -161.19       9.476E-2      -11.32        9.499E-2      -11.45        0.81653       -17.60         
62.0969       0.05131       -160.97       9.477E-2      -11.44        9.50E-2       -11.53        0.81657       -17.76         
62.6969       0.05131       -160.89       9.48E-2       -11.52        9.496E-2      -11.68        0.81661       -17.91         
63.2969       0.05142       -160.70       9.478E-2      -11.64        9.497E-2      -11.76        0.81677       -18.08         
63.8968       0.05144       -160.55       9.478E-2      -11.74        9.50E-2       -11.87        0.81683       -18.21         
64.4968       0.05152       -160.37       9.48E-2       -11.87        9.499E-2      -11.99        0.81704       -18.38         
65.0968       0.05152       -160.24       9.478E-2      -11.96        9.501E-2      -12.10        0.81714       -18.53         
65.6967       0.05162       -160.03       9.481E-2      -12.08        9.504E-2      -12.19        0.8173        -18.68         
66.2967       0.05163       -159.89       9.478E-2      -12.15        9.498E-2      -12.31        0.81735       -18.84         
66.8967       0.05164       -159.75       9.479E-2      -12.28        9.501E-2      -12.42        0.81739       -19.01         
67.4966       0.05168       -159.59       9.477E-2      -12.38        9.503E-2      -12.53        0.81741       -19.18         
68.0966       0.05173       -159.43       9.477E-2      -12.49        9.502E-2      -12.61        0.81752       -19.33         
68.6966       0.05177       -159.24       9.479E-2      -12.59        9.503E-2      -12.71        0.81769       -19.47         
69.2966       0.05188       -159.08       9.477E-2      -12.72        9.507E-2      -12.81        0.81766       -19.65         
69.8965       0.05193       -158.91       9.481E-2      -12.83        9.504E-2      -12.93        0.81787       -19.81         
70.4965       0.05196       -158.84       9.48E-2       -12.93        9.502E-2      -13.02        0.81808       -19.97         
71.0965       0.05197       -158.65       9.479E-2      -13.03        9.506E-2      -13.13        0.81823       -20.12         
71.6964       0.05207       -158.47       9.479E-2      -13.14        9.507E-2      -13.24        0.81822       -20.27         
72.2964       0.05209       -158.38       9.482E-2      -13.26        9.50E-2       -13.35        0.81838       -20.43         
72.8964       0.0522        -158.27       9.485E-2      -13.38        9.503E-2      -13.46        0.81844       -20.60         
73.4963       0.05225       -158.08       9.482E-2      -13.50        9.501E-2      -13.59        0.81858       -20.75         
74.0963       0.05225       -157.94       9.483E-2      -13.59        9.505E-2      -13.69        0.81884       -20.91         
74.6963       0.05232       -157.87       9.481E-2      -13.71        9.504E-2      -13.78        0.81873       -21.06         
75.2963       0.05236       -157.66       9.481E-2      -13.81        9.502E-2      -13.87        0.81891       -21.23         
75.8962       0.05238       -157.53       9.481E-2      -13.93        9.51E-2       -14.01        0.81906       -21.38         
76.4962       0.05248       -157.29       9.486E-2      -14.00        9.507E-2      -14.12        0.81931       -21.54         
77.0962       0.05256       -157.20       9.484E-2      -14.12        9.51E-2       -14.21        0.81945       -21.70         
77.6961       0.0526        -157.10       9.483E-2      -14.25        9.512E-2      -14.36        0.81982       -21.86         
78.2961       0.0527        -156.89       9.483E-2      -14.33        9.51E-2       -14.41        0.81987       -22.01         
78.8961       0.0527        -156.79       9.485E-2      -14.45        9.512E-2      -14.53        0.82013       -22.16         
79.4960       0.05276       -156.61       9.487E-2      -14.56        9.514E-2      -14.64        0.82042       -22.31         
80.0960       0.05278       -156.47       9.49E-2       -14.68        9.511E-2      -14.74        0.8205        -22.48         
80.6960       0.05283       -156.36       9.49E-2       -14.78        9.513E-2      -14.82        0.82072       -22.63         
81.2960       0.05292       -156.22       9.49E-2       -14.89        9.514E-2      -14.97        0.82093       -22.78         
81.8959       0.05299       -156.06       9.49E-2       -14.97        9.517E-2      -15.06        0.8212        -22.93         
82.4959       0.05307       -155.89       9.492E-2      -15.09        9.518E-2      -15.15        0.82147       -23.10         
83.0959       0.0531        -155.75       9.494E-2      -15.20        9.52E-2       -15.25        0.82163       -23.23         
83.6958       0.05316       -155.59       9.495E-2      -15.30        9.518E-2      -15.39        0.82187       -23.40         
84.2958       0.05323       -155.39       9.497E-2      -15.44        9.516E-2      -15.46        0.82206       -23.55         
84.8958       0.05328       -155.28       9.496E-2      -15.54        9.519E-2      -15.61        0.82208       -23.71         
85.4957       0.05335       -155.17       9.502E-2      -15.65        9.519E-2      -15.73        0.82243       -23.87         
86.0957       0.05339       -155.00       9.501E-2      -15.76        9.521E-2      -15.85        0.82237       -24.04         
86.6957       0.05342       -154.80       9.498E-2      -15.87        9.521E-2      -15.94        0.82264       -24.19         
87.2957       0.05354       -154.69       9.502E-2      -15.99        9.521E-2      -16.07        0.82288       -24.36         
87.8956       0.05354       -154.54       9.506E-2      -16.08        9.519E-2      -16.16        0.82295       -24.50         
88.4956       0.05366       -154.35       9.502E-2      -16.19        9.521E-2      -16.28        0.82305       -24.65         
89.0956       0.05371       -154.19       9.506E-2      -16.28        9.523E-2      -16.40        0.82327       -24.80         
89.6955       0.05378       -154.04       9.508E-2      -16.41        9.521E-2      -16.50        0.82349       -24.96         
90.2955       0.05384       -153.92       9.511E-2      -16.48        9.525E-2      -16.59        0.82374       -25.12         
90.8955       0.05391       -153.78       9.51E-2       -16.62        9.522E-2      -16.69        0.82378       -25.28         
91.4954       0.05397       -153.60       9.514E-2      -16.72        9.523E-2      -16.82        0.82401       -25.45         
92.0954       0.05404       -153.44       9.516E-2      -16.84        9.523E-2      -16.94        0.82396       -25.59         
