!    8/6/2020   03:26:11 
! Ref Plane: 0.000 mm
# MHZ S MA R  50
!
0.3000        0.04727       179.42        9.895E-2      -1.03         9.636E-2      -0.82         0.81431       -0.41          
0.9000        0.04762       179.25        9.499E-2      -0.54         9.52E-2       -0.21         0.80902       -0.56          
1.4999        0.04773       179.35        9.517E-2      -0.33         9.529E-2      -0.31         0.80885       -0.71          
2.0999        0.04771       179.51        9.518E-2      -0.50         9.531E-2      -0.39         0.80915       -0.90          
2.6999        0.04775       179.73        9.515E-2      -0.61         9.536E-2      -0.54         0.80926       -1.04          
3.2999        0.04773       179.98        9.518E-2      -0.70         9.533E-2      -0.70         0.80933       -1.22          
3.8998        0.04783       -179.85       9.515E-2      -0.83         9.533E-2      -0.82         0.80934       -1.40          
4.4998        0.04781       -179.64       9.516E-2      -0.97         9.533E-2      -0.92         0.80945       -1.55          
5.0998        0.04791       -179.33       9.513E-2      -1.05         9.533E-2      -1.03         0.8094        -1.73          
5.6997        0.04789       -179.06       9.513E-2      -1.18         9.538E-2      -1.19         0.80959       -1.91          
6.2997        0.04791       -178.94       9.513E-2      -1.32         9.535E-2      -1.29         0.80936       -2.09          
6.8997        0.04798       -178.74       9.515E-2      -1.48         9.532E-2      -1.43         0.80956       -2.27          
7.4996        0.048         -178.42       9.511E-2      -1.56         9.536E-2      -1.55         0.80959       -2.47          
8.0996        0.04804       -178.23       9.512E-2      -1.70         9.538E-2      -1.69         0.80938       -2.64          
8.6996        0.04807       -178.02       9.512E-2      -1.79         9.536E-2      -1.78         0.8096        -2.81          
9.2996        0.04807       -177.76       9.517E-2      -1.95         9.539E-2      -1.95         0.80976       -2.99          
9.8995        0.04811       -177.51       9.514E-2      -2.09         9.54E-2       -2.06         0.80939       -3.16          
10.4995       0.04816       -177.31       9.511E-2      -2.21         9.539E-2      -2.19         0.80976       -3.34          
11.0995       0.04819       -177.09       9.516E-2      -2.33         9.538E-2      -2.29         0.80984       -3.52          
11.6994       0.04823       -176.86       9.514E-2      -2.44         9.539E-2      -2.41         0.80991       -3.70          
12.2994       0.04824       -176.62       9.511E-2      -2.57         9.536E-2      -2.54         0.80982       -3.87          
12.8994       0.04825       -176.40       9.517E-2      -2.64         9.538E-2      -2.68         0.80983       -4.04          
13.4993       0.04827       -176.15       9.522E-2      -2.82         9.536E-2      -2.82         0.80998       -4.23          
14.0993       0.04835       -176.00       9.518E-2      -2.92         9.539E-2      -2.95         0.81001       -4.39          
14.6993       0.04838       -175.74       9.512E-2      -3.08         9.537E-2      -3.06         0.80989       -4.57          
15.2993       0.04839       -175.56       9.511E-2      -3.14         9.535E-2      -3.19         0.81008       -4.75          
15.8992       0.04843       -175.36       9.516E-2      -3.25         9.535E-2      -3.34         0.8101        -4.90          
16.4992       0.04845       -175.16       9.515E-2      -3.41         9.537E-2      -3.47         0.80996       -5.09          
17.0992       0.04847       -174.92       9.518E-2      -3.51         9.537E-2      -3.58         0.81016       -5.27          
17.6991       0.04859       -174.68       9.515E-2      -3.64         9.534E-2      -3.72         0.81008       -5.45          
18.2991       0.0486        -174.53       9.514E-2      -3.77         9.539E-2      -3.83         0.81009       -5.60          
18.8991       0.04863       -174.31       9.515E-2      -3.93         9.538E-2      -3.93         0.81041       -5.77          
19.4990       0.04863       -174.05       9.522E-2      -4.05         9.539E-2      -4.07         0.81038       -5.95          
20.0990       0.04866       -173.82       9.516E-2      -4.15         9.536E-2      -4.20         0.81026       -6.14          
20.6990       0.04872       -173.63       9.519E-2      -4.31         9.541E-2      -4.32         0.81038       -6.30          
21.2990       0.0487        -173.38       9.517E-2      -4.43         9.539E-2      -4.45         0.81018       -6.47          
21.8989       0.04879       -173.24       9.519E-2      -4.54         9.539E-2      -4.58         0.81035       -6.66          
22.4989       0.0488        -173.01       9.515E-2      -4.69         9.546E-2      -4.68         0.81036       -6.82          
23.0989       0.04886       -172.84       9.518E-2      -4.80         9.545E-2      -4.82         0.8105        -7.01          
23.6988       0.04887       -172.57       9.521E-2      -4.91         9.542E-2      -4.95         0.81015       -7.17          
24.2988       0.04888       -172.40       9.52E-2       -5.03         9.541E-2      -5.07         0.81015       -7.34          
24.8988       0.04898       -172.17       9.517E-2      -5.18         9.542E-2      -5.22         0.81003       -7.52          
25.4987       0.04899       -172.01       9.521E-2      -5.26         9.538E-2      -5.34         0.81008       -7.69          
26.0987       0.04904       -171.75       9.512E-2      -5.42         9.545E-2      -5.43         0.80995       -7.86          
26.6987       0.04908       -171.52       9.517E-2      -5.51         9.539E-2      -5.57         0.80973       -8.02          
27.2987       0.04909       -171.32       9.524E-2      -5.63         9.54E-2       -5.70         0.8095        -8.20          
27.8986       0.04914       -171.15       9.519E-2      -5.79         9.54E-2       -5.81         0.80932       -8.36          
28.4986       0.04919       -170.92       9.522E-2      -5.90         9.54E-2       -5.94         0.8093        -8.55          
29.0986       0.04922       -170.82       9.518E-2      -6.01         9.539E-2      -6.08         0.80904       -8.70          
29.6985       0.0493        -170.62       9.519E-2      -6.13         9.538E-2      -6.17         0.80892       -8.89          
30.2985       0.0493        -170.39       9.519E-2      -6.27         9.537E-2      -6.34         0.80864       -9.06          
30.8985       0.04933       -170.15       9.523E-2      -6.40         9.536E-2      -6.42         0.80862       -9.24          
31.4984       0.04939       -169.96       9.516E-2      -6.51         9.532E-2      -6.55         0.80854       -9.40          
32.0984       0.04942       -169.85       9.521E-2      -6.65         9.541E-2      -6.67         0.80855       -9.57          
32.6984       0.04943       -169.60       9.521E-2      -6.76         9.539E-2      -6.79         0.80843       -9.74          
33.2984       0.0495        -169.47       9.521E-2      -6.87         9.535E-2      -6.93         0.80832       -9.89          
33.8983       0.04949       -169.26       9.524E-2      -6.99         9.536E-2      -7.04         0.80841       -10.05         
34.4983       0.04958       -169.08       9.524E-2      -7.11         9.538E-2      -7.15         0.80858       -10.21         
35.0983       0.04957       -168.89       9.524E-2      -7.24         9.539E-2      -7.31         0.80861       -10.39         
35.6982       0.04961       -168.71       9.525E-2      -7.34         9.537E-2      -7.42         0.80871       -10.55         
36.2982       0.04967       -168.51       9.526E-2      -7.50         9.537E-2      -7.57         0.80865       -10.74         
36.8982       0.0497        -168.33       9.523E-2      -7.60         9.539E-2      -7.67         0.80855       -10.91         
37.4981       0.04973       -168.19       9.527E-2      -7.71         9.541E-2      -7.79         0.80847       -11.08         
38.0981       0.04977       -167.99       9.529E-2      -7.82         9.54E-2       -7.93         0.80848       -11.27         
38.6981       0.04983       -167.79       9.528E-2      -7.93         9.538E-2      -8.04         0.80838       -11.45         
39.2981       0.04985       -167.65       9.527E-2      -8.07         9.534E-2      -8.16         0.8084        -11.62         
39.8980       0.04988       -167.47       9.528E-2      -8.23         9.536E-2      -8.34         0.80817       -11.81         
40.4980       0.04989       -167.25       9.529E-2      -8.35         9.537E-2      -8.41         0.80817       -11.97         
41.0980       0.04996       -167.02       9.53E-2       -8.46         9.539E-2      -8.56         0.80791       -12.16         
41.6979       0.04999       -166.91       9.527E-2      -8.58         9.541E-2      -8.66         0.8081        -12.34         
42.2979       0.05006       -166.77       9.524E-2      -8.71         9.542E-2      -8.79         0.80796       -12.53         
42.8979       0.05008       -166.63       9.526E-2      -8.86         9.538E-2      -8.90         0.80802       -12.71         
43.4978       0.05006       -166.43       9.525E-2      -8.94         9.538E-2      -9.02         0.80809       -12.90         
44.0978       0.05015       -166.27       9.527E-2      -9.09         9.539E-2      -9.15         0.80798       -13.10         
44.6978       0.05021       -166.20       9.524E-2      -9.21         9.538E-2      -9.30         0.80809       -13.29         
45.2978       0.05027       -165.97       9.529E-2      -9.34         9.538E-2      -9.39         0.80798       -13.47         
45.8977       0.05034       -165.78       9.525E-2      -9.47         9.54E-2       -9.53         0.80812       -13.65         
46.4977       0.05031       -165.63       9.519E-2      -9.60         9.538E-2      -9.64         0.80808       -13.84         
47.0977       0.05033       -165.44       9.526E-2      -9.73         9.545E-2      -9.77         0.80897       -14.01         
47.6976       0.05039       -165.24       9.524E-2      -9.87         9.538E-2      -9.89         0.80901       -14.20         
48.2976       0.05047       -165.11       9.528E-2      -10.01        9.539E-2      -9.98         0.80897       -14.36         
48.8976       0.05049       -164.98       9.523E-2      -10.14        9.539E-2      -10.14        0.80909       -14.55         
49.4975       0.05056       -164.78       9.521E-2      -10.27        9.545E-2      -10.24        0.80902       -14.72         
50.0975       0.05056       -164.63       9.522E-2      -10.36        9.538E-2      -10.40        0.80901       -14.89         
50.6975       0.0506        -164.46       9.524E-2      -10.52        9.541E-2      -10.53        0.80913       -15.09         
51.2975       0.05066       -164.30       9.519E-2      -10.61        9.543E-2      -10.68        0.80914       -15.28         
51.8974       0.05076       -164.16       9.519E-2      -10.73        9.549E-2      -10.81        0.80902       -15.44         
52.4974       0.05148       -164.26       9.514E-2      -10.79        9.62E-2       -11.15        0.80698       -15.63         
53.0974       0.05078       -163.78       9.512E-2      -10.89        9.541E-2      -11.04        0.80654       -15.73         
53.6973       0.05084       -163.65       9.522E-2      -11.10        9.542E-2      -11.17        0.80949       -15.99         
54.2973       0.05088       -163.54       9.522E-2      -11.21        9.541E-2      -11.30        0.80937       -16.17         
54.8973       0.0509        -163.36       9.52E-2       -11.37        9.54E-2       -11.41        0.8094        -16.33         
55.4972       0.05095       -163.23       9.524E-2      -11.46        9.544E-2      -11.51        0.8095        -16.50         
56.0972       0.05104       -163.04       9.523E-2      -11.60        9.541E-2      -11.66        0.80933       -16.68         
56.6972       0.05107       -162.83       9.521E-2      -11.70        9.539E-2      -11.74        0.80931       -16.83         
57.2972       0.05115       -162.69       9.521E-2      -11.85        9.541E-2      -11.87        0.80926       -17.01         
57.8971       0.05113       -162.50       9.52E-2       -11.94        9.54E-2       -12.01        0.80922       -17.18         
58.4971       0.05121       -162.38       9.523E-2      -12.08        9.542E-2      -12.16        0.80938       -17.37         
59.0971       0.05124       -162.24       9.527E-2      -12.19        9.542E-2      -12.25        0.80936       -17.53         
59.6970       0.0513        -162.04       9.526E-2      -12.31        9.546E-2      -12.39        0.80952       -17.71         
60.2970       0.05133       -161.87       9.522E-2      -12.44        9.539E-2      -12.52        0.80949       -17.87         
60.8970       0.05139       -161.70       9.526E-2      -12.58        9.546E-2      -12.66        0.80959       -18.05         
61.4969       0.0514        -161.58       9.524E-2      -12.70        9.542E-2      -12.76        0.8094        -18.22         
62.0969       0.05149       -161.40       9.523E-2      -12.82        9.543E-2      -12.90        0.80927       -18.40         
62.6969       0.05149       -161.27       9.527E-2      -12.94        9.54E-2       -13.04        0.80921       -18.57         
63.2969       0.05156       -161.12       9.526E-2      -13.07        9.545E-2      -13.17        0.80925       -18.75         
63.8968       0.05164       -160.97       9.525E-2      -13.19        9.543E-2      -13.28        0.80917       -18.90         
64.4968       0.0517        -160.80       9.525E-2      -13.33        9.544E-2      -13.40        0.80916       -19.09         
65.0968       0.05175       -160.64       9.523E-2      -13.44        9.545E-2      -13.53        0.80915       -19.25         
65.6967       0.05183       -160.48       9.522E-2      -13.56        9.547E-2      -13.66        0.80916       -19.42         
66.2967       0.05184       -160.35       9.526E-2      -13.66        9.541E-2      -13.78        0.80911       -19.60         
66.8967       0.05186       -160.19       9.525E-2      -13.80        9.544E-2      -13.89        0.80897       -19.78         
67.4966       0.05193       -160.02       9.522E-2      -13.94        9.546E-2      -14.03        0.80892       -19.96         
68.0966       0.05195       -159.88       9.525E-2      -14.03        9.549E-2      -14.12        0.80891       -20.13         
68.6966       0.05204       -159.69       9.524E-2      -14.17        9.547E-2      -14.24        0.80893       -20.28         
69.2966       0.05213       -159.56       9.526E-2      -14.30        9.548E-2      -14.35        0.80876       -20.48         
69.8965       0.05217       -159.39       9.528E-2      -14.43        9.549E-2      -14.48        0.80884       -20.66         
70.4965       0.0522        -159.32       9.525E-2      -14.54        9.547E-2      -14.61        0.80891       -20.83         
71.0965       0.05223       -159.16       9.525E-2      -14.69        9.55E-2       -14.71        0.8089        -21.00         
71.6964       0.05231       -158.96       9.523E-2      -14.82        9.549E-2      -14.87        0.80883       -21.16         
72.2964       0.05237       -158.89       9.528E-2      -14.94        9.543E-2      -15.00        0.8088        -21.33         
72.8964       0.05246       -158.76       9.53E-2       -15.07        9.549E-2      -15.12        0.80877       -21.52         
73.4963       0.05256       -158.58       9.527E-2      -15.19        9.546E-2      -15.25        0.80878       -21.69         
74.0963       0.05256       -158.44       9.53E-2       -15.31        9.548E-2      -15.37        0.80884       -21.87         
74.6963       0.0526        -158.36       9.525E-2      -15.44        9.547E-2      -15.47        0.80861       -22.03         
75.2963       0.05267       -158.16       9.525E-2      -15.57        9.546E-2      -15.60        0.80872       -22.22         
75.8962       0.05274       -158.04       9.528E-2      -15.70        9.549E-2      -15.74        0.80869       -22.38         
76.4962       0.05282       -157.85       9.527E-2      -15.80        9.549E-2      -15.86        0.80885       -22.56         
77.0962       0.0529        -157.75       9.531E-2      -15.92        9.552E-2      -15.99        0.80883       -22.73         
77.6961       0.05292       -157.62       9.527E-2      -16.06        9.553E-2      -16.13        0.80907       -22.90         
78.2961       0.05301       -157.44       9.532E-2      -16.16        9.551E-2      -16.21        0.809         -23.07         
78.8961       0.05307       -157.36       9.528E-2      -16.31        9.551E-2      -16.32        0.80911       -23.23         
79.4960       0.05312       -157.19       9.529E-2      -16.42        9.555E-2      -16.46        0.8093        -23.40         
80.0960       0.05316       -157.05       9.53E-2       -16.55        9.555E-2      -16.58        0.80926       -23.58         
80.6960       0.05322       -156.96       9.531E-2      -16.68        9.552E-2      -16.70        0.80931       -23.74         
81.2960       0.05331       -156.82       9.533E-2      -16.79        9.557E-2      -16.82        0.80943       -23.90         
81.8959       0.05338       -156.67       9.533E-2      -16.91        9.557E-2      -16.94        0.80955       -24.07         
82.4959       0.05344       -156.53       9.532E-2      -17.02        9.557E-2      -17.06        0.80972       -24.25         
83.0959       0.0535        -156.37       9.533E-2      -17.14        9.557E-2      -17.18        0.80978       -24.40         
83.6958       0.05354       -156.22       9.533E-2      -17.29        9.555E-2      -17.30        0.80988       -24.58         
84.2958       0.05364       -156.06       9.536E-2      -17.43        9.556E-2      -17.43        0.80995       -24.74         
84.8958       0.05368       -155.94       9.537E-2      -17.52        9.556E-2      -17.58        0.8099        -24.91         
85.4957       0.05376       -155.86       9.54E-2       -17.66        9.557E-2      -17.72        0.81006       -25.08         
86.0957       0.05382       -155.66       9.541E-2      -17.79        9.554E-2      -17.83        0.80993       -25.27         
86.6957       0.05388       -155.48       9.535E-2      -17.91        9.559E-2      -17.96        0.81005       -25.42         
87.2957       0.05396       -155.39       9.543E-2      -18.04        9.556E-2      -18.09        0.81021       -25.60         
87.8956       0.05398       -155.24       9.541E-2      -18.15        9.555E-2      -18.19        0.81017       -25.76         
88.4956       0.05411       -155.09       9.54E-2       -18.26        9.555E-2      -18.32        0.81015       -25.92         
89.0956       0.05417       -154.95       9.542E-2      -18.38        9.556E-2      -18.46        0.81027       -26.08         
89.6955       0.05426       -154.76       9.546E-2      -18.51        9.556E-2      -18.56        0.81039       -26.24         
90.2955       0.05433       -154.66       9.544E-2      -18.63        9.559E-2      -18.67        0.81055       -26.42         
90.8955       0.05437       -154.56       9.547E-2      -18.74        9.556E-2      -18.78        0.81053       -26.58         
91.4954       0.05446       -154.37       9.551E-2      -18.88        9.556E-2      -18.94        0.81064       -26.76         
92.0954       0.05454       -154.21       9.549E-2      -19.03        9.556E-2      -19.06        0.81048       -26.91         
