!    8/10/2020   02:00:48 
! Ref Plane: 0.000 mm
# MHZ S MA R  50
!
0.3000        0.82148       0.22          5.886E-5      -143.21       6.364E-5      65.74         0.99588       -0.40          
0.9000        0.81919       0.30          7.039E-5      -146.10       5.672E-5      -106.52       0.99687       -0.33          
1.4999        0.82037       0.26          7.677E-5      -166.17       3.46E-5       16.41         0.9982        -0.32          
2.0999        0.82011       0.23          5.308E-5      -101.60       4.366E-5      78.12         0.99866       -0.25          
2.6999        0.81998       0.18          5.008E-5      -109.33       1.53E-5       -133.52       0.9988        -0.21          
3.2999        0.81981       0.14          2.301E-5      -50.55        1.269E-5      -52.76        0.99889       -0.17          
3.8998        0.81977       0.10          1.429E-5      149.27        3.15E-5       -90.48        0.99905       -0.16          
4.4998        0.8196        0.05          2.362E-5      -69.06        1.953E-5      30.14         0.99904       -0.14          
5.0998        0.81951       0.00          4.381E-5      -103.29       2.228E-5      120.21        0.99901       -0.13          
5.6997        0.81942       -0.04         3.315E-5      89.60         1.475E-5      -18.18        0.99911       -0.12          
6.2997        0.81942       -0.08         5.993E-5      131.69        1.383E-5      78.56         0.99907       -0.11          
6.8997        0.81936       -0.13         7.478E-5      -59.59        1.589E-5      10.15         0.99912       -0.11          
7.4996        0.81942       -0.16         1.992E-5      100.78        4.288E-5      100.56        0.99915       -0.10          
8.0996        0.81942       -0.20         5.274E-5      -131.51       2.554E-5      157.23        0.99912       -0.10          
8.6996        0.81932       -0.25         3.415E-5      116.63        4.337E-5      134.77        0.99915       -0.09          
9.2996        0.81922       -0.29         5.72E-5       -12.69        3.846E-5      4.01          0.9992        -0.09          
9.8995        0.81931       -0.33         6.02E-5       -81.69        9.565E-6      24.23         0.99919       -0.09          
10.4995       0.81916       -0.38         1.608E-5      125.28        1.11E-5       -166.69       0.99924       -0.09          
11.0995       0.81914       -0.42         4.021E-5      -63.66        5.161E-5      36.87         0.99922       -0.09          
11.6994       0.81909       -0.45         3.512E-6      83.76         3.067E-5      5.50          0.99918       -0.09          
12.2994       0.81909       -0.50         1.078E-4      -145.12       5.688E-5      101.94        0.99922       -0.09          
12.8994       0.81911       -0.54         8.273E-5      58.66         5.177E-5      43.65         0.99925       -0.08          
13.4993       0.8191        -0.57         5.042E-5      -9.55         1.798E-5      65.61         0.99932       -0.08          
14.0993       0.81906       -0.62         3.601E-5      30.72         2.516E-5      -54.85        0.99928       -0.08          
14.6993       0.81907       -0.67         7.047E-5      -117.72       2.634E-5      3.00          0.99927       -0.09          
15.2993       0.81892       -0.70         8.076E-5      116.46        5.82E-5       65.72         0.9993        -0.08          
15.8992       0.81892       -0.75         6.14E-5       33.46         3.659E-6      58.64         0.99939       -0.08          
16.4992       0.81895       -0.78         2.93E-5       136.49        2.933E-5      -16.15        0.99938       -0.09          
17.0992       0.81886       -0.82         8.301E-5      54.68         1.538E-6      -58.03        0.99936       -0.09          
17.6991       0.81888       -0.85         4.446E-5      109.37        5.216E-6      125.29        0.99937       -0.08          
18.2991       0.81887       -0.90         5.341E-5      165.64        2.696E-5      23.58         0.99931       -0.08          
18.8991       0.81867       -0.95         3.12E-5       -132.72       4.578E-6      55.68         0.99932       -0.08          
19.4990       0.81879       -0.98         4.722E-5      -46.60        1.954E-5      -59.19        0.99938       -0.08          
20.0990       0.81874       -1.03         3.948E-5      -14.45        3.599E-5      35.18         0.99934       -0.09          
20.6990       0.81875       -1.07         5.152E-5      -30.94        3.006E-5      44.14         0.99938       -0.08          
21.2990       0.81874       -1.11         5.356E-5      -116.16       1.974E-5      36.42         0.99937       -0.09          
21.8989       0.81869       -1.14         2.833E-5      -43.61        3.035E-5      85.64         0.99948       -0.09          
22.4989       0.81864       -1.18         9.507E-5      -132.16       8.207E-6      89.92         0.99943       -0.09          
23.0989       0.81861       -1.22         2.829E-5      129.28        3.675E-5      -20.31        0.99949       -0.09          
23.6988       0.81867       -1.26         1.963E-5      37.21         4.801E-5      -23.73        0.99952       -0.09          
24.2988       0.81859       -1.31         1.793E-5      51.41         1.778E-5      -39.34        0.99945       -0.09          
24.8988       0.81866       -1.34         1.486E-5      -6.55         2.172E-5      86.07         0.99952       -0.09          
25.4987       0.81863       -1.38         4.902E-5      -1.00         2.99E-5       -23.13        0.99949       -0.09          
26.0987       0.81869       -1.42         7.293E-5      151.20        4.002E-5      78.88         0.99946       -0.09          
26.6987       0.81864       -1.46         3.217E-5      162.05        1.882E-5      106.60        0.99945       -0.10          
27.2987       0.81856       -1.50         5.858E-5      9.67          5.23E-5       73.36         0.99953       -0.10          
27.8986       0.81858       -1.54         3.574E-5      -87.40        1.623E-5      57.32         0.99941       -0.10          
28.4986       0.81852       -1.58         1.223E-5      -12.69        1.227E-5      121.09        0.99949       -0.10          
29.0986       0.81859       -1.62         2.577E-5      47.18         4.732E-5      -44.98        0.99959       -0.11          
29.6985       0.8184        -1.66         3.387E-5      93.48         2.349E-5      -173.19       0.99951       -0.11          
30.2985       0.8185        -1.69         4.82E-6       -41.33        1.527E-5      -164.36       0.99955       -0.11          
30.8985       0.81846       -1.73         4.19E-5       -48.34        3.306E-5      138.15        0.99953       -0.11          
31.4984       0.81842       -1.76         7.947E-5      80.95         5.259E-5      -144.78       0.99945       -0.11          
32.0984       0.81849       -1.81         2.537E-5      -123.51       3.012E-5      77.18         0.99952       -0.11          
32.6984       0.81842       -1.85         1.644E-5      -133.91       3.822E-5      56.19         0.99948       -0.11          
33.2984       0.81859       -1.89         1.383E-5      -168.94       1.895E-5      105.54        0.99953       -0.11          
33.8983       0.81849       -1.92         4.96E-5       -13.76        2.86E-5       -25.16        0.99946       -0.12          
34.4983       0.81831       -1.96         2.346E-5      147.41        9.561E-6      110.86        0.99948       -0.11          
35.0983       0.81843       -1.99         3.289E-5      -95.76        1.282E-5      -65.87        0.99953       -0.11          
35.6982       0.81832       -2.02         3.858E-5      -70.12        3.141E-5      108.73        0.99953       -0.12          
36.2982       0.81836       -2.05         1.733E-5      -127.37       5.318E-6      102.06        0.99953       -0.12          
36.8982       0.81837       -2.10         5.286E-5      -145.28       2.147E-5      9.43          0.9995        -0.12          
37.4981       0.81844       -2.13         3.308E-5      -128.07       2.857E-5      82.65         0.99952       -0.12          
38.0981       0.81837       -2.17         1.302E-5      124.58        2.575E-5      137.17        0.99956       -0.12          
38.6981       0.81838       -2.20         2.17E-5       59.16         3.194E-5      76.75         0.99951       -0.12          
39.2981       0.81833       -2.24         4.682E-5      161.25        2.883E-5      -162.03       0.99947       -0.12          
39.8980       0.81842       -2.27         2.934E-5      -100.84       3.947E-5      -63.60        0.99957       -0.13          
40.4980       0.81831       -2.32         1.587E-5      -86.17        1.677E-5      49.01         0.99953       -0.13          
41.0980       0.81839       -2.36         4.396E-5      -58.51        2.532E-6      77.98         0.99953       -0.13          
41.6979       0.8183        -2.39         4.05E-5       80.28         1.842E-5      -24.03        0.9996        -0.14          
42.2979       0.81838       -2.43         2.077E-5      104.41        1.801E-5      -12.14        0.99957       -0.13          
42.8979       0.81829       -2.46         5.343E-5      176.34        3.908E-5      -177.14       0.99954       -0.13          
43.4978       0.81828       -2.50         6.009E-5      130.26        2.353E-5      57.35         0.9996        -0.14          
44.0978       0.8183        -2.53         3.673E-5      -93.03        7.429E-6      27.29         0.99961       -0.14          
44.6978       0.81818       -2.56         1.394E-5      135.32        2.337E-5      -11.82        0.99954       -0.14          
45.2978       0.81834       -2.61         2.155E-5      24.90         9.383E-6      88.59         0.99965       -0.14          
45.8977       0.8183        -2.65         2.607E-5      134.75        2.566E-5      -52.07        0.99959       -0.15          
46.4977       0.81818       -2.67         4.186E-5      162.22        3.287E-5      83.86         0.99955       -0.15          
47.0977       0.81821       -2.70         8.294E-5      67.98         2.852E-5      -18.52        0.99969       -0.15          
47.6976       0.81808       -2.74         4.092E-5      90.83         5.663E-5      155.56        0.99973       -0.15          
48.2976       0.81818       -2.78         5.633E-5      28.12         4.553E-5      -173.79       0.99969       -0.15          
48.8976       0.81805       -2.81         4.368E-5      92.65         5.27E-5       -166.94       0.99967       -0.15          
49.4975       0.81807       -2.84         1.566E-5      -33.53        5.199E-5      88.23         0.99963       -0.15          
50.0975       0.81815       -2.89         1.894E-5      95.60         3.278E-5      -127.49       0.99968       -0.15          
50.6975       0.81814       -2.92         2.072E-5      111.98        4.404E-5      152.28        0.99963       -0.15          
51.2975       0.81812       -2.94         4.324E-5      49.71         6.651E-6      139.10        0.99974       -0.16          
51.8974       0.81821       -2.99         6.379E-5      58.27         1.661E-5      111.78        0.99966       -0.16          
52.4974       0.82044       -3.01         3.956E-5      33.04         1.978E-5      71.28         0.99968       -0.16          
53.0974       0.81801       -3.04         1.399E-5      -175.68       4.884E-5      -169.93       0.99968       -0.16          
53.6973       0.8181        -3.08         4.985E-5      74.95         1.90E-5       -112.80       0.9997        -0.16          
54.2973       0.81806       -3.11         1.734E-5      -179.36       5.607E-6      -79.79        0.99966       -0.17          
54.8973       0.81804       -3.16         3.841E-5      166.01        1.691E-5      71.50         0.99969       -0.17          
55.4972       0.81808       -3.19         2.891E-5      115.50        1.276E-5      -75.53        0.99968       -0.17          
56.0972       0.81816       -3.22         6.876E-5      44.00         2.097E-5      88.59         0.99964       -0.17          
56.6972       0.81813       -3.27         5.435E-5      -10.36        2.276E-5      117.57        0.99971       -0.17          
57.2972       0.81809       -3.31         3.71E-5       -78.71        2.599E-5      -128.25       0.99972       -0.18          
57.8971       0.81812       -3.34         4.731E-5      24.26         1.346E-5      82.63         0.99966       -0.18          
58.4971       0.818         -3.37         2.11E-5       -53.45        4.309E-5      27.06         0.99969       -0.18          
59.0971       0.81803       -3.42         3.093E-5      -25.67        4.045E-5      90.14         0.99973       -0.18          
59.6970       0.81802       -3.44         2.339E-5      102.61        3.658E-5      20.83         0.99969       -0.18          
60.2970       0.81792       -3.49         2.946E-5      149.64        3.758E-5      -159.17       0.99974       -0.18          
60.8970       0.81788       -3.51         3.989E-5      -149.41       9.414E-6      77.70         0.99971       -0.18          
61.4969       0.81789       -3.54         2.357E-5      177.65        2.13E-5       -20.30        0.99971       -0.19          
62.0969       0.8179        -3.58         2.204E-5      -145.48       2.227E-5      91.60         0.99975       -0.19          
62.6969       0.81793       -3.62         1.938E-5      -69.78        5.021E-5      -31.04        0.99974       -0.19          
63.2969       0.81788       -3.66         4.048E-5      154.36        1.685E-5      -61.94        0.99975       -0.19          
63.8968       0.81771       -3.69         5.603E-5      142.34        2.375E-5      -10.00        0.99972       -0.19          
64.4968       0.81771       -3.72         3.534E-5      11.43         2.635E-5      125.81        0.99972       -0.20          
65.0968       0.81766       -3.76         4.079E-5      174.08        2.813E-5      88.84         0.99975       -0.19          
65.6967       0.81766       -3.79         3.859E-5      -64.53        1.807E-5      -1.69         0.99972       -0.20          
66.2967       0.81762       -3.83         6.832E-5      -71.06        1.066E-5      -29.12        0.99974       -0.20          
66.8967       0.81771       -3.86         1.358E-5      157.09        2.749E-5      -33.47        0.99977       -0.20          
67.4966       0.81781       -3.89         9.301E-6      103.62        1.173E-5      -49.73        0.99974       -0.21          
68.0966       0.81783       -3.92         1.843E-5      -45.80        1.386E-5      37.40         0.99972       -0.20          
68.6966       0.81778       -3.98         3.165E-5      19.86         2.077E-6      -134.17       0.9997        -0.20          
69.2966       0.81772       -4.00         1.125E-5      -41.88        2.846E-5      153.07        0.99973       -0.21          
69.8965       0.81771       -4.04         1.772E-5      -86.09        5.692E-6      61.19         0.99978       -0.21          
70.4965       0.81765       -4.08         4.059E-5      5.88          1.002E-5      -95.29        0.99975       -0.21          
71.0965       0.81759       -4.11         2.043E-5      117.79        2.49E-5       126.95        0.99973       -0.21          
71.6964       0.81762       -4.15         3.642E-5      91.36         1.704E-5      -121.74       0.99976       -0.21          
72.2964       0.81755       -4.19         4.659E-5      111.88        1.059E-5      134.16        0.99975       -0.21          
72.8964       0.81747       -4.22         3.063E-5      -148.88       3.964E-5      114.22        0.99982       -0.21          
73.4963       0.81751       -4.26         2.81E-5       -101.95       2.586E-5      15.34         0.99974       -0.22          
74.0963       0.81752       -4.30         6.695E-5      -116.73       3.781E-5      40.41         0.99973       -0.21          
74.6963       0.81752       -4.34         1.462E-5      83.69         2.86E-5       -55.41        0.99979       -0.22          
75.2963       0.81749       -4.38         3.32E-5       146.18        3.823E-5      -110.18       0.99977       -0.22          
75.8962       0.81743       -4.42         5.01E-5       -148.71       4.567E-5      141.14        0.99977       -0.22          
76.4962       0.81732       -4.45         3.387E-5      -70.95        1.576E-5      93.49         0.99977       -0.21          
77.0962       0.81737       -4.48         3.406E-5      111.88        2.032E-5      68.56         0.99979       -0.22          
77.6961       0.81731       -4.52         2.85E-5       122.16        1.609E-5      -113.20       0.99973       -0.22          
78.2961       0.81735       -4.55         2.896E-5      -14.90        7.02E-6       -153.33       0.9998        -0.22          
78.8961       0.81718       -4.59         4.627E-5      48.59         4.39E-5       -138.92       0.99968       -0.22          
79.4960       0.8171        -4.62         5.215E-5      -156.95       1.311E-5      92.47         0.99975       -0.22          
80.0960       0.81718       -4.66         1.122E-5      163.18        1.376E-5      -72.64        0.99973       -0.22          
80.6960       0.81724       -4.69         3.643E-5      177.21        9.91E-6       -88.44        0.99976       -0.22          
81.2960       0.81709       -4.74         1.172E-5      -175.40       1.736E-5      102.96        0.99978       -0.22          
81.8959       0.81706       -4.77         1.566E-5      85.19         2.308E-6      -43.39        0.99981       -0.22          
82.4959       0.81709       -4.80         1.334E-5      -50.81        2.445E-5      137.86        0.99977       -0.22          
83.0959       0.81709       -4.85         2.308E-5      63.70         3.566E-5      -151.19       0.99976       -0.22          
83.6958       0.81695       -4.87         4.417E-5      135.98        2.145E-5      -55.22        0.99971       -0.22          
84.2958       0.81701       -4.92         2.147E-5      -112.86       2.321E-5      1.64          0.99979       -0.23          
84.8958       0.81699       -4.96         2.07E-5       -97.33        2.89E-5       64.47         0.99975       -0.23          
85.4957       0.81686       -4.99         3.524E-5      156.47        3.459E-5      57.98         0.99977       -0.23          
86.0957       0.81706       -5.02         2.542E-5      -49.64        5.825E-6      108.78        0.99969       -0.23          
86.6957       0.8169        -5.06         1.389E-5      -33.80        2.239E-5      -111.45       0.99969       -0.23          
87.2957       0.81686       -5.09         5.122E-5      111.17        2.971E-6      49.04         0.99978       -0.23          
87.8956       0.81691       -5.14         2.534E-5      -19.69        1.717E-5      -104.41       0.99973       -0.23          
88.4956       0.8169        -5.18         3.806E-5      56.28         2.38E-5       177.08        0.99979       -0.23          
89.0956       0.81689       -5.21         7.316E-5      127.07        4.677E-5      -73.69        0.99977       -0.24          
89.6955       0.81677       -5.26         3.629E-5      119.99        2.648E-5      37.94         0.99971       -0.24          
90.2955       0.81681       -5.29         2.043E-5      -43.98        2.409E-5      139.81        0.99974       -0.24          
90.8955       0.81667       -5.33         4.345E-5      -117.69       1.033E-5      -138.13       0.99977       -0.24          
91.4954       0.81665       -5.37         5.983E-5      -104.66       4.65E-6       93.44         0.9998        -0.24          
92.0954       0.81672       -5.41         2.377E-5      169.28        3.312E-5      172.06        0.99971       -0.24          
