!    8/6/2020   02:29:27 
! Ref Plane: 0.000 mm
# MHZ S MA R  50
!
0.3000        0.04761       178.71        9.882E-2      -1.06         9.654E-2      -0.84         0.81524       -0.35          
0.9000        0.04765       179.08        9.494E-2      -0.53         9.53E-2       -0.26         0.80952       -0.49          
1.4999        0.04777       179.19        9.515E-2      -0.39         9.537E-2      -0.38         0.80929       -0.63          
2.0999        0.04775       179.39        9.515E-2      -0.54         9.532E-2      -0.47         0.80941       -0.83          
2.6999        0.04779       179.56        9.519E-2      -0.68         9.534E-2      -0.63         0.80942       -1.00          
3.2999        0.04776       179.82        9.522E-2      -0.79         9.536E-2      -0.82         0.8095        -1.17          
3.8998        0.04787       -180.00       9.518E-2      -0.95         9.537E-2      -0.93         0.80945       -1.35          
4.4998        0.04782       -179.84       9.518E-2      -1.10         9.537E-2      -1.06         0.80954       -1.51          
5.0998        0.04793       -179.53       9.52E-2       -1.21         9.536E-2      -1.19         0.80953       -1.68          
5.6997        0.0479        -179.27       9.519E-2      -1.35         9.54E-2       -1.36         0.80971       -1.87          
6.2997        0.04793       -179.17       9.516E-2      -1.51         9.538E-2      -1.48         0.80941       -2.06          
6.8997        0.04799       -178.92       9.522E-2      -1.69         9.536E-2      -1.64         0.80965       -2.23          
7.4996        0.048         -178.66       9.519E-2      -1.77         9.535E-2      -1.78         0.80964       -2.43          
8.0996        0.04803       -178.48       9.517E-2      -1.94         9.539E-2      -1.91         0.80945       -2.61          
8.6996        0.04807       -178.27       9.519E-2      -2.04         9.54E-2       -2.04         0.80964       -2.77          
9.2996        0.04809       -178.03       9.527E-2      -2.21         9.54E-2       -2.21         0.80977       -2.95          
9.8995        0.0481        -177.81       9.519E-2      -2.38         9.539E-2      -2.34         0.80944       -3.12          
10.4995       0.04817       -177.64       9.518E-2      -2.52         9.539E-2      -2.50         0.80983       -3.30          
11.0995       0.04822       -177.41       9.522E-2      -2.64         9.541E-2      -2.61         0.80989       -3.47          
11.6994       0.04823       -177.17       9.522E-2      -2.77         9.541E-2      -2.76         0.80996       -3.66          
12.2994       0.04824       -176.95       9.52E-2       -2.94         9.538E-2      -2.90         0.80985       -3.83          
12.8994       0.04825       -176.77       9.523E-2      -3.00         9.539E-2      -3.06         0.80987       -4.00          
13.4993       0.04828       -176.56       9.53E-2       -3.22         9.541E-2      -3.21         0.81004       -4.19          
14.0993       0.04837       -176.37       9.525E-2      -3.31         9.541E-2      -3.35         0.81011       -4.35          
14.6993       0.04833       -176.10       9.524E-2      -3.51         9.544E-2      -3.49         0.80988       -4.53          
15.2993       0.04837       -175.98       9.522E-2      -3.58         9.541E-2      -3.62         0.81009       -4.71          
15.8992       0.04841       -175.77       9.527E-2      -3.72         9.54E-2       -3.79         0.81014       -4.86          
16.4992       0.04847       -175.59       9.527E-2      -3.90         9.544E-2      -3.93         0.81004       -5.05          
17.0992       0.04849       -175.34       9.529E-2      -4.01         9.542E-2      -4.08         0.81026       -5.23          
17.6991       0.0486        -175.14       9.528E-2      -4.16         9.544E-2      -4.23         0.81016       -5.42          
18.2991       0.0486        -174.98       9.526E-2      -4.32         9.545E-2      -4.36         0.8102        -5.56          
18.8991       0.04861       -174.76       9.53E-2       -4.46         9.547E-2      -4.47         0.81049       -5.73          
19.4990       0.04863       -174.56       9.536E-2      -4.62         9.549E-2      -4.64         0.8105        -5.91          
20.0990       0.04868       -174.34       9.532E-2      -4.74         9.548E-2      -4.78         0.81036       -6.10          
20.6990       0.04875       -174.15       9.533E-2      -4.91         9.551E-2      -4.92         0.81042       -6.26          
21.2990       0.0487        -173.91       9.531E-2      -5.06         9.551E-2      -5.05         0.81025       -6.43          
21.8989       0.04878       -173.80       9.535E-2      -5.18         9.552E-2      -5.21         0.81038       -6.61          
22.4989       0.04881       -173.56       9.533E-2      -5.35         9.558E-2      -5.34         0.81046       -6.78          
23.0989       0.04888       -173.43       9.536E-2      -5.46         9.559E-2      -5.49         0.81062       -6.96          
23.6988       0.04888       -173.13       9.54E-2       -5.60         9.556E-2      -5.65         0.81023       -7.13          
24.2988       0.0489        -173.00       9.537E-2      -5.73         9.555E-2      -5.76         0.81031       -7.30          
24.8988       0.04898       -172.79       9.538E-2      -5.90         9.558E-2      -5.94         0.81015       -7.47          
25.4987       0.04901       -172.61       9.541E-2      -6.00         9.555E-2      -6.06         0.81018       -7.65          
26.0987       0.04906       -172.40       9.534E-2      -6.16         9.558E-2      -6.20         0.81006       -7.82          
26.6987       0.04913       -172.23       9.536E-2      -6.28         9.554E-2      -6.33         0.80993       -7.98          
27.2987       0.04913       -172.00       9.546E-2      -6.45         9.558E-2      -6.47         0.80975       -8.16          
27.8986       0.04916       -171.83       9.547E-2      -6.61         9.56E-2       -6.61         0.8095        -8.32          
28.4986       0.04922       -171.63       9.549E-2      -6.74         9.559E-2      -6.77         0.80949       -8.51          
29.0986       0.04926       -171.58       9.544E-2      -6.88         9.562E-2      -6.92         0.80925       -8.66          
29.6985       0.04932       -171.32       9.546E-2      -6.99         9.56E-2       -7.02         0.80908       -8.85          
30.2985       0.0493        -171.12       9.544E-2      -7.17         9.561E-2      -7.21         0.80884       -9.02          
30.8985       0.04936       -170.91       9.547E-2      -7.29         9.558E-2      -7.33         0.8089        -9.20          
31.4984       0.04942       -170.74       9.545E-2      -7.41         9.557E-2      -7.46         0.8088        -9.36          
32.0984       0.04947       -170.66       9.549E-2      -7.58         9.565E-2      -7.62         0.8088        -9.54          
32.6984       0.04948       -170.43       9.55E-2       -7.72         9.565E-2      -7.74         0.80867       -9.71          
33.2984       0.04951       -170.27       9.552E-2      -7.85         9.564E-2      -7.88         0.80861       -9.86          
33.8983       0.04957       -170.10       9.556E-2      -7.98         9.566E-2      -8.01         0.80873       -10.02         
34.4983       0.04963       -169.89       9.555E-2      -8.13         9.569E-2      -8.15         0.80887       -10.17         
35.0983       0.04963       -169.77       9.558E-2      -8.26         9.569E-2      -8.32         0.8089        -10.36         
35.6982       0.04967       -169.57       9.561E-2      -8.39         9.57E-2       -8.44         0.80906       -10.52         
36.2982       0.04973       -169.40       9.564E-2      -8.57         9.569E-2      -8.61         0.80899       -10.72         
36.8982       0.04978       -169.22       9.561E-2      -8.70         9.573E-2      -8.76         0.80896       -10.89         
37.4981       0.04981       -169.11       9.565E-2      -8.83         9.576E-2      -8.89         0.80887       -11.06         
38.0981       0.04988       -168.90       9.568E-2      -8.95         9.574E-2      -9.06         0.80889       -11.26         
38.6981       0.04989       -168.73       9.568E-2      -9.07         9.575E-2      -9.19         0.80879       -11.43         
39.2981       0.04995       -168.61       9.566E-2      -9.25         9.573E-2      -9.34         0.80879       -11.61         
39.8980       0.04995       -168.42       9.566E-2      -9.40         9.576E-2      -9.52         0.80866       -11.80         
40.4980       0.04998       -168.23       9.572E-2      -9.56         9.58E-2       -9.60         0.80865       -11.96         
41.0980       0.05005       -168.06       9.573E-2      -9.69         9.581E-2      -9.77         0.80839       -12.15         
41.6979       0.05011       -167.97       9.572E-2      -9.84         9.582E-2      -9.92         0.80858       -12.34         
42.2979       0.05018       -167.81       9.573E-2      -9.97         9.586E-2      -10.07        0.80852       -12.53         
42.8979       0.05021       -167.63       9.571E-2      -10.13        9.582E-2      -10.18        0.8086        -12.71         
43.4978       0.05018       -167.49       9.574E-2      -10.25        9.585E-2      -10.34        0.80861       -12.90         
44.0978       0.05028       -167.35       9.574E-2      -10.43        9.588E-2      -10.47        0.80853       -13.10         
44.6978       0.05036       -167.28       9.575E-2      -10.56        9.588E-2      -10.65        0.8087        -13.29         
45.2978       0.05041       -167.09       9.582E-2      -10.71        9.589E-2      -10.77        0.80858       -13.48         
45.8977       0.05047       -166.89       9.582E-2      -10.88        9.591E-2      -10.92        0.8087        -13.66         
46.4977       0.05047       -166.78       9.578E-2      -11.02        9.592E-2      -11.05        0.80872       -13.86         
47.0977       0.05049       -166.58       9.586E-2      -11.17        9.594E-2      -11.21        0.80963       -14.04         
47.6976       0.05056       -166.43       9.583E-2      -11.33        9.594E-2      -11.36        0.80967       -14.22         
48.2976       0.05062       -166.36       9.59E-2       -11.47        9.596E-2      -11.49        0.80967       -14.39         
48.8976       0.05068       -166.18       9.586E-2      -11.63        9.597E-2      -11.64        0.80984       -14.58         
49.4975       0.05074       -166.02       9.587E-2      -11.78        9.604E-2      -11.77        0.80975       -14.75         
50.0975       0.05073       -165.89       9.589E-2      -11.93        9.597E-2      -11.95        0.80983       -14.93         
50.6975       0.05079       -165.71       9.589E-2      -12.08        9.604E-2      -12.12        0.80993       -15.13         
51.2975       0.05086       -165.58       9.591E-2      -12.21        9.608E-2      -12.29        0.80998       -15.32         
51.8974       0.05096       -165.45       9.589E-2      -12.35        9.611E-2      -12.43        0.80992       -15.49         
52.4974       0.05171       -165.59       9.591E-2      -12.46        9.683E-2      -12.75        0.80789       -15.68         
53.0974       0.05099       -165.13       9.604E-2      -12.65        9.597E-2      -12.68        0.80744       -15.78         
53.6973       0.05105       -164.97       9.594E-2      -12.82        9.611E-2      -12.87        0.81046       -16.05         
54.2973       0.05113       -164.92       9.596E-2      -12.96        9.615E-2      -13.03        0.81042       -16.23         
54.8973       0.05115       -164.75       9.595E-2      -13.13        9.613E-2      -13.17        0.81045       -16.39         
55.4972       0.05122       -164.64       9.599E-2      -13.26        9.616E-2      -13.31        0.81056       -16.57         
56.0972       0.05127       -164.50       9.601E-2      -13.41        9.613E-2      -13.47        0.81037       -16.75         
56.6972       0.05132       -164.32       9.60E-2       -13.57        9.615E-2      -13.59        0.8104        -16.91         
57.2972       0.05139       -164.16       9.603E-2      -13.72        9.617E-2      -13.75        0.81047       -17.09         
57.8971       0.0514        -164.01       9.602E-2      -13.86        9.62E-2       -13.92        0.81043       -17.27         
58.4971       0.05146       -163.90       9.608E-2      -14.02        9.62E-2       -14.07        0.81061       -17.45         
59.0971       0.05151       -163.78       9.607E-2      -14.15        9.622E-2      -14.22        0.81065       -17.62         
59.6970       0.05156       -163.61       9.61E-2       -14.31        9.627E-2      -14.38        0.81088       -17.80         
60.2970       0.05158       -163.48       9.61E-2       -14.47        9.625E-2      -14.55        0.81089       -17.97         
60.8970       0.05168       -163.29       9.61E-2       -14.63        9.626E-2      -14.72        0.81107       -18.15         
61.4969       0.05168       -163.22       9.608E-2      -14.81        9.622E-2      -14.88        0.81089       -18.33         
62.0969       0.05174       -163.06       9.609E-2      -14.96        9.623E-2      -15.00        0.81092       -18.51         
62.6969       0.05174       -162.99       9.609E-2      -15.09        9.617E-2      -15.19        0.81094       -18.69         
63.2969       0.05183       -162.81       9.603E-2      -15.24        9.62E-2       -15.30        0.81106       -18.88         
63.8968       0.05185       -162.66       9.601E-2      -15.37        9.615E-2      -15.44        0.81109       -19.04         
64.4968       0.05194       -162.46       9.603E-2      -15.49        9.618E-2      -15.57        0.81121       -19.24         
65.0968       0.05199       -162.29       9.599E-2      -15.61        9.618E-2      -15.69        0.81113       -19.42         
65.6967       0.05207       -162.15       9.601E-2      -15.73        9.621E-2      -15.80        0.81114       -19.60         
66.2967       0.0521        -162.02       9.608E-2      -15.85        9.623E-2      -15.95        0.81105       -19.78         
66.8967       0.05216       -161.89       9.612E-2      -15.99        9.629E-2      -16.09        0.81089       -19.97         
67.4966       0.05224       -161.71       9.614E-2      -16.15        9.635E-2      -16.23        0.81079       -20.16         
68.0966       0.05231       -161.60       9.62E-2       -16.28        9.639E-2      -16.36        0.81079       -20.34         
68.6966       0.05241       -161.42       9.623E-2      -16.41        9.643E-2      -16.49        0.81082       -20.49         
69.2966       0.05254       -161.31       9.627E-2      -16.61        9.647E-2      -16.65        0.81069       -20.70         
69.8965       0.05258       -161.20       9.631E-2      -16.77        9.65E-2       -16.81        0.81071       -20.88         
70.4965       0.05262       -161.12       9.632E-2      -16.92        9.649E-2      -16.97        0.81088       -21.05         
71.0965       0.05268       -160.97       9.631E-2      -17.10        9.655E-2      -17.12        0.81094       -21.22         
71.6964       0.05276       -160.80       9.635E-2      -17.25        9.655E-2      -17.30        0.81088       -21.39         
72.2964       0.05282       -160.76       9.64E-2       -17.40        9.651E-2      -17.46        0.81088       -21.57         
72.8964       0.05293       -160.64       9.638E-2      -17.54        9.655E-2      -17.61        0.81089       -21.77         
73.4963       0.05302       -160.50       9.641E-2      -17.74        9.655E-2      -17.76        0.81093       -21.94         
74.0963       0.05304       -160.40       9.646E-2      -17.85        9.66E-2       -17.90        0.81105       -22.13         
74.6963       0.05312       -160.34       9.646E-2      -18.02        9.663E-2      -18.05        0.81082       -22.29         
75.2963       0.05319       -160.15       9.646E-2      -18.18        9.664E-2      -18.21        0.81092       -22.48         
75.8962       0.05329       -160.07       9.648E-2      -18.35        9.67E-2       -18.39        0.81101       -22.65         
76.4962       0.05338       -159.89       9.654E-2      -18.49        9.671E-2      -18.53        0.81118       -22.83         
77.0962       0.05345       -159.84       9.655E-2      -18.64        9.673E-2      -18.68        0.81123       -23.00         
77.6961       0.0535        -159.74       9.659E-2      -18.81        9.676E-2      -18.86        0.8115        -23.18         
78.2961       0.05362       -159.60       9.659E-2      -18.94        9.678E-2      -18.98        0.81146       -23.36         
78.8961       0.05366       -159.51       9.66E-2       -19.13        9.68E-2       -19.16        0.81164       -23.52         
79.4960       0.05372       -159.36       9.666E-2      -19.28        9.687E-2      -19.31        0.81188       -23.69         
80.0960       0.05382       -159.28       9.668E-2      -19.45        9.684E-2      -19.48        0.81188       -23.87         
80.6960       0.05386       -159.21       9.671E-2      -19.61        9.686E-2      -19.64        0.81206       -24.04         
81.2960       0.05396       -159.12       9.67E-2       -19.80        9.69E-2       -19.80        0.81221       -24.21         
81.8959       0.05403       -159.02       9.674E-2      -19.94        9.693E-2      -19.96        0.81241       -24.38         
82.4959       0.05411       -158.89       9.676E-2      -20.11        9.694E-2      -20.14        0.81265       -24.56         
83.0959       0.05419       -158.78       9.676E-2      -20.30        9.697E-2      -20.30        0.81281       -24.71         
83.6958       0.05425       -158.68       9.679E-2      -20.46        9.694E-2      -20.49        0.81301       -24.90         
84.2958       0.05433       -158.54       9.68E-2       -20.65        9.696E-2      -20.64        0.81316       -25.06         
84.8958       0.0544        -158.49       9.68E-2       -20.82        9.697E-2      -20.87        0.81319       -25.23         
85.4957       0.05449       -158.45       9.687E-2      -21.01        9.697E-2      -21.05        0.81351       -25.41         
86.0957       0.05455       -158.33       9.682E-2      -21.18        9.698E-2      -21.24        0.8135        -25.60         
86.6957       0.05459       -158.20       9.681E-2      -21.39        9.698E-2      -21.43        0.81375       -25.76         
87.2957       0.05467       -158.17       9.682E-2      -21.58        9.696E-2      -21.63        0.81406       -25.94         
87.8956       0.05468       -158.12       9.678E-2      -21.76        9.689E-2      -21.81        0.81428       -26.10         
88.4956       0.0548        -158.01       9.672E-2      -21.96        9.686E-2      -22.00        0.81447       -26.26         
89.0956       0.05483       -157.93       9.669E-2      -22.15        9.679E-2      -22.21        0.81477       -26.43         
89.6955       0.05484       -157.85       9.667E-2      -22.36        9.671E-2      -22.40        0.81522       -26.60         
90.2955       0.05488       -157.79       9.655E-2      -22.54        9.663E-2      -22.60        0.81563       -26.78         
90.8955       0.05484       -157.77       9.643E-2      -22.76        9.644E-2      -22.79        0.81592       -26.96         
91.4954       0.05484       -157.64       9.625E-2      -22.95        9.628E-2      -22.99        0.81638       -27.15         
92.0954       0.05478       -157.57       9.601E-2      -23.13        9.607E-2      -23.14        0.81662       -27.33         
