!    8/6/2020   02:28:38 
! Ref Plane: 0.000 mm
# MHZ S MA R  50
!
0.3000        0.04747       178.76        9.881E-2      -1.08         9.653E-2      -0.81         0.81505       -0.38          
0.9000        0.04773       179.03        9.50E-2       -0.50         9.536E-2      -0.22         0.80993       -0.50          
1.4999        0.04777       179.24        9.519E-2      -0.34         9.534E-2      -0.32         0.80927       -0.66          
2.0999        0.04774       179.44        9.516E-2      -0.50         9.531E-2      -0.41         0.80933       -0.87          
2.6999        0.04776       179.65        9.521E-2      -0.61         9.532E-2      -0.54         0.80929       -1.03          
3.2999        0.04776       179.93        9.521E-2      -0.69         9.535E-2      -0.70         0.80951       -1.22          
3.8998        0.04784       -179.88       9.52E-2       -0.83         9.535E-2      -0.83         0.80946       -1.40          
4.4998        0.04785       -179.68       9.519E-2      -0.96         9.537E-2      -0.93         0.80952       -1.57          
5.0998        0.04792       -179.33       9.518E-2      -1.03         9.535E-2      -1.03         0.80949       -1.74          
5.6997        0.04788       -179.09       9.518E-2      -1.18         9.537E-2      -1.19         0.80964       -1.93          
6.2997        0.04792       -178.96       9.516E-2      -1.32         9.536E-2      -1.29         0.80943       -2.12          
6.8997        0.04796       -178.66       9.518E-2      -1.48         9.532E-2      -1.42         0.80961       -2.30          
7.4996        0.04801       -178.40       9.518E-2      -1.53         9.536E-2      -1.53         0.80959       -2.50          
8.0996        0.04803       -178.20       9.516E-2      -1.69         9.537E-2      -1.67         0.80939       -2.69          
8.6996        0.04806       -177.95       9.518E-2      -1.78         9.537E-2      -1.76         0.80959       -2.86          
9.2996        0.04807       -177.71       9.523E-2      -1.90         9.54E-2       -1.93         0.80976       -3.05          
9.8995        0.04811       -177.49       9.52E-2       -2.07         9.538E-2      -2.04         0.8094        -3.21          
10.4995       0.04813       -177.27       9.518E-2      -2.19         9.539E-2      -2.17         0.80977       -3.40          
11.0995       0.0482        -177.00       9.519E-2      -2.29         9.537E-2      -2.26         0.80986       -3.58          
11.6994       0.04822       -176.76       9.521E-2      -2.40         9.536E-2      -2.39         0.80994       -3.77          
12.2994       0.04823       -176.54       9.516E-2      -2.54         9.534E-2      -2.51         0.8098        -3.94          
12.8994       0.04827       -176.30       9.521E-2      -2.59         9.537E-2      -2.63         0.80981       -4.12          
13.4993       0.04825       -176.05       9.527E-2      -2.79         9.535E-2      -2.78         0.80997       -4.31          
14.0993       0.04829       -175.90       9.524E-2      -2.88         9.537E-2      -2.91         0.80996       -4.48          
14.6993       0.04833       -175.62       9.518E-2      -3.04         9.539E-2      -3.01         0.80987       -4.65          
15.2993       0.04836       -175.42       9.52E-2       -3.09         9.538E-2      -3.15         0.81005       -4.84          
15.8992       0.04839       -175.22       9.522E-2      -3.22         9.535E-2      -3.29         0.81012       -5.00          
16.4992       0.04844       -175.03       9.521E-2      -3.37         9.539E-2      -3.40         0.80993       -5.19          
17.0992       0.04846       -174.76       9.521E-2      -3.46         9.536E-2      -3.51         0.81012       -5.38          
17.6991       0.04856       -174.51       9.521E-2      -3.59         9.537E-2      -3.65         0.81007       -5.57          
18.2991       0.04854       -174.36       9.52E-2       -3.74         9.539E-2      -3.76         0.81005       -5.72          
18.8991       0.04857       -174.11       9.523E-2      -3.86         9.539E-2      -3.87         0.8104        -5.89          
19.4990       0.04861       -173.88       9.527E-2      -4.00         9.539E-2      -4.01         0.81033       -6.08          
20.0990       0.04862       -173.64       9.522E-2      -4.10         9.539E-2      -4.14         0.8102        -6.27          
20.6990       0.04867       -173.43       9.528E-2      -4.24         9.542E-2      -4.24         0.81031       -6.43          
21.2990       0.04867       -173.17       9.525E-2      -4.36         9.542E-2      -4.37         0.81013       -6.61          
21.8989       0.04873       -173.02       9.524E-2      -4.48         9.541E-2      -4.49         0.81026       -6.80          
22.4989       0.04874       -172.78       9.521E-2      -4.63         9.547E-2      -4.60         0.8103        -6.97          
23.0989       0.04882       -172.61       9.523E-2      -4.72         9.548E-2      -4.73         0.81045       -7.16          
23.6988       0.04882       -172.31       9.528E-2      -4.83         9.543E-2      -4.85         0.81006       -7.33          
24.2988       0.04885       -172.14       9.526E-2      -4.94         9.543E-2      -4.98         0.8101        -7.50          
24.8988       0.04891       -171.92       9.524E-2      -5.10         9.543E-2      -5.12         0.81          -7.68          
25.4987       0.04895       -171.75       9.526E-2      -5.19         9.54E-2       -5.25         0.80995       -7.86          
26.0987       0.049         -171.47       9.521E-2      -5.30         9.544E-2      -5.34         0.80986       -8.03          
26.6987       0.04906       -171.28       9.523E-2      -5.41         9.541E-2      -5.45         0.80968       -8.20          
27.2987       0.04904       -171.05       9.528E-2      -5.56         9.541E-2      -5.58         0.80946       -8.38          
27.8986       0.04909       -170.87       9.526E-2      -5.70         9.54E-2       -5.69         0.80926       -8.55          
28.4986       0.04913       -170.61       9.528E-2      -5.80         9.542E-2      -5.83         0.80922       -8.74          
29.0986       0.04915       -170.52       9.528E-2      -5.91         9.543E-2      -5.96         0.80898       -8.90          
29.6985       0.04925       -170.29       9.527E-2      -6.03         9.542E-2      -6.05         0.80882       -9.10          
30.2985       0.04924       -170.09       9.525E-2      -6.19         9.542E-2      -6.22         0.80858       -9.27          
30.8985       0.04928       -169.84       9.528E-2      -6.31         9.539E-2      -6.28         0.80858       -9.45          
31.4984       0.04934       -169.65       9.523E-2      -6.39         9.535E-2      -6.43         0.80849       -9.62          
32.0984       0.04936       -169.49       9.527E-2      -6.55         9.541E-2      -6.55         0.80847       -9.80          
32.6984       0.04939       -169.26       9.524E-2      -6.65         9.543E-2      -6.65         0.80834       -9.97          
33.2984       0.04943       -169.10       9.526E-2      -6.76         9.54E-2       -6.78         0.80822       -10.13         
33.8983       0.04945       -168.91       9.532E-2      -6.88         9.54E-2       -6.91         0.80835       -10.29         
34.4983       0.04951       -168.70       9.527E-2      -6.99         9.541E-2      -7.01         0.80851       -10.45         
35.0983       0.0495        -168.54       9.531E-2      -7.11         9.544E-2      -7.17         0.8085        -10.65         
35.6982       0.04954       -168.35       9.533E-2      -7.21         9.542E-2      -7.25         0.80863       -10.81         
36.2982       0.04963       -168.14       9.534E-2      -7.36         9.54E-2       -7.41         0.80858       -11.01         
36.8982       0.04963       -167.92       9.532E-2      -7.48         9.54E-2       -7.52         0.80845       -11.19         
37.4981       0.04968       -167.76       9.532E-2      -7.57         9.542E-2      -7.64         0.80836       -11.37         
38.0981       0.04974       -167.57       9.534E-2      -7.69         9.542E-2      -7.77         0.80834       -11.56         
38.6981       0.04977       -167.38       9.536E-2      -7.80         9.54E-2       -7.90         0.80832       -11.75         
39.2981       0.0498        -167.21       9.533E-2      -7.93         9.54E-2       -8.01         0.80827       -11.93         
39.8980       0.04981       -167.01       9.536E-2      -8.09         9.541E-2      -8.18         0.80806       -12.12         
40.4980       0.04983       -166.76       9.534E-2      -8.22         9.54E-2       -8.24         0.80808       -12.28         
41.0980       0.04991       -166.59       9.536E-2      -8.33         9.543E-2      -8.38         0.80781       -12.48         
41.6979       0.04993       -166.44       9.533E-2      -8.44         9.542E-2      -8.51         0.80804       -12.67         
42.2979       0.04998       -166.29       9.532E-2      -8.55         9.547E-2      -8.63         0.8079        -12.87         
42.8979       0.05002       -166.13       9.533E-2      -8.69         9.542E-2      -8.74         0.80794       -13.06         
43.4978       0.05          -165.96       9.534E-2      -8.80         9.544E-2      -8.87         0.80797       -13.26         
44.0978       0.05009       -165.75       9.534E-2      -8.94         9.54E-2       -8.99         0.80788       -13.46         
44.6978       0.05015       -165.66       9.532E-2      -9.06         9.543E-2      -9.12         0.80797       -13.66         
45.2978       0.05021       -165.48       9.535E-2      -9.19         9.543E-2      -9.22         0.80787       -13.85         
45.8977       0.05027       -165.24       9.532E-2      -9.31         9.544E-2      -9.35         0.80799       -14.04         
46.4977       0.05026       -165.09       9.528E-2      -9.45         9.543E-2      -9.46         0.80797       -14.24         
47.0977       0.05027       -164.91       9.534E-2      -9.60         9.549E-2      -9.60         0.80889       -14.42         
47.6976       0.05033       -164.71       9.532E-2      -9.71         9.542E-2      -9.73         0.80888       -14.61         
48.2976       0.0504        -164.59       9.536E-2      -9.86         9.543E-2      -9.83         0.80887       -14.78         
48.8976       0.05044       -164.38       9.53E-2       -9.97         9.539E-2      -9.98         0.809         -14.98         
49.4975       0.05051       -164.20       9.531E-2      -10.10        9.547E-2      -10.08        0.80888       -15.16         
50.0975       0.05049       -164.07       9.527E-2      -10.21        9.539E-2      -10.23        0.8089        -15.34         
50.6975       0.05055       -163.85       9.53E-2       -10.34        9.546E-2      -10.37        0.80902       -15.54         
51.2975       0.05061       -163.69       9.529E-2      -10.45        9.544E-2      -10.49        0.80903       -15.74         
51.8974       0.05069       -163.56       9.525E-2      -10.56        9.548E-2      -10.62        0.80889       -15.92         
52.4974       0.05144       -163.65       9.524E-2      -10.63        9.621E-2      -10.95        0.80687       -16.11         
53.0974       0.05073       -163.18       9.538E-2      -10.80        9.539E-2      -10.83        0.80642       -16.21         
53.6973       0.05076       -163.02       9.527E-2      -10.94        9.546E-2      -10.97        0.80939       -16.50         
54.2973       0.05083       -162.89       9.528E-2      -11.05        9.548E-2      -11.13        0.80934       -16.68         
54.8973       0.05085       -162.71       9.527E-2      -11.22        9.544E-2      -11.23        0.80927       -16.85         
55.4972       0.0509        -162.57       9.527E-2      -11.31        9.548E-2      -11.35        0.8094        -17.03         
56.0972       0.05096       -162.38       9.527E-2      -11.43        9.546E-2      -11.47        0.80916       -17.22         
56.6972       0.051         -162.18       9.528E-2      -11.55        9.544E-2      -11.56        0.80916       -17.38         
57.2972       0.05107       -162.02       9.526E-2      -11.69        9.545E-2      -11.69        0.80914       -17.58         
57.8971       0.05111       -161.80       9.527E-2      -11.79        9.544E-2      -11.83        0.80915       -17.75         
58.4971       0.05116       -161.70       9.53E-2       -11.92        9.546E-2      -11.97        0.80922       -17.95         
59.0971       0.05117       -161.53       9.529E-2      -12.05        9.545E-2      -12.07        0.8092        -18.12         
59.6970       0.05124       -161.31       9.532E-2      -12.17        9.549E-2      -12.22        0.80932       -18.31         
60.2970       0.05125       -161.15       9.527E-2      -12.28        9.545E-2      -12.33        0.8093        -18.48         
60.8970       0.05134       -161.00       9.53E-2       -12.42        9.548E-2      -12.49        0.80934       -18.67         
61.4969       0.05135       -160.85       9.53E-2       -12.55        9.546E-2      -12.60        0.8092        -18.86         
62.0969       0.05141       -160.66       9.53E-2       -12.68        9.545E-2      -12.72        0.80909       -19.04         
62.6969       0.05146       -160.56       9.531E-2      -12.78        9.542E-2      -12.86        0.80901       -19.23         
63.2969       0.05154       -160.36       9.529E-2      -12.93        9.545E-2      -12.97        0.80901       -19.42         
63.8968       0.05156       -160.21       9.529E-2      -13.03        9.544E-2      -13.09        0.80896       -19.58         
64.4968       0.05165       -160.01       9.531E-2      -13.18        9.542E-2      -13.21        0.80897       -19.77         
65.0968       0.0517        -159.86       9.526E-2      -13.27        9.547E-2      -13.35        0.80895       -19.95         
65.6967       0.05177       -159.69       9.528E-2      -13.41        9.546E-2      -13.47        0.80894       -20.13         
66.2967       0.05179       -159.55       9.526E-2      -13.52        9.543E-2      -13.61        0.80888       -20.32         
66.8967       0.05182       -159.40       9.528E-2      -13.66        9.542E-2      -13.71        0.80871       -20.51         
67.4966       0.05185       -159.23       9.523E-2      -13.77        9.545E-2      -13.84        0.80873       -20.71         
68.0966       0.05188       -159.07       9.525E-2      -13.90        9.544E-2      -13.93        0.80865       -20.89         
68.6966       0.05197       -158.87       9.526E-2      -14.01        9.545E-2      -14.09        0.80866       -21.06         
69.2966       0.05209       -158.72       9.526E-2      -14.16        9.545E-2      -14.18        0.80855       -21.27         
69.8965       0.05211       -158.54       9.527E-2      -14.28        9.546E-2      -14.33        0.80858       -21.45         
70.4965       0.05216       -158.43       9.526E-2      -14.38        9.544E-2      -14.44        0.80866       -21.63         
71.0965       0.05219       -158.27       9.524E-2      -14.53        9.546E-2      -14.55        0.80864       -21.81         
71.6964       0.05227       -158.11       9.521E-2      -14.66        9.542E-2      -14.70        0.80855       -21.99         
72.2964       0.05233       -157.99       9.524E-2      -14.78        9.538E-2      -14.82        0.80849       -22.17         
72.8964       0.0524        -157.88       9.524E-2      -14.92        9.542E-2      -14.93        0.8085        -22.37         
73.4963       0.05249       -157.67       9.523E-2      -15.06        9.538E-2      -15.06        0.8085        -22.55         
74.0963       0.05251       -157.56       9.524E-2      -15.17        9.539E-2      -15.20        0.80852       -22.75         
74.6963       0.05253       -157.47       9.521E-2      -15.30        9.539E-2      -15.31        0.80829       -22.92         
75.2963       0.05262       -157.26       9.52E-2       -15.42        9.536E-2      -15.42        0.80835       -23.11         
75.8962       0.05267       -157.10       9.519E-2      -15.55        9.538E-2      -15.59        0.80841       -23.29         
76.4962       0.05275       -156.89       9.521E-2      -15.65        9.54E-2       -15.70        0.80854       -23.47         
77.0962       0.05279       -156.80       9.52E-2       -15.77        9.537E-2      -15.81        0.80857       -23.66         
77.6961       0.05287       -156.67       9.517E-2      -15.91        9.541E-2      -15.96        0.80876       -23.84         
78.2961       0.05296       -156.44       9.521E-2      -16.00        9.538E-2      -16.04        0.80867       -24.03         
78.8961       0.053         -156.35       9.516E-2      -16.15        9.538E-2      -16.15        0.80877       -24.20         
79.4960       0.05307       -156.18       9.518E-2      -16.26        9.54E-2       -16.30        0.80896       -24.37         
80.0960       0.05309       -156.05       9.519E-2      -16.41        9.539E-2      -16.41        0.80892       -24.57         
80.6960       0.05315       -155.95       9.517E-2      -16.51        9.536E-2      -16.54        0.80898       -24.74         
81.2960       0.05323       -155.80       9.519E-2      -16.64        9.54E-2       -16.65        0.80908       -24.92         
81.8959       0.0533        -155.64       9.518E-2      -16.75        9.54E-2       -16.77        0.80921       -25.09         
82.4959       0.0534        -155.46       9.517E-2      -16.88        9.537E-2      -16.89        0.80937       -25.29         
83.0959       0.05345       -155.31       9.515E-2      -16.99        9.536E-2      -17.01        0.8094        -25.45         
83.6958       0.0535        -155.17       9.515E-2      -17.12        9.535E-2      -17.13        0.80949       -25.64         
84.2958       0.05358       -155.01       9.516E-2      -17.25        9.534E-2      -17.27        0.80951       -25.81         
84.8958       0.05362       -154.86       9.517E-2      -17.37        9.53E-2       -17.40        0.80946       -25.99         
85.4957       0.05371       -154.75       9.521E-2      -17.50        9.534E-2      -17.54        0.80965       -26.18         
86.0957       0.05377       -154.56       9.52E-2       -17.62        9.531E-2      -17.66        0.80957       -26.38         
86.6957       0.0538        -154.37       9.515E-2      -17.75        9.531E-2      -17.78        0.80962       -26.55         
87.2957       0.05388       -154.26       9.518E-2      -17.89        9.531E-2      -17.91        0.80976       -26.74         
87.8956       0.05392       -154.14       9.515E-2      -18.00        9.53E-2       -18.03        0.80972       -26.90         
88.4956       0.05406       -153.95       9.514E-2      -18.10        9.527E-2      -18.15        0.8097        -27.08         
89.0956       0.05413       -153.78       9.514E-2      -18.23        9.525E-2      -18.28        0.80982       -27.25         
89.6955       0.05419       -153.63       9.518E-2      -18.36        9.526E-2      -18.41        0.8099        -27.43         
90.2955       0.05425       -153.48       9.515E-2      -18.46        9.526E-2      -18.52        0.81004       -27.61         
90.8955       0.05431       -153.41       9.517E-2      -18.58        9.524E-2      -18.61        0.81003       -27.78         
91.4954       0.05437       -153.18       9.518E-2      -18.72        9.521E-2      -18.76        0.8101        -27.97         
92.0954       0.05445       -153.03       9.515E-2      -18.86        9.521E-2      -18.86        0.81          -28.14         
