!    8/6/2020   02:26:57 
! Ref Plane: 0.000 mm
# MHZ S MA R  50
!
0.3000        0.04736       178.77        9.884E-2      -0.99         9.658E-2      -0.77         0.8153        -0.35          
0.9000        0.04767       179.11        9.50E-2       -0.50         9.534E-2      -0.17         0.80991       -0.47          
1.4999        0.04773       179.27        9.517E-2      -0.33         9.533E-2      -0.23         0.80923       -0.63          
2.0999        0.04772       179.46        9.517E-2      -0.46         9.532E-2      -0.33         0.80933       -0.84          
2.6999        0.04777       179.71        9.519E-2      -0.55         9.535E-2      -0.46         0.80944       -1.00          
3.2999        0.04775       179.96        9.522E-2      -0.65         9.534E-2      -0.61         0.8095        -1.19          
3.8998        0.04785       -179.85       9.517E-2      -0.79         9.533E-2      -0.74         0.80945       -1.38          
4.4998        0.04784       -179.60       9.517E-2      -0.91         9.535E-2      -0.83         0.80951       -1.54          
5.0998        0.0479        -179.30       9.516E-2      -1.01         9.532E-2      -0.93         0.80951       -1.72          
5.6997        0.04791       -179.03       9.516E-2      -1.12         9.537E-2      -1.09         0.8097        -1.91          
6.2997        0.04794       -178.88       9.514E-2      -1.26         9.534E-2      -1.20         0.80945       -2.10          
6.8997        0.04796       -178.64       9.516E-2      -1.39         9.531E-2      -1.32         0.80963       -2.28          
7.4996        0.04801       -178.35       9.514E-2      -1.48         9.531E-2      -1.42         0.80969       -2.48          
8.0996        0.04805       -178.17       9.512E-2      -1.61         9.534E-2      -1.55         0.80944       -2.66          
8.6996        0.04808       -177.92       9.514E-2      -1.70         9.536E-2      -1.65         0.8097        -2.83          
9.2996        0.0481        -177.65       9.522E-2      -1.85         9.536E-2      -1.81         0.8098        -3.02          
9.8995        0.04811       -177.43       9.517E-2      -1.99         9.535E-2      -1.93         0.80947       -3.19          
10.4995       0.04816       -177.25       9.514E-2      -2.09         9.536E-2      -2.04         0.80988       -3.38          
11.0995       0.04822       -176.98       9.515E-2      -2.21         9.535E-2      -2.15         0.80995       -3.56          
11.6994       0.04824       -176.73       9.515E-2      -2.32         9.534E-2      -2.25         0.81003       -3.75          
12.2994       0.04824       -176.50       9.511E-2      -2.45         9.531E-2      -2.37         0.80989       -3.92          
12.8994       0.04827       -176.27       9.516E-2      -2.51         9.533E-2      -2.50         0.80997       -4.10          
13.4993       0.04829       -176.03       9.524E-2      -2.70         9.531E-2      -2.66         0.81013       -4.29          
14.0993       0.04833       -175.89       9.516E-2      -2.78         9.53E-2       -2.77         0.81015       -4.45          
14.6993       0.04838       -175.58       9.512E-2      -2.93         9.533E-2      -2.87         0.81001       -4.63          
15.2993       0.0484        -175.40       9.513E-2      -2.99         9.529E-2      -2.99         0.81016       -4.82          
15.8992       0.04843       -175.19       9.515E-2      -3.10         9.529E-2      -3.13         0.81025       -4.98          
16.4992       0.04846       -175.00       9.513E-2      -3.25         9.531E-2      -3.26         0.81016       -5.17          
17.0992       0.0485        -174.72       9.515E-2      -3.33         9.532E-2      -3.36         0.81037       -5.35          
17.6991       0.04858       -174.49       9.512E-2      -3.46         9.527E-2      -3.49         0.8103        -5.54          
18.2991       0.0486        -174.31       9.511E-2      -3.60         9.529E-2      -3.59         0.81032       -5.69          
18.8991       0.04862       -174.08       9.513E-2      -3.72         9.53E-2       -3.71         0.81066       -5.87          
19.4990       0.04863       -173.87       9.514E-2      -3.83         9.531E-2      -3.83         0.81065       -6.05          
20.0990       0.04865       -173.62       9.511E-2      -3.95         9.529E-2      -3.95         0.81053       -6.23          
20.6990       0.04872       -173.40       9.516E-2      -4.09         9.529E-2      -4.06         0.81062       -6.40          
21.2990       0.0487        -173.12       9.511E-2      -4.20         9.529E-2      -4.17         0.81047       -6.57          
21.8989       0.04876       -173.03       9.514E-2      -4.33         9.528E-2      -4.29         0.81061       -6.76          
22.4989       0.0488        -172.75       9.508E-2      -4.48         9.535E-2      -4.40         0.8107        -6.93          
23.0989       0.04889       -172.58       9.511E-2      -4.56         9.534E-2      -4.53         0.81086       -7.11          
23.6988       0.04886       -172.32       9.514E-2      -4.65         9.529E-2      -4.65         0.81051       -7.28          
24.2988       0.0489        -172.15       9.509E-2      -4.76         9.528E-2      -4.76         0.81056       -7.45          
24.8988       0.04897       -171.91       9.507E-2      -4.90         9.529E-2      -4.91         0.81046       -7.63          
25.4987       0.04901       -171.71       9.509E-2      -4.98         9.525E-2      -5.02         0.81046       -7.80          
26.0987       0.04904       -171.47       9.505E-2      -5.12         9.531E-2      -5.11         0.81038       -7.97          
26.6987       0.0491        -171.27       9.506E-2      -5.23         9.523E-2      -5.22         0.81021       -8.14          
27.2987       0.04911       -171.03       9.515E-2      -5.33         9.525E-2      -5.34         0.81005       -8.32          
27.8986       0.04913       -170.85       9.509E-2      -5.49         9.523E-2      -5.44         0.80986       -8.47          
28.4986       0.04917       -170.62       9.509E-2      -5.58         9.524E-2      -5.57         0.80983       -8.67          
29.0986       0.04921       -170.50       9.508E-2      -5.69         9.522E-2      -5.71         0.80963       -8.82          
29.6985       0.04929       -170.30       9.508E-2      -5.79         9.52E-2       -5.79         0.8095        -9.01          
30.2985       0.04927       -170.08       9.504E-2      -5.94         9.519E-2      -5.96         0.80928       -9.18          
30.8985       0.04931       -169.83       9.505E-2      -6.06         9.516E-2      -6.02         0.80929       -9.35          
31.4984       0.04937       -169.63       9.503E-2      -6.14         9.511E-2      -6.15         0.80922       -9.51          
32.0984       0.04942       -169.50       9.504E-2      -6.28         9.522E-2      -6.26         0.80924       -9.69          
32.6984       0.04945       -169.26       9.504E-2      -6.38         9.517E-2      -6.37         0.80916       -9.86          
33.2984       0.04948       -169.14       9.501E-2      -6.50         9.517E-2      -6.48         0.80909       -10.01         
33.8983       0.04949       -168.92       9.506E-2      -6.60         9.514E-2      -6.60         0.80923       -10.16         
34.4983       0.04956       -168.69       9.504E-2      -6.70         9.516E-2      -6.69         0.80937       -10.32         
35.0983       0.04955       -168.54       9.505E-2      -6.81         9.517E-2      -6.84         0.80945       -10.50         
35.6982       0.04958       -168.35       9.506E-2      -6.93         9.514E-2      -6.93         0.80961       -10.66         
36.2982       0.04965       -168.12       9.504E-2      -7.06         9.514E-2      -7.09         0.80957       -10.85         
36.8982       0.04967       -167.91       9.502E-2      -7.17         9.514E-2      -7.18         0.8095        -11.01         
37.4981       0.04972       -167.78       9.506E-2      -7.27         9.514E-2      -7.29         0.80948       -11.19         
38.0981       0.04977       -167.58       9.506E-2      -7.39         9.513E-2      -7.41         0.80949       -11.37         
38.6981       0.04979       -167.40       9.503E-2      -7.47         9.511E-2      -7.53         0.80947       -11.55         
39.2981       0.04982       -167.23       9.502E-2      -7.58         9.508E-2      -7.63         0.80945       -11.72         
39.8980       0.04986       -167.03       9.503E-2      -7.74         9.509E-2      -7.80         0.80933       -11.90         
40.4980       0.04988       -166.81       9.501E-2      -7.86         9.51E-2       -7.85         0.80935       -12.06         
41.0980       0.04994       -166.63       9.505E-2      -7.96         9.51E-2       -7.99         0.80912       -12.24         
41.6979       0.04996       -166.49       9.50E-2       -8.07         9.509E-2      -8.11         0.80934       -12.42         
42.2979       0.05002       -166.32       9.499E-2      -8.19         9.513E-2      -8.21         0.80924       -12.62         
42.8979       0.05006       -166.14       9.503E-2      -8.32         9.51E-2       -8.31         0.80932       -12.79         
43.4978       0.05002       -165.98       9.498E-2      -8.41         9.509E-2      -8.43         0.80939       -12.98         
44.0978       0.05013       -165.80       9.499E-2      -8.54         9.506E-2      -8.56         0.80934       -13.17         
44.6978       0.05017       -165.71       9.496E-2      -8.64         9.509E-2      -8.68         0.80953       -13.36         
45.2978       0.05022       -165.50       9.498E-2      -8.76         9.508E-2      -8.76         0.80943       -13.54         
45.8977       0.05026       -165.28       9.495E-2      -8.87         9.505E-2      -8.90         0.80958       -13.71         
46.4977       0.05026       -165.14       9.492E-2      -9.01         9.503E-2      -9.00         0.8096        -13.90         
47.0977       0.05027       -164.93       9.50E-2       -9.13         9.512E-2      -9.13         0.81054       -14.07         
47.6976       0.05034       -164.73       9.494E-2      -9.24         9.501E-2      -9.23         0.81059       -14.25         
48.2976       0.0504        -164.59       9.499E-2      -9.38         9.505E-2      -9.33         0.81064       -14.41         
48.8976       0.05045       -164.43       9.492E-2      -9.49         9.504E-2      -9.44         0.81081       -14.59         
49.4975       0.05051       -164.25       9.49E-2       -9.60         9.509E-2      -9.57         0.81071       -14.76         
50.0975       0.05048       -164.11       9.489E-2      -9.69         9.499E-2      -9.69         0.8108        -14.93         
50.6975       0.05054       -163.89       9.49E-2       -9.82         9.504E-2      -9.79         0.81093       -15.12         
51.2975       0.05061       -163.74       9.49E-2       -9.92         9.505E-2      -9.95         0.81099       -15.30         
51.8974       0.05069       -163.60       9.484E-2      -10.04        9.508E-2      -10.08        0.81092       -15.46         
52.4974       0.05141       -163.72       9.483E-2      -10.12        9.58E-2       -10.36        0.8089        -15.64         
53.0974       0.0507        -163.23       9.495E-2      -10.25        9.492E-2      -10.24        0.8085        -15.74         
53.6973       0.05074       -163.03       9.485E-2      -10.37        9.502E-2      -10.40        0.81149       -16.00         
54.2973       0.05083       -162.95       9.486E-2      -10.49        9.504E-2      -10.54        0.81147       -16.17         
54.8973       0.05084       -162.78       9.485E-2      -10.62        9.498E-2      -10.63        0.8115        -16.33         
55.4972       0.05086       -162.61       9.486E-2      -10.71        9.504E-2      -10.72        0.81165       -16.50         
56.0972       0.05093       -162.44       9.488E-2      -10.83        9.50E-2       -10.85        0.81146       -16.67         
56.6972       0.05096       -162.24       9.487E-2      -10.94        9.499E-2      -10.94        0.81148       -16.82         
57.2972       0.05105       -162.06       9.484E-2      -11.06        9.499E-2      -11.04        0.81152       -17.00         
57.8971       0.05105       -161.85       9.482E-2      -11.17        9.499E-2      -11.17        0.81152       -17.16         
58.4971       0.05112       -161.77       9.486E-2      -11.27        9.501E-2      -11.32        0.81172       -17.34         
59.0971       0.05114       -161.57       9.484E-2      -11.39        9.501E-2      -11.38        0.81169       -17.50         
59.6970       0.05118       -161.38       9.485E-2      -11.50        9.504E-2      -11.51        0.81189       -17.67         
60.2970       0.05122       -161.23       9.482E-2      -11.61        9.499E-2      -11.60        0.81191       -17.83         
60.8970       0.05128       -161.03       9.487E-2      -11.74        9.502E-2      -11.77        0.81204       -18.00         
61.4969       0.05129       -160.90       9.485E-2      -11.86        9.499E-2      -11.88        0.81187       -18.17         
62.0969       0.05138       -160.72       9.483E-2      -11.96        9.50E-2       -11.99        0.81181       -18.34         
62.6969       0.05136       -160.63       9.486E-2      -12.07        9.498E-2      -12.12        0.81178       -18.51         
63.2969       0.05144       -160.42       9.483E-2      -12.19        9.499E-2      -12.21        0.81185       -18.68         
63.8968       0.05149       -160.28       9.485E-2      -12.29        9.50E-2       -12.34        0.81187       -18.83         
64.4968       0.05154       -160.08       9.486E-2      -12.41        9.50E-2       -12.45        0.8119        -19.01         
65.0968       0.0516        -159.94       9.485E-2      -12.53        9.503E-2      -12.57        0.81191       -19.17         
65.6967       0.05168       -159.78       9.486E-2      -12.65        9.501E-2      -12.68        0.81194       -19.34         
66.2967       0.05169       -159.61       9.483E-2      -12.73        9.50E-2       -12.80        0.81196       -19.51         
66.8967       0.05169       -159.49       9.482E-2      -12.87        9.50E-2       -12.91        0.81182       -19.68         
67.4966       0.05175       -159.29       9.482E-2      -12.98        9.50E-2       -13.03        0.81179       -19.87         
68.0966       0.05177       -159.17       9.484E-2      -13.10        9.501E-2      -13.12        0.81182       -20.02         
68.6966       0.05186       -158.96       9.483E-2      -13.20        9.502E-2      -13.24        0.81194       -20.18         
69.2966       0.05193       -158.77       9.481E-2      -13.33        9.502E-2      -13.33        0.81182       -20.37         
69.8965       0.05201       -158.63       9.481E-2      -13.46        9.501E-2      -13.44        0.81188       -20.54         
70.4965       0.05202       -158.55       9.483E-2      -13.55        9.497E-2      -13.56        0.812         -20.71         
71.0965       0.05203       -158.36       9.483E-2      -13.66        9.502E-2      -13.66        0.81209       -20.87         
71.6964       0.05213       -158.15       9.48E-2       -13.79        9.50E-2       -13.80        0.81194       -21.03         
72.2964       0.05215       -158.07       9.483E-2      -13.90        9.496E-2      -13.92        0.81198       -21.20         
72.8964       0.05227       -157.96       9.483E-2      -14.04        9.499E-2      -14.02        0.81205       -21.39         
73.4963       0.05233       -157.76       9.482E-2      -14.17        9.496E-2      -14.15        0.81205       -21.55         
74.0963       0.05233       -157.64       9.483E-2      -14.26        9.50E-2       -14.26        0.81216       -21.73         
74.6963       0.05236       -157.51       9.48E-2       -14.38        9.499E-2      -14.36        0.81194       -21.88         
75.2963       0.05243       -157.35       9.479E-2      -14.49        9.493E-2      -14.46        0.81205       -22.06         
75.8962       0.05246       -157.19       9.482E-2      -14.62        9.50E-2       -14.62        0.81214       -22.23         
76.4962       0.05256       -156.99       9.483E-2      -14.72        9.497E-2      -14.71        0.81232       -22.40         
77.0962       0.05262       -156.87       9.48E-2       -14.83        9.499E-2      -14.81        0.81232       -22.56         
77.6961       0.05266       -156.73       9.481E-2      -14.95        9.501E-2      -14.98        0.81258       -22.73         
78.2961       0.05277       -156.56       9.482E-2      -15.03        9.50E-2       -15.05        0.81256       -22.90         
78.8961       0.05279       -156.43       9.478E-2      -15.17        9.499E-2      -15.16        0.81271       -23.07         
79.4960       0.05285       -156.28       9.479E-2      -15.27        9.502E-2      -15.27        0.81291       -23.23         
80.0960       0.05286       -156.13       9.479E-2      -15.40        9.502E-2      -15.38        0.81288       -23.40         
80.6960       0.05293       -156.01       9.483E-2      -15.51        9.498E-2      -15.48        0.81304       -23.56         
81.2960       0.05298       -155.88       9.483E-2      -15.63        9.501E-2      -15.62        0.81318       -23.73         
81.8959       0.05304       -155.73       9.48E-2       -15.72        9.503E-2      -15.71        0.81329       -23.89         
82.4959       0.05314       -155.56       9.481E-2      -15.85        9.503E-2      -15.83        0.8135        -24.07         
83.0959       0.05318       -155.40       9.483E-2      -15.96        9.503E-2      -15.94        0.81354       -24.22         
83.6958       0.05324       -155.23       9.483E-2      -16.07        9.498E-2      -16.07        0.81369       -24.40         
84.2958       0.05329       -155.07       9.483E-2      -16.19        9.501E-2      -16.15        0.81377       -24.56         
84.8958       0.05336       -154.94       9.483E-2      -16.30        9.497E-2      -16.31        0.81376       -24.72         
85.4957       0.05343       -154.82       9.486E-2      -16.43        9.50E-2       -16.43        0.81399       -24.90         
86.0957       0.05346       -154.65       9.485E-2      -16.55        9.498E-2      -16.54        0.81383       -25.08         
86.6957       0.05351       -154.42       9.484E-2      -16.67        9.499E-2      -16.66        0.81395       -25.24         
87.2957       0.05358       -154.36       9.485E-2      -16.78        9.50E-2       -16.79        0.81417       -25.42         
87.8956       0.05361       -154.20       9.486E-2      -16.88        9.495E-2      -16.87        0.81417       -25.57         
88.4956       0.05372       -154.03       9.486E-2      -17.00        9.497E-2      -17.00        0.81417       -25.74         
89.0956       0.05378       -153.86       9.486E-2      -17.10        9.497E-2      -17.11        0.81425       -25.89         
89.6955       0.05384       -153.69       9.49E-2       -17.22        9.496E-2      -17.22        0.81443       -26.06         
90.2955       0.05392       -153.55       9.486E-2      -17.32        9.498E-2      -17.32        0.81461       -26.24         
90.8955       0.05398       -153.47       9.489E-2      -17.45        9.497E-2      -17.44        0.81459       -26.40         
91.4954       0.05404       -153.26       9.49E-2       -17.55        9.496E-2      -17.55        0.81466       -26.58         
92.0954       0.05411       -153.10       9.489E-2      -17.67        9.497E-2      -17.67        0.81457       -26.73         
