!    8/6/2020   02:27:51 
! Ref Plane: 0.000 mm
# MHZ S MA R  50
!
0.3000        0.04754       178.80        9.884E-2      -1.06         9.652E-2      -0.80         0.81528       -0.33          
0.9000        0.04766       179.14        9.496E-2      -0.52         9.526E-2      -0.24         0.80965       -0.47          
1.4999        0.04773       179.26        9.511E-2      -0.35         9.535E-2      -0.29         0.8093        -0.63          
2.0999        0.04772       179.47        9.512E-2      -0.49         9.529E-2      -0.39         0.80942       -0.83          
2.6999        0.04779       179.68        9.514E-2      -0.61         9.53E-2       -0.54         0.80947       -0.99          
3.2999        0.04776       179.96        9.518E-2      -0.71         9.529E-2      -0.69         0.80957       -1.18          
3.8998        0.04785       -179.84       9.516E-2      -0.86         9.529E-2      -0.81         0.80949       -1.36          
4.4998        0.04783       -179.62       9.513E-2      -0.98         9.531E-2      -0.91         0.80958       -1.53          
5.0998        0.04792       -179.32       9.513E-2      -1.08         9.529E-2      -1.02         0.80957       -1.70          
5.6997        0.04791       -179.04       9.514E-2      -1.20         9.534E-2      -1.18         0.80972       -1.89          
6.2997        0.04796       -178.92       9.512E-2      -1.35         9.532E-2      -1.30         0.8095        -2.08          
6.8997        0.04799       -178.66       9.513E-2      -1.51         9.528E-2      -1.42         0.8097        -2.26          
7.4996        0.04803       -178.39       9.513E-2      -1.58         9.53E-2       -1.56         0.80971       -2.46          
8.0996        0.04805       -178.18       9.515E-2      -1.73         9.532E-2      -1.70         0.8095        -2.64          
8.6996        0.04806       -177.95       9.514E-2      -1.84         9.531E-2      -1.78         0.80976       -2.81          
9.2996        0.0481        -177.72       9.517E-2      -1.96         9.534E-2      -1.94         0.80991       -2.99          
9.8995        0.04814       -177.45       9.514E-2      -2.13         9.532E-2      -2.06         0.80957       -3.17          
10.4995       0.04818       -177.28       9.51E-2       -2.24         9.532E-2      -2.19         0.80991       -3.35          
11.0995       0.04824       -177.00       9.513E-2      -2.36         9.533E-2      -2.32         0.81          -3.53          
11.6994       0.04824       -176.78       9.514E-2      -2.47         9.533E-2      -2.42         0.81005       -3.71          
12.2994       0.04827       -176.54       9.509E-2      -2.61         9.529E-2      -2.54         0.80999       -3.89          
12.8994       0.04827       -176.34       9.514E-2      -2.68         9.531E-2      -2.70         0.80995       -4.06          
13.4993       0.04829       -176.06       9.523E-2      -2.87         9.53E-2       -2.84         0.81015       -4.26          
14.0993       0.04836       -175.90       9.515E-2      -2.95         9.531E-2      -2.96         0.81017       -4.42          
14.6993       0.0484        -175.63       9.512E-2      -3.13         9.534E-2      -3.07         0.81008       -4.59          
15.2993       0.04841       -175.48       9.512E-2      -3.19         9.531E-2      -3.21         0.81026       -4.78          
15.8992       0.04844       -175.24       9.513E-2      -3.32         9.529E-2      -3.36         0.81033       -4.94          
16.4992       0.04846       -175.04       9.511E-2      -3.45         9.532E-2      -3.49         0.8102        -5.13          
17.0992       0.04851       -174.75       9.516E-2      -3.58         9.531E-2      -3.57         0.8104        -5.31          
17.6991       0.0486        -174.53       9.515E-2      -3.69         9.53E-2       -3.74         0.81028       -5.50          
18.2991       0.0486        -174.36       9.513E-2      -3.83         9.532E-2      -3.84         0.81034       -5.65          
18.8991       0.04864       -174.12       9.515E-2      -3.97         9.534E-2      -3.95         0.81064       -5.82          
19.4990       0.04865       -173.89       9.52E-2       -4.10         9.533E-2      -4.12         0.81064       -6.01          
20.0990       0.0487        -173.67       9.516E-2      -4.21         9.532E-2      -4.23         0.81051       -6.19          
20.6990       0.04876       -173.45       9.521E-2      -4.36         9.531E-2      -4.33         0.81061       -6.36          
21.2990       0.04876       -173.19       9.516E-2      -4.50         9.535E-2      -4.46         0.81045       -6.53          
21.8989       0.0488        -173.07       9.519E-2      -4.60         9.533E-2      -4.58         0.8106        -6.72          
22.4989       0.04883       -172.82       9.515E-2      -4.76         9.541E-2      -4.72         0.81064       -6.89          
23.0989       0.0489        -172.64       9.514E-2      -4.84         9.537E-2      -4.86         0.81082       -7.07          
23.6988       0.04889       -172.35       9.521E-2      -4.96         9.534E-2      -4.96         0.81047       -7.24          
24.2988       0.04891       -172.18       9.516E-2      -5.08         9.535E-2      -5.09         0.81051       -7.41          
24.8988       0.04901       -171.94       9.516E-2      -5.23         9.537E-2      -5.25         0.81042       -7.59          
25.4987       0.04903       -171.77       9.52E-2       -5.33         9.532E-2      -5.36         0.81042       -7.76          
26.0987       0.04911       -171.55       9.511E-2      -5.46         9.535E-2      -5.46         0.81031       -7.94          
26.6987       0.04914       -171.34       9.515E-2      -5.57         9.533E-2      -5.58         0.81018       -8.10          
27.2987       0.04915       -171.10       9.523E-2      -5.70         9.537E-2      -5.72         0.80998       -8.28          
27.8986       0.0492        -170.95       9.518E-2      -5.85         9.533E-2      -5.83         0.80978       -8.44          
28.4986       0.04924       -170.68       9.521E-2      -5.95         9.534E-2      -5.96         0.80978       -8.63          
29.0986       0.04928       -170.59       9.519E-2      -6.06         9.534E-2      -6.10         0.80954       -8.79          
29.6985       0.04934       -170.37       9.519E-2      -6.19         9.532E-2      -6.19         0.80941       -8.98          
30.2985       0.04933       -170.14       9.517E-2      -6.34         9.533E-2      -6.35         0.80915       -9.15          
30.8985       0.0494        -169.88       9.519E-2      -6.46         9.528E-2      -6.44         0.8092        -9.33          
31.4984       0.04945       -169.73       9.514E-2      -6.56         9.525E-2      -6.57         0.80911       -9.49          
32.0984       0.04949       -169.61       9.517E-2      -6.72         9.534E-2      -6.69         0.80912       -9.67          
32.6984       0.04951       -169.35       9.516E-2      -6.82         9.531E-2      -6.82         0.80899       -9.84          
33.2984       0.04955       -169.19       9.518E-2      -6.92         9.53E-2       -6.93         0.80895       -9.99          
33.8983       0.04958       -169.00       9.522E-2      -7.06         9.529E-2      -7.06         0.80906       -10.15         
34.4983       0.04962       -168.79       9.519E-2      -7.16         9.534E-2      -7.16         0.80922       -10.31         
35.0983       0.04963       -168.64       9.525E-2      -7.28         9.534E-2      -7.32         0.80927       -10.50         
35.6982       0.04968       -168.44       9.522E-2      -7.40         9.531E-2      -7.44         0.80941       -10.66         
36.2982       0.04976       -168.23       9.524E-2      -7.54         9.53E-2       -7.59         0.80939       -10.85         
36.8982       0.04976       -168.00       9.518E-2      -7.67         9.531E-2      -7.69         0.8093        -11.02         
37.4981       0.04981       -167.87       9.521E-2      -7.78         9.533E-2      -7.80         0.80923       -11.20         
38.0981       0.04986       -167.65       9.524E-2      -7.90         9.532E-2      -7.95         0.80928       -11.39         
38.6981       0.04989       -167.50       9.521E-2      -8.00         9.53E-2       -8.06         0.8092        -11.57         
39.2981       0.04995       -167.33       9.524E-2      -8.13         9.527E-2      -8.20         0.80922       -11.75         
39.8980       0.04998       -167.16       9.524E-2      -8.29         9.531E-2      -8.35         0.80911       -11.93         
40.4980       0.05          -166.93       9.524E-2      -8.41         9.53E-2       -8.43         0.80908       -12.09         
41.0980       0.05006       -166.72       9.527E-2      -8.53         9.532E-2      -8.58         0.80885       -12.29         
41.6979       0.05009       -166.58       9.523E-2      -8.63         9.533E-2      -8.69         0.80909       -12.47         
42.2979       0.05014       -166.42       9.524E-2      -8.76         9.534E-2      -8.82         0.80891       -12.66         
42.8979       0.05019       -166.26       9.522E-2      -8.91         9.53E-2       -8.93         0.80906       -12.85         
43.4978       0.05017       -166.10       9.524E-2      -9.01         9.534E-2      -9.07         0.80913       -13.04         
44.0978       0.05028       -165.93       9.523E-2      -9.16         9.533E-2      -9.18         0.80903       -13.24         
44.6978       0.05033       -165.83       9.521E-2      -9.28         9.533E-2      -9.33         0.80915       -13.43         
45.2978       0.05036       -165.64       9.525E-2      -9.41         9.532E-2      -9.41         0.8091        -13.61         
45.8977       0.05045       -165.42       9.522E-2      -9.53         9.534E-2      -9.56         0.80925       -13.79         
46.4977       0.05044       -165.27       9.518E-2      -9.66         9.534E-2      -9.67         0.80926       -13.99         
47.0977       0.05046       -165.06       9.525E-2      -9.80         9.539E-2      -9.80         0.81017       -14.17         
47.6976       0.05053       -164.86       9.521E-2      -9.93         9.529E-2      -9.91         0.81021       -14.35         
48.2976       0.05059       -164.74       9.526E-2      -10.07        9.53E-2       -10.03        0.81024       -14.52         
48.8976       0.05063       -164.58       9.522E-2      -10.20        9.531E-2      -10.19        0.81042       -14.71         
49.4975       0.05069       -164.41       9.521E-2      -10.35        9.537E-2      -10.27        0.81033       -14.88         
50.0975       0.05071       -164.26       9.519E-2      -10.42        9.533E-2      -10.43        0.8104        -15.06         
50.6975       0.05075       -164.03       9.521E-2      -10.58        9.535E-2      -10.56        0.81053       -15.25         
51.2975       0.05081       -163.90       9.521E-2      -10.69        9.536E-2      -10.72        0.81057       -15.44         
51.8974       0.05088       -163.78       9.519E-2      -10.80        9.542E-2      -10.83        0.81052       -15.61         
52.4974       0.05164       -163.83       9.515E-2      -10.87        9.613E-2      -11.16        0.80843       -15.80         
53.0974       0.05092       -163.38       9.529E-2      -11.04        9.528E-2      -11.05        0.80801       -15.90         
53.6973       0.05098       -163.19       9.52E-2       -11.16        9.535E-2      -11.19        0.81102       -16.17         
54.2973       0.05104       -163.13       9.519E-2      -11.28        9.537E-2      -11.35        0.81103       -16.35         
54.8973       0.05107       -162.94       9.521E-2      -11.44        9.535E-2      -11.44        0.81104       -16.51         
55.4972       0.05112       -162.81       9.52E-2       -11.53        9.539E-2      -11.57        0.81116       -16.68         
56.0972       0.05118       -162.65       9.519E-2      -11.68        9.536E-2      -11.68        0.81097       -16.87         
56.6972       0.05122       -162.43       9.521E-2      -11.78        9.534E-2      -11.79        0.81098       -17.02         
57.2972       0.05131       -162.23       9.52E-2       -11.91        9.535E-2      -11.91        0.81101       -17.20         
57.8971       0.05132       -162.04       9.52E-2       -12.03        9.536E-2      -12.05        0.81105       -17.38         
58.4971       0.05138       -161.94       9.523E-2      -12.15        9.536E-2      -12.19        0.81123       -17.56         
59.0971       0.05142       -161.79       9.524E-2      -12.29        9.539E-2      -12.29        0.8112        -17.72         
59.6970       0.05146       -161.61       9.524E-2      -12.39        9.541E-2      -12.43        0.8114        -17.91         
60.2970       0.0515        -161.40       9.521E-2      -12.53        9.536E-2      -12.55        0.81139       -18.07         
60.8970       0.05159       -161.24       9.525E-2      -12.68        9.542E-2      -12.70        0.81156       -18.25         
61.4969       0.05161       -161.13       9.522E-2      -12.79        9.54E-2       -12.83        0.81138       -18.43         
62.0969       0.05166       -160.93       9.522E-2      -12.91        9.541E-2      -12.96        0.81132       -18.61         
62.6969       0.05168       -160.86       9.523E-2      -13.03        9.537E-2      -13.08        0.81126       -18.78         
63.2969       0.05177       -160.62       9.523E-2      -13.16        9.539E-2      -13.19        0.81135       -18.97         
63.8968       0.05181       -160.53       9.525E-2      -13.28        9.538E-2      -13.32        0.81133       -19.12         
64.4968       0.0519        -160.31       9.524E-2      -13.41        9.539E-2      -13.45        0.81137       -19.31         
65.0968       0.05194       -160.15       9.523E-2      -13.52        9.541E-2      -13.58        0.81139       -19.48         
65.6967       0.05201       -159.99       9.522E-2      -13.65        9.541E-2      -13.70        0.81144       -19.65         
66.2967       0.05205       -159.84       9.523E-2      -13.76        9.539E-2      -13.84        0.81142       -19.83         
66.8967       0.05206       -159.72       9.524E-2      -13.90        9.541E-2      -13.95        0.8113        -20.01         
67.4966       0.05213       -159.54       9.522E-2      -14.01        9.543E-2      -14.08        0.8113        -20.20         
68.0966       0.05215       -159.40       9.524E-2      -14.14        9.542E-2      -14.17        0.81134       -20.37         
68.6966       0.05224       -159.21       9.523E-2      -14.26        9.541E-2      -14.30        0.81143       -20.53         
69.2966       0.05234       -159.04       9.523E-2      -14.40        9.543E-2      -14.41        0.8113        -20.73         
69.8965       0.05239       -158.89       9.525E-2      -14.53        9.545E-2      -14.53        0.81138       -20.91         
70.4965       0.05243       -158.78       9.527E-2      -14.64        9.541E-2      -14.66        0.81148       -21.08         
71.0965       0.0525        -158.62       9.527E-2      -14.78        9.545E-2      -14.78        0.81156       -21.25         
71.6964       0.05256       -158.44       9.522E-2      -14.91        9.544E-2      -14.92        0.81149       -21.42         
72.2964       0.05258       -158.34       9.53E-2       -15.04        9.537E-2      -15.06        0.81152       -21.59         
72.8964       0.05272       -158.23       9.53E-2       -15.17        9.541E-2      -15.18        0.81153       -21.79         
73.4963       0.05279       -158.03       9.524E-2      -15.31        9.539E-2      -15.30        0.81157       -21.96         
74.0963       0.05281       -157.91       9.528E-2      -15.41        9.544E-2      -15.43        0.81168       -22.14         
74.6963       0.05287       -157.83       9.526E-2      -15.55        9.542E-2      -15.54        0.81147       -22.30         
75.2963       0.05292       -157.62       9.525E-2      -15.67        9.541E-2      -15.66        0.8116        -22.48         
75.8962       0.05299       -157.47       9.53E-2       -15.79        9.543E-2      -15.81        0.81167       -22.66         
76.4962       0.05306       -157.29       9.527E-2      -15.90        9.544E-2      -15.94        0.81187       -22.83         
77.0962       0.05316       -157.22       9.528E-2      -16.03        9.549E-2      -16.04        0.81192       -23.00         
77.6961       0.05319       -157.06       9.527E-2      -16.17        9.547E-2      -16.18        0.81219       -23.18         
78.2961       0.0533        -156.87       9.532E-2      -16.27        9.547E-2      -16.27        0.81217       -23.36         
78.8961       0.05334       -156.77       9.526E-2      -16.42        9.548E-2      -16.39        0.81231       -23.52         
79.4960       0.0534        -156.60       9.529E-2      -16.53        9.55E-2       -16.53        0.81252       -23.69         
80.0960       0.05342       -156.48       9.53E-2       -16.65        9.547E-2      -16.64        0.81251       -23.87         
80.6960       0.05349       -156.37       9.53E-2       -16.78        9.547E-2      -16.77        0.81264       -24.03         
81.2960       0.05357       -156.22       9.532E-2      -16.89        9.552E-2      -16.89        0.81281       -24.21         
81.8959       0.05366       -156.09       9.53E-2       -17.01        9.55E-2       -17.02        0.81302       -24.37         
82.4959       0.05372       -155.93       9.532E-2      -17.13        9.553E-2      -17.13        0.81322       -24.55         
83.0959       0.0538        -155.76       9.531E-2      -17.26        9.553E-2      -17.26        0.8133        -24.71         
83.6958       0.05386       -155.64       9.532E-2      -17.40        9.551E-2      -17.39        0.81344       -24.89         
84.2958       0.05393       -155.46       9.535E-2      -17.53        9.549E-2      -17.51        0.81356       -25.05         
84.8958       0.05399       -155.33       9.535E-2      -17.64        9.551E-2      -17.65        0.81355       -25.22         
85.4957       0.0541        -155.20       9.54E-2       -17.76        9.55E-2       -17.79        0.8138        -25.40         
86.0957       0.05413       -155.03       9.54E-2       -17.90        9.55E-2       -17.90        0.81372       -25.59         
86.6957       0.05418       -154.87       9.535E-2      -18.03        9.552E-2      -18.04        0.81388       -25.75         
87.2957       0.05427       -154.78       9.542E-2      -18.15        9.551E-2      -18.18        0.81408       -25.93         
87.8956       0.05432       -154.63       9.535E-2      -18.28        9.547E-2      -18.29        0.81415       -26.09         
88.4956       0.05443       -154.46       9.537E-2      -18.38        9.55E-2       -18.40        0.81417       -26.25         
89.0956       0.0545        -154.29       9.538E-2      -18.52        9.549E-2      -18.55        0.8143        -26.42         
89.6955       0.05456       -154.15       9.54E-2       -18.63        9.549E-2      -18.66        0.81446       -26.58         
90.2955       0.05466       -154.04       9.542E-2      -18.77        9.552E-2      -18.76        0.81467       -26.76         
90.8955       0.05472       -153.92       9.543E-2      -18.88        9.549E-2      -18.87        0.81471       -26.93         
91.4954       0.0548        -153.68       9.547E-2      -19.00        9.549E-2      -19.03        0.8149        -27.11         
92.0954       0.05488       -153.60       9.544E-2      -19.15        9.55E-2       -19.14        0.81479       -27.26         
