!    8/10/2020   01:56:34 
! Ref Plane: 0.000 mm
# MHZ S MA R  50
!
0.3000        0.82142       0.26          9.661E-6      -139.33       3.393E-5      77.40         0.99613       -0.40          
0.9000        0.81918       0.32          8.736E-5      -130.16       4.783E-5      -90.23        0.99688       -0.35          
1.4999        0.8203        0.29          4.567E-5      173.74        4.632E-5      34.10         0.99816       -0.33          
2.0999        0.82008       0.26          8.479E-5      -127.66       1.873E-5      106.50        0.99872       -0.26          
2.6999        0.81997       0.21          6.067E-5      -86.47        2.643E-5      -43.77        0.99897       -0.22          
3.2999        0.81984       0.17          1.467E-5      16.59         2.237E-5      -33.14        0.99891       -0.19          
3.8998        0.81973       0.13          3.132E-5      -60.51        5.329E-5      -78.77        0.999         -0.17          
4.4998        0.81962       0.08          1.069E-5      31.69         1.689E-5      -18.81        0.99902       -0.15          
5.0998        0.81954       0.03          4.03E-5       -179.90       1.34E-5       -0.42         0.999         -0.14          
5.6997        0.8194        -0.01         2.383E-5      50.09         3.141E-5      -68.58        0.99907       -0.14          
6.2997        0.81943       -0.05         5.09E-5       119.51        2.482E-5      57.17         0.99907       -0.12          
6.8997        0.81937       -0.10         4.135E-5      -65.03        1.057E-5      -52.03        0.99912       -0.12          
7.4996        0.81938       -0.13         4.271E-5      89.98         3.448E-5      107.54        0.99917       -0.12          
8.0996        0.81939       -0.18         5.748E-5      -123.98       2.202E-5      -92.45        0.99917       -0.12          
8.6996        0.81932       -0.23         4.712E-5      90.28         2.802E-5      82.18         0.99913       -0.11          
9.2996        0.81928       -0.26         5.821E-5      -32.15        4.099E-5      14.54         0.99919       -0.11          
9.8995        0.81932       -0.30         7.643E-5      -60.72        6.375E-6      -106.49       0.99919       -0.10          
10.4995       0.81916       -0.35         3.507E-5      148.65        3.912E-6      -174.71       0.99924       -0.10          
11.0995       0.81911       -0.39         3.361E-5      -70.07        2.34E-5       21.52         0.99922       -0.10          
11.6994       0.81908       -0.43         1.235E-5      139.35        5.01E-5       59.65         0.99917       -0.10          
12.2994       0.81908       -0.47         8.139E-5      -158.97       4.166E-5      91.17         0.99917       -0.10          
12.8994       0.81911       -0.51         8.909E-5      82.09         3.071E-5      19.56         0.99921       -0.10          
13.4993       0.81906       -0.55         3.773E-5      -28.89        1.845E-5      103.67        0.99924       -0.10          
14.0993       0.81906       -0.60         4.085E-5      59.79         2.525E-5      -83.03        0.99931       -0.10          
14.6993       0.81902       -0.64         9.682E-5      -126.27       2.63E-5       85.79         0.99924       -0.10          
15.2993       0.8189        -0.68         5.696E-5      122.63        3.661E-5      62.06         0.99929       -0.10          
15.8992       0.81888       -0.73         5.954E-5      32.65         2.158E-5      -163.70       0.99932       -0.10          
16.4992       0.81893       -0.76         4.559E-5      150.01        2.994E-5      -42.37        0.99936       -0.10          
17.0992       0.81882       -0.79         7.021E-5      55.51         1.216E-5      142.81        0.99937       -0.10          
17.6991       0.81888       -0.82         4.782E-5      152.77        1.901E-5      -142.79       0.99933       -0.09          
18.2991       0.81881       -0.87         5.317E-5      169.43        1.94E-5       -169.04       0.99928       -0.10          
18.8991       0.81868       -0.92         3.361E-5      -135.81       1.893E-5      73.03         0.99939       -0.09          
19.4990       0.81882       -0.96         4.456E-5      -50.24        3.269E-5      -68.43        0.99939       -0.10          
20.0990       0.81877       -1.00         5.566E-5      -34.63        2.757E-5      112.07        0.99932       -0.10          
20.6990       0.81875       -1.04         4.795E-5      -49.86        4.07E-5       86.10         0.99936       -0.10          
21.2990       0.81875       -1.09         3.397E-5      -139.26       3.06E-5       41.61         0.99944       -0.10          
21.8989       0.81869       -1.12         4.203E-5      -60.83        5.02E-5       62.18         0.9994        -0.10          
22.4989       0.81866       -1.16         8.748E-5      -143.71       1.078E-5      86.00         0.99943       -0.10          
23.0989       0.8186        -1.20         4.476E-5      135.52        1.833E-5      -14.48        0.9994        -0.11          
23.6988       0.81871       -1.24         1.545E-5      167.88        4.653E-5      10.52         0.99943       -0.11          
24.2988       0.81862       -1.28         3.327E-5      74.76         3.80E-6       -164.48       0.99944       -0.11          
24.8988       0.81863       -1.32         2.038E-5      34.85         3.623E-5      56.98         0.99945       -0.11          
25.4987       0.81864       -1.36         4.523E-5      26.83         2.807E-5      -36.25        0.99945       -0.11          
26.0987       0.81866       -1.39         6.508E-5      160.79        4.723E-5      41.57         0.99944       -0.10          
26.6987       0.81862       -1.44         4.43E-5       -156.54       1.247E-5      97.91         0.99944       -0.11          
27.2987       0.81854       -1.48         5.185E-5      17.62         5.107E-5      62.33         0.9995        -0.11          
27.8986       0.81861       -1.52         2.057E-5      -73.77        2.296E-5      13.13         0.99937       -0.11          
28.4986       0.81851       -1.55         2.887E-5      7.12          7.747E-6      125.69        0.99947       -0.12          
29.0986       0.81861       -1.60         2.246E-5      61.24         4.547E-5      -56.22        0.99957       -0.12          
29.6985       0.81839       -1.64         2.577E-5      75.23         3.405E-6      -32.73        0.9995        -0.12          
30.2985       0.81848       -1.67         1.491E-5      133.80        1.095E-6      -98.77        0.99954       -0.12          
30.8985       0.81847       -1.71         4.575E-5      -62.65        3.516E-5      134.29        0.99948       -0.12          
31.4984       0.81842       -1.75         7.362E-5      76.40         5.322E-5      -154.64       0.99949       -0.12          
32.0984       0.81846       -1.79         4.096E-5      -112.27       3.168E-5      98.86         0.99953       -0.12          
32.6984       0.81841       -1.82         2.086E-5      -114.64       2.282E-5      92.77         0.99946       -0.12          
33.2984       0.81857       -1.87         2.051E-5      -117.40       4.409E-5      126.51        0.9995        -0.13          
33.8983       0.81847       -1.90         5.468E-5      -17.54        4.348E-5      -34.32        0.99951       -0.13          
34.4983       0.81826       -1.94         1.628E-5      -108.94       2.803E-5      85.50         0.99952       -0.12          
35.0983       0.8184        -1.97         2.944E-5      -91.33        5.72E-5       -45.95        0.99953       -0.12          
35.6982       0.81828       -2.01         5.333E-5      -90.73        2.961E-5      79.39         0.99954       -0.13          
36.2982       0.81836       -2.03         5.747E-5      -125.33       1.936E-5      98.14         0.99956       -0.13          
36.8982       0.81839       -2.08         7.491E-5      -138.64       2.634E-5      2.20          0.9995        -0.13          
37.4981       0.81839       -2.11         2.70E-5       -172.50       2.879E-5      111.69        0.99948       -0.14          
38.0981       0.81834       -2.15         1.73E-5       88.99         1.219E-5      128.75        0.99952       -0.14          
38.6981       0.81834       -2.18         5.471E-5      15.04         2.047E-5      39.50         0.99952       -0.13          
39.2981       0.81835       -2.23         5.463E-5      159.76        2.029E-5      -170.30       0.99951       -0.14          
39.8980       0.81838       -2.25         3.663E-5      -117.13       3.567E-5      -57.25        0.99954       -0.14          
40.4980       0.81834       -2.30         1.012E-5      -60.49        4.215E-5      83.00         0.99959       -0.14          
41.0980       0.81839       -2.35         4.53E-5       -58.20        1.351E-5      116.76        0.99954       -0.15          
41.6979       0.81827       -2.37         1.714E-5      47.10         2.288E-5      3.55          0.99961       -0.15          
42.2979       0.81832       -2.42         4.133E-5      53.95         3.343E-5      -6.60         0.99959       -0.15          
42.8979       0.81829       -2.45         5.199E-5      176.19        5.024E-5      148.06        0.99959       -0.15          
43.4978       0.81827       -2.48         4.874E-5      115.36        1.217E-5      109.63        0.99961       -0.15          
44.0978       0.81829       -2.52         2.092E-5      -73.99        2.851E-5      -13.19        0.9996        -0.15          
44.6978       0.81822       -2.54         1.728E-5      -111.94       1.719E-5      10.69         0.99952       -0.16          
45.2978       0.81834       -2.59         3.683E-5      -27.99        9.401E-6      -145.19       0.99966       -0.15          
45.8977       0.81829       -2.63         3.66E-5       176.39        2.761E-5      -32.69        0.99962       -0.16          
46.4977       0.81818       -2.66         5.49E-5       150.11        1.371E-5      110.70        0.99954       -0.16          
47.0977       0.81823       -2.68         7.163E-5      47.53         2.194E-5      -12.14        0.99967       -0.16          
47.6976       0.81803       -2.72         2.651E-5      67.62         6.153E-5      173.01        0.9997        -0.16          
48.2976       0.81818       -2.76         5.017E-5      4.98          3.57E-5       144.91        0.99969       -0.16          
48.8976       0.81805       -2.79         5.428E-5      86.48         3.914E-5      -172.99       0.99968       -0.17          
49.4975       0.81806       -2.82         2.964E-5      -48.07        3.246E-5      97.56         0.99964       -0.17          
50.0975       0.81814       -2.87         7.977E-6      75.73         1.707E-5      -141.81       0.99967       -0.16          
50.6975       0.81812       -2.90         7.689E-6      143.62        1.442E-5      -84.67        0.99964       -0.17          
51.2975       0.81807       -2.93         4.518E-5      44.67         1.261E-5      32.80         0.99964       -0.17          
51.8974       0.81821       -2.97         5.314E-5      53.05         2.649E-5      165.14        0.99965       -0.17          
52.4974       0.82044       -3.00         3.402E-5      60.32         2.571E-5      24.47         0.99968       -0.18          
53.0974       0.81802       -3.02         8.162E-6      128.92        5.226E-5      -144.54       0.99969       -0.18          
53.6973       0.81807       -3.07         5.653E-5      73.53         3.193E-6      14.59         0.99968       -0.18          
54.2973       0.81806       -3.10         2.034E-5      174.60        8.972E-6      19.82         0.99967       -0.18          
54.8973       0.81803       -3.15         5.09E-5       175.39        1.574E-5      5.21          0.99968       -0.18          
55.4972       0.81806       -3.17         2.191E-5      103.82        1.418E-5      -148.89       0.99966       -0.18          
56.0972       0.81812       -3.21         5.752E-5      45.20         2.39E-5       75.63         0.99965       -0.18          
56.6972       0.81811       -3.25         6.235E-5      -16.83        2.205E-5      175.93        0.99968       -0.19          
57.2972       0.81806       -3.29         1.264E-5      -38.76        1.481E-5      -113.44       0.99971       -0.19          
57.8971       0.81805       -3.32         3.164E-5      3.26          7.936E-6      129.31        0.9997        -0.19          
58.4971       0.81792       -3.35         3.289E-5      -54.14        1.627E-5      -10.52        0.99969       -0.19          
59.0971       0.81798       -3.41         2.571E-5      -4.66         2.778E-5      82.96         0.99974       -0.19          
59.6970       0.81798       -3.43         6.323E-6      -142.31       3.556E-5      22.93         0.99974       -0.19          
60.2970       0.81789       -3.47         2.251E-5      171.25        1.363E-5      -50.36        0.99971       -0.19          
60.8970       0.81783       -3.50         4.56E-5       -133.06       1.792E-5      46.70         0.99973       -0.20          
61.4969       0.81783       -3.53         2.347E-5      -179.16       5.131E-6      -122.67       0.99971       -0.20          
62.0969       0.8179        -3.56         1.066E-5      98.61         2.219E-5      123.29        0.99975       -0.20          
62.6969       0.81792       -3.61         4.914E-5      -80.11        3.389E-5      -30.49        0.99972       -0.20          
63.2969       0.81783       -3.64         2.174E-5      130.37        2.54E-5       -148.69       0.99976       -0.21          
63.8968       0.81768       -3.67         5.986E-5      136.69        9.295E-6      17.57         0.9997        -0.21          
64.4968       0.81769       -3.71         2.652E-5      -17.61        3.545E-5      115.76        0.99973       -0.21          
65.0968       0.81763       -3.74         5.915E-5      166.14        2.997E-5      92.72         0.99975       -0.21          
65.6967       0.81765       -3.78         5.241E-5      -73.95        4.094E-5      -2.46         0.99974       -0.21          
66.2967       0.8176        -3.82         6.151E-5      -69.20        1.13E-5       -67.61        0.99971       -0.21          
66.8967       0.81768       -3.84         2.683E-5      125.65        4.009E-5      -10.26        0.99973       -0.21          
67.4966       0.81778       -3.88         3.91E-5       91.83         1.457E-5      4.59          0.99972       -0.22          
68.0966       0.8178        -3.91         1.00E-5       -169.68       3.271E-6      61.28         0.9997        -0.21          
68.6966       0.81773       -3.97         4.141E-5      -12.81        1.374E-5      -138.97       0.99972       -0.22          
69.2966       0.81768       -3.99         2.033E-5      -31.21        1.842E-5      -148.05       0.99973       -0.22          
69.8965       0.81764       -4.03         2.897E-5      -95.62        8.557E-6      72.29         0.99976       -0.22          
70.4965       0.81759       -4.07         5.716E-5      13.77         1.208E-5      -125.90       0.99975       -0.22          
71.0965       0.81754       -4.10         2.164E-5      -171.79       3.274E-5      98.70         0.99974       -0.22          
71.6964       0.81756       -4.14         3.164E-5      79.04         7.496E-6      -150.13       0.99972       -0.23          
72.2964       0.81749       -4.18         3.795E-5      119.96        6.924E-6      -18.85        0.99975       -0.23          
72.8964       0.81745       -4.21         2.846E-5      -124.76       1.601E-5      58.92         0.99979       -0.23          
73.4963       0.81748       -4.25         1.762E-5      -49.76        3.11E-5       12.79         0.99977       -0.23          
74.0963       0.81748       -4.29         6.221E-5      -107.76       3.982E-5      35.62         0.99973       -0.23          
74.6963       0.81751       -4.33         7.741E-6      95.88         1.57E-5       -173.47       0.99977       -0.23          
75.2963       0.81748       -4.37         3.976E-5      158.85        4.621E-5      -86.53        0.99978       -0.23          
75.8962       0.81737       -4.41         4.196E-5      -153.19       3.669E-5      141.30        0.99978       -0.23          
76.4962       0.81732       -4.44         2.875E-5      -64.48        2.276E-5      101.16        0.99976       -0.23          
77.0962       0.81734       -4.48         2.148E-5      174.01        1.063E-5      87.44         0.99979       -0.23          
77.6961       0.81727       -4.51         1.896E-5      146.49        1.521E-5      46.53         0.99974       -0.22          
78.2961       0.81729       -4.55         3.898E-5      -36.12        2.509E-5      134.83        0.99982       -0.23          
78.8961       0.81713       -4.58         5.656E-5      68.80         2.13E-5       -117.55       0.9997        -0.23          
79.4960       0.81709       -4.62         7.593E-5      -139.79       4.976E-6      134.54        0.99975       -0.23          
80.0960       0.81716       -4.65         1.269E-5      79.98         9.438E-6      -119.01       0.99976       -0.23          
80.6960       0.8172        -4.68         4.985E-5      -158.83       1.961E-5      -91.30        0.99971       -0.23          
81.2960       0.81706       -4.73         1.523E-5      148.30        2.447E-5      66.89         0.99978       -0.23          
81.8959       0.81704       -4.77         1.593E-5      -23.15        1.638E-5      86.10         0.9998        -0.23          
82.4959       0.81708       -4.80         2.767E-5      -20.85        2.228E-5      135.23        0.99978       -0.23          
83.0959       0.81706       -4.84         1.581E-5      69.04         2.117E-5      161.77        0.99976       -0.24          
83.6958       0.81692       -4.87         3.606E-5      105.91        1.157E-5      -64.28        0.99969       -0.24          
84.2958       0.81692       -4.91         4.069E-5      -153.64       1.27E-5       -142.91       0.99975       -0.24          
84.8958       0.81693       -4.95         3.296E-5      -58.29        2.025E-6      95.41         0.99978       -0.24          
85.4957       0.81687       -4.99         3.171E-5      -168.38       1.87E-5       113.81        0.99973       -0.24          
86.0957       0.81701       -5.02         2.894E-5      -122.72       7.481E-6      139.79        0.99969       -0.24          
86.6957       0.81685       -5.06         1.601E-5      -79.71        2.09E-5       -95.73        0.99967       -0.25          
87.2957       0.81682       -5.09         4.88E-5       101.40        1.491E-5      91.07         0.9998        -0.24          
87.8956       0.81686       -5.14         3.733E-5      -16.38        2.262E-5      -54.20        0.99974       -0.25          
88.4956       0.81687       -5.17         4.545E-5      41.23         3.059E-5      165.67        0.99977       -0.24          
89.0956       0.81681       -5.20         9.601E-5      124.39        5.512E-5      -100.99       0.99972       -0.25          
89.6955       0.81674       -5.25         5.211E-5      126.44        3.43E-5       33.14         0.99971       -0.25          
90.2955       0.81675       -5.29         1.082E-5      -150.89       2.082E-5      163.08        0.99972       -0.25          
90.8955       0.81666       -5.33         5.788E-5      -125.38       1.139E-5      -38.74        0.99973       -0.25          
91.4954       0.81664       -5.36         4.397E-5      -107.83       2.439E-6      -35.56        0.99979       -0.25          
92.0954       0.81664       -5.40         1.502E-5      150.70        1.055E-5      -174.13       0.99971       -0.25          
