!    3/16/2021   20:17:26 
! Ref Plane: 0.000 mm
# MHZ S MA R  50
!
0.3000        0.04801       -179.01       9.737E-2      -1.16         9.567E-2      -0.63         0.81547       -0.22          
0.9000        0.04726       -178.27       9.353E-2      -0.54         9.435E-2      -0.20         0.81042       -0.56          
1.4999        0.04729       -178.07       9.378E-2      -0.55         9.426E-2      -0.32         0.81016       -0.88          
2.0999        0.04732       -178.06       9.397E-2      -0.76         9.42E-2       -0.53         0.80999       -1.27          
2.6999        0.04731       -178.01       9.404E-2      -0.93         9.418E-2      -0.73         0.80981       -1.68          
3.2999        0.04731       -178.04       9.402E-2      -1.16         9.415E-2      -0.93         0.80972       -2.07          
3.8998        0.04728       -178.01       9.406E-2      -1.44         9.418E-2      -1.17         0.80958       -2.45          
4.4998        0.04732       -178.03       9.405E-2      -1.55         9.412E-2      -1.36         0.80949       -2.83          
5.0998        0.04729       -177.99       9.411E-2      -1.79         9.419E-2      -1.57         0.80948       -3.21          
5.6997        0.04728       -178.00       9.412E-2      -2.03         9.417E-2      -1.78         0.8094        -3.59          
6.2997        0.04727       -177.99       9.413E-2      -2.18         9.414E-2      -1.98         0.80932       -3.97          
6.8997        0.04727       -177.95       9.422E-2      -2.42         9.417E-2      -2.20         0.80931       -4.35          
7.4996        0.04723       -177.94       9.418E-2      -2.59         9.42E-2       -2.41         0.80914       -4.73          
8.0996        0.04725       -177.99       9.42E-2       -2.82         9.419E-2      -2.64         0.80912       -5.10          
8.6996        0.04723       -177.94       9.423E-2      -3.01         9.42E-2       -2.84         0.80906       -5.48          
9.2996        0.0472        -177.90       9.423E-2      -3.21         9.42E-2       -3.02         0.80898       -5.86          
9.8995        0.04718       -177.97       9.425E-2      -3.44         9.42E-2       -3.24         0.80899       -6.23          
10.4995       0.04721       -177.93       9.421E-2      -3.63         9.419E-2      -3.44         0.80892       -6.61          
11.0995       0.04721       -177.89       9.427E-2      -3.82         9.423E-2      -3.66         0.80886       -6.99          
11.6994       0.04718       -177.88       9.425E-2      -4.05         9.424E-2      -3.84         0.80881       -7.36          
12.2994       0.0472        -177.85       9.428E-2      -4.29         9.423E-2      -4.05         0.80872       -7.74          
12.8994       0.04717       -177.89       9.427E-2      -4.47         9.422E-2      -4.25         0.80865       -8.12          
13.4993       0.04715       -177.82       9.43E-2       -4.65         9.424E-2      -4.49         0.80859       -8.50          
14.0993       0.04713       -177.79       9.433E-2      -4.86         9.426E-2      -4.68         0.80856       -8.87          
14.6993       0.0471        -177.76       9.433E-2      -5.05         9.424E-2      -4.88         0.80852       -9.25          
15.2993       0.04712       -177.78       9.429E-2      -5.26         9.427E-2      -5.10         0.8085        -9.63          
15.8992       0.04711       -177.73       9.44E-2       -5.49         9.432E-2      -5.30         0.80853       -10.00         
16.4992       0.04706       -177.71       9.441E-2      -5.72         9.431E-2      -5.48         0.80845       -10.38         
17.0992       0.04708       -177.72       9.44E-2       -5.89         9.429E-2      -5.70         0.80841       -10.76         
17.6991       0.0471        -177.67       9.435E-2      -6.13         9.433E-2      -5.89         0.80837       -11.13         
18.2991       0.04703       -177.65       9.444E-2      -6.29         9.436E-2      -6.13         0.80834       -11.51         
18.8991       0.04702       -177.65       9.441E-2      -6.49         9.436E-2      -6.35         0.80833       -11.89         
19.4990       0.04702       -177.59       9.447E-2      -6.74         9.437E-2      -6.56         0.8083        -12.26         
20.0990       0.047         -177.62       9.445E-2      -6.93         9.436E-2      -6.74         0.80817       -12.64         
20.6990       0.047         -177.54       9.442E-2      -7.10         9.44E-2       -6.93         0.80817       -13.01         
21.2990       0.04701       -177.57       9.45E-2       -7.35         9.441E-2      -7.15         0.80813       -13.39         
21.8989       0.04698       -177.55       9.447E-2      -7.54         9.442E-2      -7.34         0.80808       -13.77         
22.4989       0.04698       -177.49       9.446E-2      -7.74         9.443E-2      -7.55         0.8081        -14.14         
23.0989       0.04696       -177.48       9.448E-2      -7.97         9.442E-2      -7.79         0.8081        -14.51         
23.6988       0.04698       -177.42       9.453E-2      -8.15         9.44E-2       -7.96         0.80807       -14.88         
24.2988       0.047         -177.37       9.452E-2      -8.37         9.447E-2      -8.16         0.80803       -15.26         
24.8988       0.04692       -177.39       9.457E-2      -8.56         9.446E-2      -8.35         0.80806       -15.63         
25.4987       0.04693       -177.33       9.451E-2      -8.77         9.447E-2      -8.55         0.80805       -16.01         
26.0987       0.04691       -177.26       9.456E-2      -8.98         9.45E-2       -8.77         0.80802       -16.38         
26.6987       0.0469        -177.31       9.456E-2      -9.17         9.449E-2      -8.97         0.80797       -16.76         
27.2987       0.0469        -177.26       9.457E-2      -9.40         9.453E-2      -9.20         0.80793       -17.13         
27.8986       0.04689       -177.23       9.454E-2      -9.59         9.454E-2      -9.37         0.80789       -17.51         
28.4986       0.04687       -177.19       9.458E-2      -9.78         9.453E-2      -9.58         0.8079        -17.88         
29.0986       0.04688       -177.23       9.457E-2      -9.98         9.457E-2      -9.79         0.80786       -18.26         
29.6985       0.04686       -177.17       9.46E-2       -10.21        9.454E-2      -9.99         0.8078        -18.63         
30.2985       0.04681       -177.16       9.461E-2      -10.40        9.458E-2      -10.18        0.80775       -19.01         
30.8985       0.04682       -177.09       9.461E-2      -10.63        9.457E-2      -10.41        0.80769       -19.38         
31.4984       0.04682       -177.09       9.465E-2      -10.82        9.458E-2      -10.61        0.8076        -19.76         
32.0984       0.04681       -177.05       9.463E-2      -11.02        9.46E-2       -10.83        0.80752       -20.14         
32.6984       0.0468        -177.03       9.458E-2      -11.23        9.459E-2      -11.02        0.8075        -20.51         
33.2984       0.04678       -176.97       9.458E-2      -11.38        9.458E-2      -11.22        0.8074        -20.88         
33.8983       0.04676       -176.95       9.465E-2      -11.62        9.459E-2      -11.42        0.80742       -21.26         
34.4983       0.04679       -176.89       9.469E-2      -11.81        9.464E-2      -11.63        0.80743       -21.64         
35.0983       0.04677       -176.89       9.468E-2      -12.01        9.462E-2      -11.84        0.80734       -22.01         
35.6982       0.04673       -176.86       9.466E-2      -12.26        9.467E-2      -12.03        0.80732       -22.39         
36.2982       0.04671       -176.80       9.466E-2      -12.45        9.467E-2      -12.26        0.80721       -22.76         
36.8982       0.04671       -176.79       9.469E-2      -12.67        9.472E-2      -12.43        0.80715       -23.13         
37.4981       0.04672       -176.81       9.467E-2      -12.84        9.469E-2      -12.64        0.80698       -23.50         
38.0981       0.04672       -176.74       9.461E-2      -13.06        9.467E-2      -12.82        0.80692       -23.87         
38.6981       0.0467        -176.72       9.467E-2      -13.27        9.469E-2      -13.06        0.8068        -24.25         
39.2981       0.04668       -176.70       9.466E-2      -13.47        9.469E-2      -13.26        0.80673       -24.62         
39.8980       0.04669       -176.63       9.466E-2      -13.67        9.463E-2      -13.45        0.80662       -24.99         
40.4980       0.04667       -176.60       9.472E-2      -13.86        9.466E-2      -13.66        0.80653       -25.36         
41.0980       0.04666       -176.59       9.472E-2      -14.06        9.469E-2      -13.85        0.80644       -25.73         
41.6979       0.04663       -176.49       9.471E-2      -14.26        9.469E-2      -14.04        0.80634       -26.10         
42.2979       0.04663       -176.49       9.476E-2      -14.47        9.467E-2      -14.24        0.80627       -26.47         
42.8979       0.04663       -176.42       9.47E-2       -14.68        9.468E-2      -14.45        0.80619       -26.84         
43.4978       0.04663       -176.43       9.477E-2      -14.88        9.472E-2      -14.67        0.80615       -27.21         
44.0978       0.04667       -176.38       9.475E-2      -15.05        9.472E-2      -14.88        0.80599       -27.59         
44.6978       0.04663       -176.36       9.479E-2      -15.29        9.475E-2      -15.05        0.80592       -27.96         
45.2978       0.04661       -176.33       9.473E-2      -15.48        9.471E-2      -15.27        0.80587       -28.33         
45.8977       0.04661       -176.30       9.476E-2      -15.66        9.469E-2      -15.48        0.80571       -28.70         
46.4977       0.04663       -176.28       9.476E-2      -15.88        9.469E-2      -15.70        0.80561       -29.08         
47.0977       0.04659       -176.19       9.474E-2      -16.06        9.471E-2      -15.91        0.80549       -29.48         
47.6976       0.04663       -176.19       9.476E-2      -16.26        9.478E-2      -16.10        0.80544       -29.85         
48.2976       0.0466        -176.11       9.477E-2      -16.43        9.48E-2       -16.31        0.80541       -30.22         
48.8976       0.04658       -176.13       9.477E-2      -16.66        9.477E-2      -16.54        0.80534       -30.59         
49.4975       0.0466        -176.06       9.481E-2      -16.86        9.48E-2       -16.73        0.80521       -30.97         
50.0975       0.04656       -176.05       9.48E-2       -17.08        9.479E-2      -16.94        0.80516       -31.34         
50.6975       0.04661       -175.99       9.484E-2      -17.29        9.477E-2      -17.14        0.80508       -31.71         
51.2975       0.04658       -175.98       9.485E-2      -17.52        9.479E-2      -17.34        0.80505       -32.08         
51.8974       0.04655       -175.92       9.487E-2      -17.70        9.475E-2      -17.49        0.80491       -32.46         
52.4974       0.04653       -175.91       9.492E-2      -17.93        9.472E-2      -17.67        0.80481       -32.83         
53.0974       0.04654       -175.88       9.493E-2      -18.20        9.461E-2      -17.76        0.80472       -33.20         
53.6973       0.04644       -176.08       9.557E-2      -18.71        9.38E-2       -17.98        0.80466       -33.57         
54.2973       0.0465        -175.85       9.486E-2      -18.55        9.481E-2      -18.36        0.80452       -33.95         
54.8973       0.04651       -175.80       9.485E-2      -18.72        9.482E-2      -18.54        0.80449       -34.32         
55.4972       0.04651       -175.75       9.48E-2       -18.92        9.485E-2      -18.77        0.80438       -34.69         
56.0972       0.0465        -175.69       9.483E-2      -19.09        9.484E-2      -18.93        0.80423       -35.07         
56.6972       0.04651       -175.61       9.484E-2      -19.31        9.485E-2      -19.14        0.80416       -35.44         
57.2972       0.04651       -175.65       9.484E-2      -19.55        9.483E-2      -19.34        0.80406       -35.82         
57.8971       0.04649       -175.54       9.486E-2      -19.71        9.487E-2      -19.55        0.80398       -36.19         
58.4971       0.04649       -175.57       9.486E-2      -19.96        9.484E-2      -19.75        0.80392       -36.57         
59.0971       0.04646       -175.49       9.482E-2      -20.15        9.484E-2      -19.96        0.8038        -36.95         
59.6970       0.04648       -175.45       9.484E-2      -20.36        9.487E-2      -20.15        0.8037        -37.33         
60.2970       0.04647       -175.38       9.485E-2      -20.56        9.484E-2      -20.35        0.80366       -37.71         
60.8970       0.04649       -175.41       9.484E-2      -20.78        9.486E-2      -20.58        0.80357       -38.09         
61.4969       0.0465        -175.34       9.488E-2      -21.00        9.488E-2      -20.77        0.80352       -38.46         
62.0969       0.04645       -175.27       9.486E-2      -21.17        9.487E-2      -21.00        0.80336       -38.84         
62.6969       0.04649       -175.22       9.484E-2      -21.42        9.488E-2      -21.19        0.80323       -39.21         
63.2969       0.0465        -175.23       9.48E-2       -21.59        9.49E-2       -21.39        0.80317       -39.59         
63.8968       0.04646       -175.17       9.484E-2      -21.82        9.489E-2      -21.61        0.80303       -39.97         
64.4968       0.04642       -175.12       9.482E-2      -22.02        9.49E-2       -21.82        0.80294       -40.35         
65.0968       0.04644       -175.11       9.487E-2      -22.21        9.489E-2      -21.99        0.80286       -40.73         
65.6967       0.04644       -175.03       9.484E-2      -22.45        9.489E-2      -22.23        0.80273       -41.10         
66.2967       0.04645       -175.01       9.486E-2      -22.59        9.491E-2      -22.43        0.80261       -41.48         
66.8967       0.04644       -174.97       9.485E-2      -22.79        9.489E-2      -22.64        0.80252       -41.85         
67.4966       0.04642       -174.95       9.486E-2      -22.99        9.488E-2      -22.84        0.80237       -42.22         
68.0966       0.04642       -174.88       9.481E-2      -23.23        9.49E-2       -23.03        0.80231       -42.59         
68.6966       0.04644       -174.80       9.487E-2      -23.41        9.49E-2       -23.22        0.80214       -42.97         
69.2966       0.04644       -174.77       9.484E-2      -23.62        9.489E-2      -23.42        0.80205       -43.34         
69.8965       0.04642       -174.73       9.489E-2      -23.84        9.49E-2       -23.64        0.80202       -43.72         
70.4965       0.04643       -174.68       9.486E-2      -24.05        9.493E-2      -23.83        0.80184       -44.09         
71.0965       0.04644       -174.69       9.484E-2      -24.24        9.492E-2      -24.04        0.80182       -44.47         
71.6964       0.04644       -174.61       9.49E-2       -24.44        9.494E-2      -24.21        0.80163       -44.84         
72.2964       0.04643       -174.56       9.491E-2      -24.69        9.487E-2      -24.45        0.80154       -45.21         
72.8964       0.04641       -174.52       9.487E-2      -24.85        9.492E-2      -24.64        0.80143       -45.58         
73.4963       0.04643       -174.46       9.486E-2      -25.08        9.489E-2      -24.86        0.80135       -45.96         
74.0963       0.04642       -174.42       9.487E-2      -25.27        9.493E-2      -25.05        0.8013        -46.34         
74.6963       0.0464        -174.35       9.489E-2      -25.48        9.491E-2      -25.26        0.80115       -46.71         
75.2963       0.0464        -174.31       9.489E-2      -25.68        9.493E-2      -25.47        0.80106       -47.09         
75.8962       0.0464        -174.25       9.491E-2      -25.89        9.489E-2      -25.67        0.80094       -47.46         
76.4962       0.04638       -174.22       9.491E-2      -26.09        9.489E-2      -25.87        0.80072       -47.83         
77.0962       0.04638       -174.17       9.484E-2      -26.31        9.492E-2      -26.06        0.8006        -48.20         
77.6961       0.04638       -174.13       9.486E-2      -26.47        9.491E-2      -26.28        0.80049       -48.57         
78.2961       0.0464        -174.13       9.488E-2      -26.64        9.494E-2      -26.48        0.80035       -48.95         
78.8961       0.04639       -174.01       9.486E-2      -26.89        9.492E-2      -26.69        0.80024       -49.32         
79.4960       0.04641       -174.02       9.486E-2      -27.07        9.492E-2      -26.88        0.80011       -49.69         
80.0960       0.0464        -173.94       9.485E-2      -27.25        9.494E-2      -27.08        0.79997       -50.07         
80.6960       0.04638       -173.94       9.49E-2       -27.46        9.494E-2      -27.29        0.79987       -50.44         
81.2960       0.04636       -173.86       9.489E-2      -27.66        9.494E-2      -27.50        0.79973       -50.82         
81.8959       0.04637       -173.82       9.487E-2      -27.89        9.496E-2      -27.68        0.79949       -51.19         
82.4959       0.04638       -173.78       9.49E-2       -28.10        9.494E-2      -27.89        0.79944       -51.57         
83.0959       0.04639       -173.71       9.489E-2      -28.30        9.493E-2      -28.10        0.7993        -51.94         
83.6958       0.04641       -173.67       9.487E-2      -28.52        9.492E-2      -28.28        0.79916       -52.32         
84.2958       0.04635       -173.62       9.491E-2      -28.70        9.491E-2      -28.49        0.79889       -52.69         
84.8958       0.04637       -173.61       9.485E-2      -28.89        9.496E-2      -28.69        0.79883       -53.07         
85.4957       0.04637       -173.56       9.49E-2       -29.11        9.494E-2      -28.90        0.79868       -53.45         
86.0957       0.04638       -173.54       9.491E-2      -29.29        9.493E-2      -29.08        0.79852       -53.82         
86.6957       0.04639       -173.48       9.486E-2      -29.54        9.495E-2      -29.30        0.79838       -54.20         
87.2957       0.04634       -173.41       9.486E-2      -29.73        9.492E-2      -29.50        0.79825       -54.57         
87.8956       0.04636       -173.37       9.491E-2      -29.93        9.49E-2       -29.71        0.79807       -54.95         
88.4956       0.04637       -173.33       9.485E-2      -30.11        9.49E-2       -29.93        0.79794       -55.32         
89.0956       0.04635       -173.26       9.488E-2      -30.32        9.49E-2       -30.11        0.79774       -55.70         
89.6955       0.04637       -173.20       9.483E-2      -30.54        9.49E-2       -30.31        0.79763       -56.07         
90.2955       0.04635       -173.22       9.486E-2      -30.72        9.49E-2       -30.51        0.7975        -56.45         
90.8955       0.04636       -173.17       9.491E-2      -30.92        9.489E-2      -30.72        0.79738       -56.82         
91.4954       0.04637       -173.11       9.485E-2      -31.13        9.487E-2      -30.95        0.79725       -57.20         
92.0954       0.04638       -173.02       9.483E-2      -31.33        9.49E-2       -31.13        0.79713       -57.58         
