!    3/18/2021   11:11:31 
! Ref Plane: 13.288 mm
# MHZ S MA R  50
!
0.3000        0.04741       -178.63       9.762E-2      -1.23         9.546E-2      -0.62         0.81511       -0.20          
0.9000        0.04721       -178.23       9.356E-2      -0.65         9.427E-2      -0.06         0.80971       -0.59          
1.4999        0.04723       -177.95       9.391E-2      -0.60         9.417E-2      -0.23         0.80981       -0.91          
2.0999        0.04726       -177.85       9.403E-2      -0.80         9.416E-2      -0.44         0.80967       -1.29          
2.6999        0.04728       -177.82       9.402E-2      -0.95         9.413E-2      -0.66         0.80954       -1.69          
3.2999        0.04726       -177.85       9.408E-2      -1.11         9.412E-2      -0.82         0.80947       -2.06          
3.8998        0.04727       -177.78       9.407E-2      -1.35         9.416E-2      -1.07         0.80937       -2.44          
4.4998        0.04729       -177.76       9.412E-2      -1.61         9.415E-2      -1.27         0.8093        -2.82          
5.0998        0.0473        -177.68       9.413E-2      -1.82         9.418E-2      -1.50         0.80934       -3.19          
5.6997        0.04724       -177.67       9.416E-2      -2.01         9.416E-2      -1.71         0.80916       -3.57          
6.2997        0.04726       -177.65       9.413E-2      -2.18         9.419E-2      -1.91         0.80914       -3.95          
6.8997        0.0473        -177.61       9.414E-2      -2.43         9.419E-2      -2.11         0.80908       -4.32          
7.4996        0.04731       -177.56       9.417E-2      -2.62         9.415E-2      -2.33         0.80895       -4.69          
8.0996        0.04726       -177.56       9.416E-2      -2.79         9.423E-2      -2.53         0.80895       -5.07          
8.6996        0.04726       -177.50       9.424E-2      -3.02         9.42E-2       -2.76         0.8089        -5.44          
9.2996        0.04726       -177.48       9.428E-2      -3.20         9.419E-2      -2.94         0.80876       -5.82          
9.8995        0.0472        -177.46       9.421E-2      -3.41         9.426E-2      -3.16         0.80875       -6.20          
10.4995       0.04723       -177.34       9.424E-2      -3.67         9.424E-2      -3.37         0.80873       -6.58          
11.0995       0.04729       -177.35       9.429E-2      -3.84         9.425E-2      -3.58         0.80862       -6.95          
11.6994       0.04727       -177.32       9.424E-2      -4.02         9.427E-2      -3.79         0.80859       -7.32          
12.2994       0.04727       -177.27       9.426E-2      -4.23         9.426E-2      -3.98         0.80855       -7.70          
12.8994       0.04724       -177.21       9.425E-2      -4.49         9.425E-2      -4.20         0.80854       -8.08          
13.4993       0.04725       -177.18       9.428E-2      -4.66         9.426E-2      -4.41         0.80841       -8.45          
14.0993       0.04723       -177.16       9.431E-2      -4.86         9.426E-2      -4.59         0.80838       -8.83          
14.6993       0.04722       -177.13       9.433E-2      -5.04         9.428E-2      -4.80         0.80829       -9.20          
15.2993       0.04724       -177.04       9.435E-2      -5.29         9.432E-2      -5.00         0.80833       -9.58          
15.8992       0.04721       -177.02       9.439E-2      -5.47         9.43E-2       -5.22         0.8083        -9.95          
16.4992       0.04719       -176.93       9.442E-2      -5.69         9.432E-2      -5.45         0.80828       -10.34         
17.0992       0.04718       -176.93       9.438E-2      -5.88         9.43E-2       -5.64         0.80821       -10.70         
17.6991       0.04721       -176.84       9.437E-2      -6.09         9.436E-2      -5.84         0.80816       -11.08         
18.2991       0.04717       -176.83       9.443E-2      -6.29         9.435E-2      -6.07         0.80812       -11.45         
18.8991       0.04716       -176.78       9.445E-2      -6.54         9.437E-2      -6.27         0.80809       -11.83         
19.4990       0.04716       -176.73       9.442E-2      -6.70         9.436E-2      -6.47         0.80808       -12.21         
20.0990       0.04713       -176.72       9.44E-2       -6.93         9.437E-2      -6.65         0.80797       -12.58         
20.6990       0.04712       -176.65       9.444E-2      -7.14         9.439E-2      -6.88         0.80793       -12.96         
21.2990       0.04711       -176.61       9.447E-2      -7.34         9.445E-2      -7.11         0.80791       -13.34         
21.8989       0.04712       -176.59       9.449E-2      -7.57         9.443E-2      -7.28         0.80786       -13.71         
22.4989       0.04712       -176.52       9.456E-2      -7.75         9.443E-2      -7.49         0.80789       -14.08         
23.0989       0.04716       -176.44       9.45E-2       -7.96         9.443E-2      -7.70         0.80785       -14.45         
23.6988       0.04715       -176.40       9.452E-2      -8.13         9.448E-2      -7.90         0.80783       -14.83         
24.2988       0.04713       -176.34       9.452E-2      -8.34         9.448E-2      -8.11         0.8078        -15.20         
24.8988       0.04712       -176.29       9.446E-2      -8.55         9.446E-2      -8.31         0.80779       -15.57         
25.4987       0.04711       -176.25       9.452E-2      -8.77         9.451E-2      -8.51         0.80778       -15.95         
26.0987       0.04708       -176.15       9.452E-2      -9.00         9.454E-2      -8.71         0.80776       -16.32         
26.6987       0.04708       -176.11       9.454E-2      -9.16         9.451E-2      -8.90         0.80781       -16.70         
27.2987       0.04706       -176.07       9.451E-2      -9.35         9.457E-2      -9.12         0.80771       -17.08         
27.8986       0.04706       -176.03       9.457E-2      -9.58         9.456E-2      -9.30         0.80763       -17.45         
28.4986       0.047         -175.99       9.463E-2      -9.77         9.454E-2      -9.52         0.80761       -17.82         
29.0986       0.04703       -175.94       9.456E-2      -9.97         9.459E-2      -9.72         0.80759       -18.20         
29.6985       0.04704       -175.91       9.459E-2      -10.21        9.46E-2       -9.92         0.80749       -18.57         
30.2985       0.04697       -175.85       9.458E-2      -10.43        9.459E-2      -10.14        0.80743       -18.94         
30.8985       0.04701       -175.82       9.462E-2      -10.61        9.454E-2      -10.37        0.80735       -19.31         
31.4984       0.04698       -175.75       9.464E-2      -10.82        9.461E-2      -10.57        0.80729       -19.70         
32.0984       0.04698       -175.68       9.462E-2      -11.03        9.461E-2      -10.79        0.80724       -20.07         
32.6984       0.04701       -175.64       9.463E-2      -11.23        9.462E-2      -10.97        0.80723       -20.44         
33.2984       0.04694       -175.59       9.462E-2      -11.44        9.463E-2      -11.18        0.80719       -20.82         
33.8983       0.04695       -175.53       9.459E-2      -11.62        9.464E-2      -11.38        0.80718       -21.19         
34.4983       0.04694       -175.45       9.466E-2      -11.83        9.469E-2      -11.58        0.80713       -21.56         
35.0983       0.04694       -175.42       9.467E-2      -12.00        9.469E-2      -11.79        0.80708       -21.94         
35.6982       0.0469        -175.39       9.468E-2      -12.25        9.469E-2      -11.99        0.80706       -22.31         
36.2982       0.0469        -175.30       9.472E-2      -12.46        9.47E-2       -12.19        0.80698       -22.69         
36.8982       0.04691       -175.26       9.469E-2      -12.64        9.467E-2      -12.40        0.80685       -23.06         
37.4981       0.04691       -175.20       9.47E-2       -12.84        9.473E-2      -12.60        0.80672       -23.43         
38.0981       0.0469        -175.17       9.468E-2      -13.07        9.469E-2      -12.80        0.80665       -23.80         
38.6981       0.04683       -175.09       9.469E-2      -13.28        9.467E-2      -13.00        0.8066        -24.17         
39.2981       0.04687       -175.05       9.469E-2      -13.46        9.472E-2      -13.18        0.80646       -24.54         
39.8980       0.04685       -175.03       9.468E-2      -13.67        9.468E-2      -13.41        0.80637       -24.91         
40.4980       0.04683       -174.94       9.464E-2      -13.86        9.474E-2      -13.62        0.80626       -25.28         
41.0980       0.04681       -174.92       9.471E-2      -14.06        9.47E-2       -13.81        0.80614       -25.65         
41.6979       0.04682       -174.83       9.476E-2      -14.30        9.468E-2      -14.02        0.80602       -26.03         
42.2979       0.04683       -174.77       9.476E-2      -14.50        9.471E-2      -14.19        0.80601       -26.39         
42.8979       0.04681       -174.70       9.472E-2      -14.73        9.474E-2      -14.42        0.8059        -26.77         
43.4978       0.04682       -174.62       9.474E-2      -14.90        9.475E-2      -14.61        0.80578       -27.14         
44.0978       0.04682       -174.58       9.482E-2      -15.09        9.476E-2      -14.81        0.80568       -27.51         
44.6978       0.04678       -174.53       9.475E-2      -15.30        9.476E-2      -15.02        0.80567       -27.88         
45.2978       0.04678       -174.47       9.479E-2      -15.49        9.475E-2      -15.23        0.80558       -28.25         
45.8977       0.04678       -174.41       9.481E-2      -15.67        9.477E-2      -15.43        0.80543       -28.62         
46.4977       0.04679       -174.37       9.482E-2      -15.88        9.475E-2      -15.65        0.80525       -29.00         
47.0977       0.04678       -174.27       9.478E-2      -16.09        9.479E-2      -15.87        0.80512       -29.39         
47.6976       0.04681       -174.22       9.477E-2      -16.27        9.483E-2      -16.08        0.80511       -29.76         
48.2976       0.04681       -174.17       9.479E-2      -16.48        9.481E-2      -16.27        0.80509       -30.14         
48.8976       0.0468        -174.13       9.477E-2      -16.68        9.483E-2      -16.48        0.80502       -30.51         
49.4975       0.04676       -174.06       9.48E-2       -16.90        9.482E-2      -16.68        0.80496       -30.88         
50.0975       0.04678       -173.96       9.481E-2      -17.08        9.482E-2      -16.90        0.80483       -31.26         
50.6975       0.04675       -173.98       9.481E-2      -17.31        9.479E-2      -17.12        0.80478       -31.63         
51.2975       0.04674       -173.88       9.483E-2      -17.49        9.48E-2       -17.29        0.80467       -32.00         
51.8974       0.04672       -173.85       9.491E-2      -17.72        9.475E-2      -17.50        0.80462       -32.37         
52.4974       0.04668       -173.81       9.494E-2      -17.96        9.474E-2      -17.68        0.80448       -32.74         
53.0974       0.04672       -173.74       9.494E-2      -18.15        9.47E-2       -17.84        0.80441       -33.11         
53.6973       0.04667       -173.65       9.507E-2      -18.56        9.378E-2      -17.87        0.80432       -33.48         
54.2973       0.0466        -173.89       9.531E-2      -18.65        9.485E-2      -18.32        0.80423       -33.86         
54.8973       0.04669       -173.53       9.483E-2      -18.72        9.484E-2      -18.50        0.80412       -34.23         
55.4972       0.04666       -173.48       9.49E-2       -18.95        9.492E-2      -18.73        0.80408       -34.61         
56.0972       0.04667       -173.39       9.484E-2      -19.12        9.489E-2      -18.92        0.80393       -34.98         
56.6972       0.04667       -173.37       9.484E-2      -19.36        9.489E-2      -19.12        0.80382       -35.35         
57.2972       0.04661       -173.30       9.487E-2      -19.57        9.486E-2      -19.31        0.80376       -35.73         
57.8971       0.04665       -173.25       9.486E-2      -19.76        9.487E-2      -19.54        0.80362       -36.10         
58.4971       0.04665       -173.20       9.483E-2      -19.98        9.492E-2      -19.72        0.80354       -36.48         
59.0971       0.04664       -173.13       9.484E-2      -20.22        9.493E-2      -19.94        0.80348       -36.86         
59.6970       0.04663       -173.05       9.485E-2      -20.38        9.486E-2      -20.14        0.80334       -37.23         
60.2970       0.04663       -173.02       9.49E-2       -20.62        9.488E-2      -20.34        0.80328       -37.61         
60.8970       0.04662       -172.94       9.49E-2       -20.81        9.49E-2       -20.54        0.80318       -37.99         
61.4969       0.0466        -172.86       9.489E-2      -21.04        9.496E-2      -20.75        0.8031        -38.37         
62.0969       0.04665       -172.85       9.486E-2      -21.24        9.489E-2      -20.98        0.80295       -38.75         
62.6969       0.04663       -172.73       9.486E-2      -21.46        9.492E-2      -21.16        0.80284       -39.12         
63.2969       0.04659       -172.69       9.489E-2      -21.64        9.489E-2      -21.37        0.80276       -39.50         
63.8968       0.04664       -172.58       9.485E-2      -21.84        9.497E-2      -21.59        0.80267       -39.88         
64.4968       0.04663       -172.57       9.485E-2      -22.03        9.491E-2      -21.82        0.80255       -40.25         
65.0968       0.0466        -172.53       9.482E-2      -22.27        9.495E-2      -21.98        0.80238       -40.63         
65.6967       0.04659       -172.45       9.486E-2      -22.51        9.495E-2      -22.21        0.80229       -41.00         
66.2967       0.04657       -172.39       9.486E-2      -22.66        9.493E-2      -22.43        0.80219       -41.38         
66.8967       0.04659       -172.29       9.483E-2      -22.87        9.493E-2      -22.60        0.80207       -41.75         
67.4966       0.04657       -172.25       9.491E-2      -23.06        9.498E-2      -22.81        0.80198       -42.13         
68.0966       0.04655       -172.22       9.49E-2       -23.29        9.497E-2      -23.02        0.80184       -42.50         
68.6966       0.04657       -172.10       9.486E-2      -23.48        9.494E-2      -23.21        0.80171       -42.87         
69.2966       0.04656       -172.06       9.49E-2       -23.66        9.497E-2      -23.40        0.80166       -43.24         
69.8965       0.04657       -171.94       9.492E-2      -23.87        9.496E-2      -23.62        0.80151       -43.62         
70.4965       0.04654       -171.91       9.491E-2      -24.08        9.495E-2      -23.83        0.8014        -43.99         
71.0965       0.04655       -171.87       9.489E-2      -24.28        9.494E-2      -24.01        0.80126       -44.37         
71.6964       0.04658       -171.81       9.486E-2      -24.50        9.495E-2      -24.22        0.80116       -44.74         
72.2964       0.04654       -171.74       9.494E-2      -24.73        9.494E-2      -24.44        0.80103       -45.11         
72.8964       0.04654       -171.62       9.495E-2      -24.89        9.491E-2      -24.62        0.80096       -45.48         
73.4963       0.04655       -171.59       9.491E-2      -25.10        9.495E-2      -24.84        0.80084       -45.85         
74.0963       0.04653       -171.52       9.491E-2      -25.31        9.498E-2      -25.07        0.80073       -46.23         
74.6963       0.04652       -171.48       9.489E-2      -25.53        9.496E-2      -25.25        0.80067       -46.60         
75.2963       0.04649       -171.43       9.496E-2      -25.75        9.495E-2      -25.45        0.80059       -46.98         
75.8962       0.04648       -171.37       9.493E-2      -25.90        9.497E-2      -25.65        0.80041       -47.35         
76.4962       0.04649       -171.29       9.496E-2      -26.15        9.499E-2      -25.87        0.80031       -47.72         
77.0962       0.04649       -171.20       9.489E-2      -26.33        9.501E-2      -26.08        0.80014       -48.10         
77.6961       0.04648       -171.10       9.491E-2      -26.53        9.497E-2      -26.27        0.80001       -48.47         
78.2961       0.04646       -171.05       9.493E-2      -26.72        9.499E-2      -26.49        0.79989       -48.84         
78.8961       0.04652       -171.00       9.493E-2      -26.95        9.502E-2      -26.66        0.79974       -49.21         
79.4960       0.04648       -170.96       9.488E-2      -27.12        9.50E-2       -26.89        0.79961       -49.59         
80.0960       0.04648       -170.89       9.497E-2      -27.33        9.505E-2      -27.12        0.79946       -49.96         
80.6960       0.04645       -170.80       9.491E-2      -27.55        9.497E-2      -27.27        0.7993        -50.34         
81.2960       0.0465        -170.77       9.495E-2      -27.75        9.501E-2      -27.50        0.79916       -50.71         
81.8959       0.04646       -170.72       9.495E-2      -27.93        9.497E-2      -27.69        0.799         -51.09         
82.4959       0.04649       -170.64       9.496E-2      -28.13        9.498E-2      -27.90        0.79881       -51.46         
83.0959       0.04648       -170.55       9.495E-2      -28.35        9.498E-2      -28.08        0.7987        -51.84         
83.6958       0.04646       -170.54       9.493E-2      -28.56        9.501E-2      -28.29        0.79844       -52.21         
84.2958       0.04645       -170.46       9.492E-2      -28.75        9.50E-2       -28.51        0.7983        -52.58         
84.8958       0.04646       -170.41       9.493E-2      -28.97        9.501E-2      -28.71        0.79822       -52.96         
85.4957       0.0465        -170.35       9.492E-2      -29.15        9.495E-2      -28.90        0.79805       -53.34         
86.0957       0.04648       -170.29       9.496E-2      -29.40        9.497E-2      -29.10        0.79786       -53.72         
86.6957       0.04646       -170.25       9.493E-2      -29.58        9.499E-2      -29.31        0.79779       -54.09         
87.2957       0.04645       -170.15       9.491E-2      -29.81        9.496E-2      -29.51        0.79762       -54.46         
87.8956       0.04644       -170.07       9.493E-2      -29.99        9.497E-2      -29.73        0.79746       -54.84         
88.4956       0.04647       -170.00       9.49E-2       -30.21        9.497E-2      -29.92        0.79728       -55.21         
89.0956       0.04644       -169.91       9.494E-2      -30.40        9.497E-2      -30.12        0.79717       -55.58         
89.6955       0.04646       -169.87       9.491E-2      -30.60        9.497E-2      -30.32        0.79696       -55.97         
90.2955       0.04648       -169.82       9.491E-2      -30.82        9.496E-2      -30.54        0.79684       -56.34         
90.8955       0.04648       -169.77       9.49E-2       -31.00        9.501E-2      -30.75        0.79673       -56.71         
91.4954       0.0465        -169.71       9.491E-2      -31.20        9.497E-2      -30.95        0.79656       -57.09         
92.0954       0.0465        -169.61       9.493E-2      -31.41        9.499E-2      -31.17        0.79645       -57.47         
