!    3/18/2021   19:02:17 
! Ref Plane: 13.288 mm
# MHZ S MA R  50
!
0.3000        0.04741       -178.87       9.756E-2      -1.07         9.558E-2      -0.77         0.81617       -0.25          
0.9000        0.04718       -178.36       9.355E-2      -0.54         9.433E-2      -0.16         0.81002       -0.62          
1.4999        0.04723       -178.04       9.393E-2      -0.52         9.42E-2       -0.35         0.80986       -0.92          
2.0999        0.04724       -177.98       9.404E-2      -0.71         9.418E-2      -0.53         0.80968       -1.32          
2.6999        0.04724       -177.96       9.404E-2      -0.87         9.416E-2      -0.73         0.80969       -1.71          
3.2999        0.04721       -177.99       9.412E-2      -1.06         9.417E-2      -0.91         0.80957       -2.10          
3.8998        0.04725       -177.93       9.409E-2      -1.30         9.416E-2      -1.17         0.8094        -2.48          
4.4998        0.04723       -177.92       9.411E-2      -1.56         9.418E-2      -1.34         0.80936       -2.86          
5.0998        0.04726       -177.84       9.417E-2      -1.76         9.419E-2      -1.57         0.80937       -3.25          
5.6997        0.04722       -177.85       9.415E-2      -1.97         9.421E-2      -1.80         0.80922       -3.63          
6.2997        0.04722       -177.83       9.414E-2      -2.16         9.422E-2      -1.98         0.80919       -4.02          
6.8997        0.04722       -177.83       9.417E-2      -2.42         9.421E-2      -2.17         0.80911       -4.39          
7.4996        0.0472        -177.79       9.419E-2      -2.62         9.421E-2      -2.39         0.80903       -4.77          
8.0996        0.04718       -177.78       9.418E-2      -2.79         9.425E-2      -2.61         0.80897       -5.15          
8.6996        0.04718       -177.75       9.422E-2      -3.00         9.424E-2      -2.82         0.80895       -5.53          
9.2996        0.04716       -177.72       9.426E-2      -3.20         9.423E-2      -3.01         0.80884       -5.91          
9.8995        0.04713       -177.74       9.421E-2      -3.41         9.427E-2      -3.22         0.80878       -6.29          
10.4995       0.04715       -177.64       9.421E-2      -3.66         9.424E-2      -3.46         0.80875       -6.67          
11.0995       0.04719       -177.65       9.425E-2      -3.84         9.428E-2      -3.63         0.8087        -7.05          
11.6994       0.0472        -177.61       9.421E-2      -4.03         9.431E-2      -3.86         0.80866       -7.43          
12.2994       0.04715       -177.57       9.426E-2      -4.23         9.428E-2      -4.04         0.8086        -7.81          
12.8994       0.04714       -177.56       9.426E-2      -4.50         9.43E-2       -4.26         0.80857       -8.19          
13.4993       0.04712       -177.53       9.427E-2      -4.66         9.433E-2      -4.46         0.80853       -8.57          
14.0993       0.04711       -177.51       9.429E-2      -4.85         9.43E-2       -4.64         0.80845       -8.96          
14.6993       0.04709       -177.45       9.432E-2      -5.03         9.431E-2      -4.87         0.80838       -9.33          
15.2993       0.0471        -177.42       9.435E-2      -5.27         9.431E-2      -5.09         0.80838       -9.71          
15.8992       0.04709       -177.43       9.439E-2      -5.49         9.434E-2      -5.31         0.80837       -10.09         
16.4992       0.04704       -177.35       9.442E-2      -5.68         9.434E-2      -5.51         0.80834       -10.48         
17.0992       0.04703       -177.32       9.439E-2      -5.88         9.433E-2      -5.72         0.80826       -10.85         
17.6991       0.04704       -177.24       9.433E-2      -6.09         9.437E-2      -5.93         0.80825       -11.23         
18.2991       0.04705       -177.27       9.444E-2      -6.28         9.437E-2      -6.13         0.80821       -11.61         
18.8991       0.04701       -177.23       9.441E-2      -6.52         9.44E-2       -6.36         0.80819       -11.99         
19.4990       0.04699       -177.21       9.442E-2      -6.69         9.438E-2      -6.55         0.80815       -12.37         
20.0990       0.04695       -177.19       9.439E-2      -6.93         9.437E-2      -6.73         0.80808       -12.75         
20.6990       0.04697       -177.13       9.444E-2      -7.14         9.443E-2      -6.96         0.80805       -13.12         
21.2990       0.04697       -177.11       9.444E-2      -7.35         9.443E-2      -7.19         0.80802       -13.51         
21.8989       0.04697       -177.07       9.449E-2      -7.57         9.445E-2      -7.35         0.80798       -13.88         
22.4989       0.04695       -177.00       9.453E-2      -7.75         9.442E-2      -7.56         0.80797       -14.26         
23.0989       0.04693       -176.93       9.449E-2      -7.94         9.444E-2      -7.78         0.80801       -14.63         
23.6988       0.04695       -176.94       9.453E-2      -8.14         9.449E-2      -8.00         0.80795       -15.01         
24.2988       0.04694       -176.88       9.45E-2       -8.35         9.45E-2       -8.20         0.80795       -15.39         
24.8988       0.04694       -176.83       9.447E-2      -8.55         9.447E-2      -8.39         0.80794       -15.77         
25.4987       0.04686       -176.81       9.45E-2       -8.77         9.452E-2      -8.60         0.80795       -16.15         
26.0987       0.04684       -176.74       9.454E-2      -9.01         9.457E-2      -8.81         0.80788       -16.53         
26.6987       0.04685       -176.71       9.453E-2      -9.16         9.45E-2       -9.00         0.80792       -16.91         
27.2987       0.04684       -176.67       9.45E-2       -9.36         9.455E-2      -9.21         0.80784       -17.28         
27.8986       0.04682       -176.61       9.456E-2      -9.60         9.456E-2      -9.40         0.80783       -17.66         
28.4986       0.0468        -176.60       9.462E-2      -9.77         9.452E-2      -9.61         0.80777       -18.04         
29.0986       0.04679       -176.57       9.457E-2      -9.97         9.457E-2      -9.82         0.80773       -18.42         
29.6985       0.04678       -176.54       9.459E-2      -10.20        9.462E-2      -10.01        0.80769       -18.79         
30.2985       0.04676       -176.49       9.457E-2      -10.44        9.459E-2      -10.23        0.80764       -19.17         
30.8985       0.04678       -176.44       9.461E-2      -10.63        9.454E-2      -10.45        0.80753       -19.54         
31.4984       0.04676       -176.38       9.469E-2      -10.82        9.46E-2       -10.66        0.80748       -19.93         
32.0984       0.04673       -176.36       9.464E-2      -11.04        9.461E-2      -10.87        0.80747       -20.31         
32.6984       0.04673       -176.32       9.464E-2      -11.25        9.461E-2      -11.05        0.80741       -20.68         
33.2984       0.0467        -176.25       9.464E-2      -11.46        9.461E-2      -11.27        0.80743       -21.06         
33.8983       0.04671       -176.21       9.46E-2       -11.63        9.465E-2      -11.48        0.80741       -21.44         
34.4983       0.04669       -176.14       9.466E-2      -11.85        9.465E-2      -11.69        0.80734       -21.82         
35.0983       0.04665       -176.10       9.464E-2      -12.02        9.467E-2      -11.88        0.80731       -22.19         
35.6982       0.04665       -176.08       9.469E-2      -12.27        9.466E-2      -12.08        0.80728       -22.57         
36.2982       0.04666       -176.03       9.471E-2      -12.48        9.469E-2      -12.30        0.80721       -22.95         
36.8982       0.04663       -176.00       9.47E-2       -12.66        9.468E-2      -12.51        0.80712       -23.32         
37.4981       0.0466        -175.93       9.47E-2       -12.85        9.47E-2       -12.70        0.80699       -23.70         
38.0981       0.0466        -175.88       9.469E-2      -13.06        9.469E-2      -12.89        0.80692       -24.07         
38.6981       0.04657       -175.87       9.469E-2      -13.30        9.466E-2      -13.10        0.80683       -24.44         
39.2981       0.04658       -175.85       9.471E-2      -13.48        9.47E-2       -13.28        0.8068        -24.82         
39.8980       0.04656       -175.80       9.468E-2      -13.70        9.465E-2      -13.51        0.8066        -25.20         
40.4980       0.04655       -175.71       9.463E-2      -13.87        9.472E-2      -13.72        0.80653       -25.57         
41.0980       0.04653       -175.70       9.47E-2       -14.09        9.467E-2      -13.91        0.80642       -25.94         
41.6979       0.04651       -175.63       9.475E-2      -14.33        9.467E-2      -14.13        0.80635       -26.32         
42.2979       0.04649       -175.60       9.476E-2      -14.52        9.469E-2      -14.31        0.8063        -26.69         
42.8979       0.04651       -175.49       9.472E-2      -14.74        9.471E-2      -14.53        0.8062        -27.07         
43.4978       0.04648       -175.47       9.474E-2      -14.92        9.473E-2      -14.70        0.80611       -27.44         
44.0978       0.04648       -175.43       9.479E-2      -15.12        9.473E-2      -14.92        0.80601       -27.82         
44.6978       0.04647       -175.37       9.477E-2      -15.32        9.474E-2      -15.13        0.80597       -28.19         
45.2978       0.04644       -175.36       9.478E-2      -15.50        9.47E-2       -15.35        0.80587       -28.57         
45.8977       0.04644       -175.28       9.478E-2      -15.70        9.474E-2      -15.54        0.80575       -28.94         
46.4977       0.04645       -175.25       9.481E-2      -15.91        9.471E-2      -15.76        0.8056        -29.31         
47.0977       0.04648       -175.17       9.473E-2      -16.09        9.474E-2      -15.95        0.80551       -29.72         
47.6976       0.04647       -175.11       9.477E-2      -16.32        9.479E-2      -16.18        0.80545       -30.09         
48.2976       0.04644       -175.05       9.478E-2      -16.51        9.474E-2      -16.37        0.80543       -30.47         
48.8976       0.0464        -175.00       9.477E-2      -16.74        9.477E-2      -16.58        0.80537       -30.84         
49.4975       0.04639       -175.04       9.478E-2      -16.95        9.479E-2      -16.78        0.80526       -31.22         
50.0975       0.04641       -174.91       9.479E-2      -17.12        9.477E-2      -17.01        0.80521       -31.60         
50.6975       0.04638       -174.93       9.48E-2       -17.36        9.477E-2      -17.22        0.80516       -31.97         
51.2975       0.04634       -174.84       9.482E-2      -17.52        9.48E-2       -17.41        0.80511       -32.35         
51.8974       0.04637       -174.79       9.485E-2      -17.75        9.477E-2      -17.60        0.80496       -32.72         
52.4974       0.04631       -174.72       9.487E-2      -17.98        9.473E-2      -17.81        0.80492       -33.10         
53.0974       0.04631       -174.72       9.483E-2      -18.16        9.474E-2      -18.00        0.80484       -33.47         
53.6973       0.04629       -174.64       9.491E-2      -18.46        9.458E-2      -18.24        0.80473       -33.85         
54.2973       0.04628       -174.65       9.48E-2       -18.55        9.482E-2      -18.44        0.80468       -34.22         
54.8973       0.04628       -174.53       9.48E-2       -18.76        9.481E-2      -18.63        0.80458       -34.60         
55.4972       0.04627       -174.52       9.484E-2      -18.99        9.485E-2      -18.84        0.80449       -34.98         
56.0972       0.04627       -174.45       9.482E-2      -19.16        9.486E-2      -19.03        0.8044        -35.35         
56.6972       0.04626       -174.41       9.479E-2      -19.40        9.483E-2      -19.23        0.80428       -35.73         
57.2972       0.04622       -174.37       9.482E-2      -19.60        9.481E-2      -19.43        0.80422       -36.10         
57.8971       0.04623       -174.36       9.482E-2      -19.80        9.482E-2      -19.65        0.80408       -36.48         
58.4971       0.04625       -174.27       9.478E-2      -20.02        9.484E-2      -19.85        0.80407       -36.86         
59.0971       0.04621       -174.18       9.48E-2       -20.26        9.484E-2      -20.05        0.80398       -37.25         
59.6970       0.04622       -174.11       9.482E-2      -20.41        9.48E-2       -20.25        0.80383       -37.62         
60.2970       0.0462        -174.12       9.488E-2      -20.65        9.483E-2      -20.47        0.80379       -38.00         
60.8970       0.0462        -174.03       9.484E-2      -20.85        9.484E-2      -20.67        0.8037        -38.39         
61.4969       0.04615       -173.99       9.484E-2      -21.08        9.489E-2      -20.89        0.8036        -38.77         
62.0969       0.0462        -173.96       9.48E-2       -21.26        9.482E-2      -21.11        0.8035        -39.15         
62.6969       0.04619       -173.83       9.481E-2      -21.47        9.484E-2      -21.30        0.80336       -39.53         
63.2969       0.04616       -173.83       9.481E-2      -21.66        9.482E-2      -21.49        0.80328       -39.91         
63.8968       0.04617       -173.73       9.477E-2      -21.88        9.487E-2      -21.74        0.80317       -40.29         
64.4968       0.04615       -173.72       9.48E-2       -22.07        9.484E-2      -21.96        0.80314       -40.67         
65.0968       0.04617       -173.69       9.48E-2       -22.30        9.484E-2      -22.12        0.80296       -41.04         
65.6967       0.04615       -173.57       9.481E-2      -22.54        9.484E-2      -22.33        0.80289       -41.42         
66.2967       0.04611       -173.54       9.48E-2       -22.71        9.486E-2      -22.55        0.80278       -41.80         
66.8967       0.04613       -173.46       9.477E-2      -22.91        9.483E-2      -22.73        0.80268       -42.18         
67.4966       0.0461        -173.44       9.483E-2      -23.09        9.487E-2      -22.95        0.80253       -42.55         
68.0966       0.04608       -173.40       9.481E-2      -23.34        9.485E-2      -23.15        0.80247       -42.93         
68.6966       0.04611       -173.30       9.479E-2      -23.53        9.486E-2      -23.32        0.80237       -43.30         
69.2966       0.04608       -173.29       9.482E-2      -23.71        9.489E-2      -23.52        0.8023        -43.68         
69.8965       0.04608       -173.19       9.486E-2      -23.90        9.484E-2      -23.74        0.80215       -44.06         
70.4965       0.04607       -173.14       9.487E-2      -24.13        9.483E-2      -23.96        0.80204       -44.44         
71.0965       0.04605       -173.13       9.48E-2       -24.33        9.483E-2      -24.15        0.80195       -44.81         
71.6964       0.04606       -173.06       9.48E-2       -24.55        9.484E-2      -24.35        0.80181       -45.18         
72.2964       0.04606       -172.99       9.486E-2      -24.77        9.483E-2      -24.58        0.80171       -45.56         
72.8964       0.04604       -172.95       9.485E-2      -24.94        9.48E-2       -24.77        0.80166       -45.94         
73.4963       0.04604       -172.86       9.483E-2      -25.15        9.482E-2      -24.99        0.80156       -46.32         
74.0963       0.04603       -172.81       9.485E-2      -25.35        9.489E-2      -25.20        0.80145       -46.69         
74.6963       0.04601       -172.76       9.481E-2      -25.57        9.484E-2      -25.39        0.80143       -47.07         
75.2963       0.04596       -172.70       9.486E-2      -25.79        9.484E-2      -25.60        0.80131       -47.45         
75.8962       0.04598       -172.63       9.481E-2      -25.94        9.486E-2      -25.79        0.80108       -47.82         
76.4962       0.04596       -172.62       9.485E-2      -26.19        9.485E-2      -26.03        0.80097       -48.19         
77.0962       0.04595       -172.51       9.481E-2      -26.37        9.486E-2      -26.22        0.80079       -48.57         
77.6961       0.04595       -172.43       9.478E-2      -26.59        9.481E-2      -26.41        0.8007        -48.94         
78.2961       0.04595       -172.38       9.482E-2      -26.78        9.485E-2      -26.61        0.8006        -49.31         
78.8961       0.04596       -172.35       9.48E-2       -26.99        9.487E-2      -26.82        0.80047       -49.69         
79.4960       0.04596       -172.29       9.48E-2       -27.17        9.485E-2      -27.02        0.80042       -50.07         
80.0960       0.04594       -172.23       9.484E-2      -27.37        9.488E-2      -27.24        0.80024       -50.44         
80.6960       0.04593       -172.21       9.479E-2      -27.60        9.481E-2      -27.42        0.80013       -50.82         
81.2960       0.04593       -172.14       9.486E-2      -27.80        9.487E-2      -27.61        0.79999       -51.20         
81.8959       0.04591       -172.08       9.482E-2      -27.98        9.486E-2      -27.82        0.79986       -51.58         
82.4959       0.04591       -172.03       9.488E-2      -28.19        9.484E-2      -28.04        0.79969       -51.95         
83.0959       0.0459        -171.97       9.483E-2      -28.40        9.485E-2      -28.21        0.79957       -52.33         
83.6958       0.04587       -171.96       9.483E-2      -28.62        9.485E-2      -28.42        0.79939       -52.70         
84.2958       0.04588       -171.88       9.481E-2      -28.80        9.484E-2      -28.64        0.79924       -53.08         
84.8958       0.04589       -171.86       9.479E-2      -29.01        9.482E-2      -28.84        0.79913       -53.46         
85.4957       0.04589       -171.79       9.478E-2      -29.19        9.478E-2      -29.04        0.79897       -53.84         
86.0957       0.04586       -171.72       9.481E-2      -29.44        9.48E-2       -29.24        0.79884       -54.22         
86.6957       0.04586       -171.67       9.48E-2       -29.63        9.482E-2      -29.44        0.79877       -54.59         
87.2957       0.04586       -171.60       9.479E-2      -29.87        9.481E-2      -29.65        0.79859       -54.96         
87.8956       0.04587       -171.48       9.482E-2      -30.03        9.479E-2      -29.86        0.79839       -55.35         
88.4956       0.04586       -171.43       9.476E-2      -30.26        9.482E-2      -30.05        0.79829       -55.72         
89.0956       0.04585       -171.39       9.478E-2      -30.43        9.48E-2       -30.26        0.79818       -56.10         
89.6955       0.04583       -171.31       9.479E-2      -30.65        9.48E-2       -30.45        0.79802       -56.48         
90.2955       0.04587       -171.31       9.478E-2      -30.86        9.479E-2      -30.67        0.79787       -56.86         
90.8955       0.04586       -171.26       9.475E-2      -31.04        9.481E-2      -30.87        0.79777       -57.23         
91.4954       0.04586       -171.17       9.477E-2      -31.25        9.477E-2      -31.09        0.79764       -57.61         
92.0954       0.04586       -171.10       9.481E-2      -31.46        9.481E-2      -31.29        0.79755       -58.00         
