!    3/17/2021   10:16:04 
! Ref Plane: 0.000 mm
# MHZ S MA R  50
!
0.3000        0.05383       173.99        9.807E-2      -1.11         9.642E-2      -0.65         0.82598       0.54           
0.9000        0.04901       179.14        9.361E-2      -0.52         9.456E-2      -0.27         0.81655       -0.05          
1.4999        0.04829       -179.68       9.392E-2      -0.46         9.441E-2      -0.33         0.81402       -0.32          
2.0999        0.04798       -179.08       9.402E-2      -0.67         9.431E-2      -0.55         0.81253       -0.84          
2.6999        0.04796       -178.78       9.409E-2      -0.88         9.424E-2      -0.72         0.81185       -1.33          
3.2999        0.04792       -178.70       9.416E-2      -1.12         9.424E-2      -0.95         0.81158       -1.77          
3.8998        0.04785       -178.68       9.416E-2      -1.29         9.421E-2      -1.16         0.81131       -2.20          
4.4998        0.04777       -178.69       9.416E-2      -1.51         9.423E-2      -1.36         0.81115       -2.62          
5.0998        0.04767       -178.79       9.416E-2      -1.72         9.418E-2      -1.58         0.81096       -3.02          
5.6997        0.04758       -178.75       9.413E-2      -1.94         9.424E-2      -1.79         0.81087       -3.42          
6.2997        0.04747       -178.75       9.414E-2      -2.17         9.42E-2       -1.99         0.81071       -3.82          
6.8997        0.04739       -178.80       9.411E-2      -2.37         9.425E-2      -2.23         0.81062       -4.21          
7.4996        0.04731       -178.75       9.417E-2      -2.60         9.424E-2      -2.42         0.81055       -4.60          
8.0996        0.04725       -178.79       9.419E-2      -2.77         9.422E-2      -2.64         0.81042       -4.98          
8.6996        0.04713       -178.71       9.422E-2      -2.96         9.426E-2      -2.83         0.81034       -5.37          
9.2996        0.04708       -178.76       9.417E-2      -3.14         9.428E-2      -3.05         0.81029       -5.76          
9.8995        0.04701       -178.79       9.426E-2      -3.46         9.428E-2      -3.26         0.81022       -6.13          
10.4995       0.04697       -178.70       9.42E-2       -3.62         9.428E-2      -3.47         0.8101        -6.52          
11.0995       0.04691       -178.75       9.43E-2       -3.82         9.426E-2      -3.68         0.81008       -6.90          
11.6994       0.04687       -178.70       9.432E-2      -4.05         9.43E-2       -3.85         0.81          -7.28          
12.2994       0.04682       -178.71       9.421E-2      -4.20         9.429E-2      -4.09         0.80994       -7.66          
12.8994       0.04676       -178.76       9.431E-2      -4.43         9.429E-2      -4.28         0.80986       -8.04          
13.4993       0.0467        -178.78       9.424E-2      -4.63         9.43E-2       -4.49         0.80987       -8.42          
14.0993       0.04667       -178.76       9.428E-2      -4.84         9.426E-2      -4.69         0.80983       -8.80          
14.6993       0.0466        -178.72       9.437E-2      -5.00         9.433E-2      -4.88         0.80978       -9.18          
15.2993       0.04656       -178.72       9.435E-2      -5.21         9.43E-2       -5.11         0.80977       -9.56          
15.8992       0.04651       -178.70       9.432E-2      -5.45         9.434E-2      -5.32         0.80974       -9.94          
16.4992       0.04644       -178.71       9.438E-2      -5.65         9.431E-2      -5.53         0.80967       -10.31         
17.0992       0.04638       -178.70       9.434E-2      -5.84         9.433E-2      -5.71         0.80961       -10.69         
17.6991       0.04633       -178.68       9.435E-2      -6.02         9.432E-2      -5.93         0.80954       -11.07         
18.2991       0.0463        -178.67       9.436E-2      -6.27         9.438E-2      -6.14         0.80949       -11.45         
18.8991       0.04627       -178.73       9.434E-2      -6.45         9.439E-2      -6.34         0.80944       -11.82         
19.4990       0.04625       -178.66       9.435E-2      -6.64         9.437E-2      -6.55         0.80945       -12.20         
20.0990       0.0462        -178.66       9.435E-2      -6.86         9.437E-2      -6.75         0.80936       -12.57         
20.6990       0.04622       -178.67       9.436E-2      -7.06         9.44E-2       -6.96         0.80928       -12.95         
21.2990       0.04618       -178.63       9.447E-2      -7.26         9.444E-2      -7.16         0.80924       -13.32         
21.8989       0.04616       -178.64       9.442E-2      -7.41         9.442E-2      -7.36         0.80921       -13.69         
22.4989       0.04615       -178.62       9.443E-2      -7.64         9.447E-2      -7.57         0.80921       -14.06         
23.0989       0.04611       -178.66       9.446E-2      -7.87         9.446E-2      -7.76         0.80917       -14.44         
23.6988       0.04607       -178.66       9.441E-2      -8.05         9.445E-2      -7.94         0.80913       -14.81         
24.2988       0.04605       -178.66       9.441E-2      -8.28         9.447E-2      -8.15         0.8092        -15.19         
24.8988       0.04605       -178.63       9.448E-2      -8.45         9.451E-2      -8.37         0.80915       -15.56         
25.4987       0.04601       -178.66       9.443E-2      -8.65         9.445E-2      -8.56         0.80913       -15.93         
26.0987       0.04596       -178.65       9.449E-2      -8.87         9.448E-2      -8.77         0.8091        -16.31         
26.6987       0.04595       -178.67       9.451E-2      -9.08         9.45E-2       -8.99         0.80903       -16.68         
27.2987       0.0459        -178.65       9.45E-2       -9.25         9.455E-2      -9.17         0.80895       -17.05         
27.8986       0.0459        -178.71       9.456E-2      -9.51         9.454E-2      -9.37         0.80903       -17.43         
28.4986       0.04587       -178.66       9.457E-2      -9.70         9.454E-2      -9.58         0.80892       -17.80         
29.0986       0.04587       -178.67       9.454E-2      -9.89         9.456E-2      -9.77         0.80889       -18.18         
29.6985       0.04586       -178.67       9.458E-2      -10.08        9.455E-2      -9.97         0.80881       -18.55         
30.2985       0.04584       -178.69       9.453E-2      -10.31        9.457E-2      -10.20        0.80871       -18.91         
30.8985       0.04581       -178.70       9.457E-2      -10.45        9.457E-2      -10.39        0.80865       -19.29         
31.4984       0.04582       -178.69       9.46E-2       -10.70        9.461E-2      -10.61        0.80859       -19.66         
32.0984       0.04578       -178.71       9.456E-2      -10.90        9.462E-2      -10.82        0.80855       -20.04         
32.6984       0.04579       -178.68       9.455E-2      -11.10        9.462E-2      -11.00        0.80846       -20.41         
33.2984       0.04575       -178.74       9.463E-2      -11.30        9.462E-2      -11.23        0.80848       -20.79         
33.8983       0.04573       -178.71       9.463E-2      -11.53        9.469E-2      -11.43        0.80845       -21.16         
34.4983       0.04571       -178.73       9.459E-2      -11.75        9.465E-2      -11.63        0.80839       -21.53         
35.0983       0.04571       -178.78       9.462E-2      -11.96        9.469E-2      -11.81        0.80841       -21.90         
35.6982       0.04571       -178.75       9.462E-2      -12.16        9.469E-2      -12.01        0.80831       -22.28         
36.2982       0.04568       -178.75       9.464E-2      -12.32        9.469E-2      -12.23        0.80818       -22.65         
36.8982       0.04569       -178.74       9.469E-2      -12.55        9.47E-2       -12.42        0.80805       -23.02         
37.4981       0.04569       -178.74       9.463E-2      -12.74        9.469E-2      -12.59        0.80793       -23.39         
38.0981       0.04566       -178.79       9.471E-2      -12.95        9.471E-2      -12.83        0.80783       -23.76         
38.6981       0.04566       -178.79       9.463E-2      -13.14        9.474E-2      -13.03        0.80771       -24.13         
39.2981       0.04565       -178.76       9.469E-2      -13.36        9.47E-2       -13.23        0.80764       -24.50         
39.8980       0.04564       -178.73       9.464E-2      -13.58        9.469E-2      -13.41        0.80752       -24.87         
40.4980       0.04566       -178.78       9.467E-2      -13.76        9.47E-2       -13.62        0.80742       -25.24         
41.0980       0.04567       -178.77       9.472E-2      -13.92        9.473E-2      -13.80        0.80734       -25.61         
41.6979       0.04567       -178.75       9.468E-2      -14.16        9.473E-2      -14.02        0.80727       -25.98         
42.2979       0.04566       -178.74       9.469E-2      -14.35        9.475E-2      -14.24        0.8072        -26.35         
42.8979       0.04566       -178.76       9.474E-2      -14.52        9.474E-2      -14.41        0.80707       -26.72         
43.4978       0.04567       -178.81       9.476E-2      -14.77        9.47E-2       -14.61        0.80699       -27.09         
44.0978       0.04567       -178.76       9.479E-2      -14.98        9.472E-2      -14.83        0.80686       -27.46         
44.6978       0.04567       -178.76       9.479E-2      -15.16        9.475E-2      -15.03        0.80674       -27.83         
45.2978       0.04567       -178.76       9.477E-2      -15.35        9.475E-2      -15.25        0.8067        -28.20         
45.8977       0.04568       -178.74       9.473E-2      -15.55        9.476E-2      -15.45        0.80663       -28.57         
46.4977       0.04568       -178.72       9.472E-2      -15.75        9.476E-2      -15.65        0.80647       -28.94         
47.0977       0.04572       -178.75       9.479E-2      -15.97        9.479E-2      -15.86        0.80627       -29.34         
47.6976       0.04576       -178.74       9.476E-2      -16.17        9.481E-2      -16.06        0.80623       -29.71         
48.2976       0.04573       -178.71       9.476E-2      -16.35        9.475E-2      -16.27        0.80618       -30.08         
48.8976       0.04578       -178.69       9.48E-2       -16.56        9.482E-2      -16.47        0.80615       -30.46         
49.4975       0.04575       -178.72       9.481E-2      -16.72        9.484E-2      -16.68        0.80603       -30.83         
50.0975       0.04576       -178.69       9.486E-2      -16.98        9.478E-2      -16.90        0.80596       -31.20         
50.6975       0.04575       -178.75       9.489E-2      -17.13        9.48E-2       -17.11        0.80592       -31.57         
51.2975       0.04557       -178.81       9.484E-2      -17.37        9.478E-2      -17.26        0.8058        -31.94         
51.8974       0.04558       -178.92       9.491E-2      -17.65        9.465E-2      -17.38        0.80572       -32.31         
52.4974       0.04561       -179.07       9.572E-2      -18.24        9.463E-2      -17.56        0.8056        -32.68         
53.0974       0.04572       -178.64       9.482E-2      -17.97        9.487E-2      -17.87        0.80551       -33.05         
53.6973       0.04578       -178.65       9.486E-2      -18.19        9.49E-2       -18.06        0.80541       -33.43         
54.2973       0.04578       -178.66       9.483E-2      -18.37        9.488E-2      -18.28        0.80534       -33.79         
54.8973       0.04577       -178.60       9.48E-2       -18.59        9.489E-2      -18.48        0.80525       -34.17         
55.4972       0.04579       -178.59       9.486E-2      -18.78        9.489E-2      -18.67        0.80517       -34.54         
56.0972       0.0458        -178.58       9.485E-2      -18.99        9.491E-2      -18.87        0.80504       -34.92         
56.6972       0.04581       -178.59       9.485E-2      -19.17        9.489E-2      -19.07        0.80494       -35.29         
57.2972       0.04582       -178.58       9.487E-2      -19.42        9.491E-2      -19.27        0.80483       -35.66         
57.8971       0.04583       -178.53       9.489E-2      -19.58        9.492E-2      -19.50        0.80471       -36.03         
58.4971       0.04583       -178.54       9.488E-2      -19.81        9.492E-2      -19.71        0.80464       -36.41         
59.0971       0.04584       -178.51       9.489E-2      -20.02        9.49E-2       -19.89        0.80451       -36.79         
59.6970       0.04586       -178.46       9.488E-2      -20.25        9.492E-2      -20.11        0.80445       -37.17         
60.2970       0.04588       -178.46       9.489E-2      -20.45        9.493E-2      -20.30        0.80441       -37.54         
60.8970       0.04589       -178.43       9.491E-2      -20.67        9.49E-2       -20.49        0.80432       -37.92         
61.4969       0.04593       -178.39       9.489E-2      -20.83        9.497E-2      -20.72        0.80417       -38.30         
62.0969       0.04593       -178.36       9.484E-2      -21.04        9.497E-2      -20.92        0.80407       -38.67         
62.6969       0.04592       -178.32       9.494E-2      -21.27        9.497E-2      -21.08        0.804         -39.05         
63.2969       0.04595       -178.30       9.492E-2      -21.48        9.497E-2      -21.32        0.80392       -39.42         
63.8968       0.04594       -178.24       9.491E-2      -21.69        9.496E-2      -21.55        0.8038        -39.80         
64.4968       0.04596       -178.23       9.49E-2       -21.89        9.497E-2      -21.73        0.80371       -40.18         
65.0968       0.04599       -178.18       9.488E-2      -22.09        9.497E-2      -21.91        0.80361       -40.55         
65.6967       0.04598       -178.16       9.493E-2      -22.30        9.494E-2      -22.12        0.80342       -40.93         
66.2967       0.046         -178.15       9.489E-2      -22.48        9.497E-2      -22.34        0.80336       -41.30         
66.8967       0.04603       -178.08       9.494E-2      -22.70        9.498E-2      -22.54        0.80324       -41.67         
67.4966       0.04603       -178.00       9.492E-2      -22.88        9.498E-2      -22.74        0.80317       -42.04         
68.0966       0.04606       -177.98       9.49E-2       -23.11        9.499E-2      -22.92        0.80303       -42.42         
68.6966       0.04606       -177.96       9.496E-2      -23.30        9.502E-2      -23.17        0.80294       -42.79         
69.2966       0.04608       -177.90       9.492E-2      -23.50        9.498E-2      -23.35        0.80287       -43.16         
69.8965       0.0461        -177.88       9.498E-2      -23.70        9.498E-2      -23.54        0.80274       -43.53         
70.4965       0.04611       -177.84       9.493E-2      -23.89        9.50E-2       -23.73        0.80266       -43.91         
71.0965       0.0461        -177.76       9.496E-2      -24.11        9.499E-2      -23.92        0.80248       -44.28         
71.6964       0.04611       -177.71       9.494E-2      -24.33        9.50E-2       -24.16        0.80243       -44.65         
72.2964       0.04612       -177.69       9.499E-2      -24.48        9.499E-2      -24.38        0.80234       -45.02         
72.8964       0.04612       -177.67       9.498E-2      -24.73        9.498E-2      -24.57        0.80223       -45.40         
73.4963       0.04613       -177.60       9.498E-2      -24.93        9.497E-2      -24.76        0.80213       -45.77         
74.0963       0.04615       -177.58       9.504E-2      -25.14        9.501E-2      -24.98        0.80206       -46.14         
74.6963       0.04616       -177.50       9.499E-2      -25.33        9.502E-2      -25.16        0.80192       -46.52         
75.2963       0.04616       -177.45       9.502E-2      -25.53        9.506E-2      -25.37        0.80187       -46.89         
75.8962       0.04616       -177.44       9.499E-2      -25.74        9.503E-2      -25.59        0.80169       -47.27         
76.4962       0.0462        -177.35       9.50E-2       -25.93        9.504E-2      -25.81        0.80159       -47.64         
77.0962       0.0462        -177.33       9.50E-2       -26.14        9.505E-2      -25.99        0.80144       -48.01         
77.6961       0.0462        -177.27       9.501E-2      -26.33        9.508E-2      -26.19        0.80128       -48.38         
78.2961       0.04622       -177.20       9.504E-2      -26.52        9.504E-2      -26.40        0.80113       -48.75         
78.8961       0.04622       -177.13       9.496E-2      -26.72        9.505E-2      -26.58        0.80106       -49.12         
79.4960       0.04622       -177.12       9.501E-2      -26.92        9.504E-2      -26.78        0.80094       -49.50         
80.0960       0.04627       -177.06       9.502E-2      -27.12        9.502E-2      -26.98        0.80081       -49.86         
80.6960       0.04626       -177.02       9.502E-2      -27.31        9.505E-2      -27.19        0.80071       -50.24         
81.2960       0.04624       -176.98       9.503E-2      -27.54        9.505E-2      -27.39        0.80052       -50.61         
81.8959       0.04625       -176.92       9.501E-2      -27.74        9.507E-2      -27.58        0.80039       -50.98         
82.4959       0.0463        -176.84       9.503E-2      -27.92        9.506E-2      -27.77        0.80028       -51.36         
83.0959       0.04627       -176.83       9.50E-2       -28.11        9.504E-2      -27.97        0.80011       -51.73         
83.6958       0.04627       -176.78       9.504E-2      -28.37        9.503E-2      -28.18        0.79994       -52.10         
84.2958       0.04628       -176.71       9.502E-2      -28.54        9.504E-2      -28.39        0.79981       -52.48         
84.8958       0.04629       -176.66       9.503E-2      -28.72        9.504E-2      -28.57        0.79963       -52.86         
85.4957       0.04625       -176.61       9.503E-2      -28.96        9.503E-2      -28.79        0.79947       -53.23         
86.0957       0.0463        -176.54       9.512E-2      -29.17        9.508E-2      -28.98        0.79938       -53.61         
86.6957       0.0463        -176.46       9.499E-2      -29.36        9.502E-2      -29.17        0.79925       -53.98         
87.2957       0.04626       -176.41       9.508E-2      -29.56        9.501E-2      -29.38        0.79913       -54.35         
87.8956       0.04631       -176.34       9.504E-2      -29.76        9.503E-2      -29.61        0.79899       -54.72         
88.4956       0.04633       -176.32       9.503E-2      -29.97        9.503E-2      -29.79        0.79888       -55.10         
89.0956       0.04631       -176.25       9.502E-2      -30.16        9.505E-2      -30.00        0.79868       -55.47         
89.6955       0.04633       -176.16       9.505E-2      -30.35        9.504E-2      -30.22        0.79854       -55.85         
90.2955       0.04632       -176.07       9.504E-2      -30.55        9.505E-2      -30.41        0.79842       -56.22         
90.8955       0.04631       -176.02       9.504E-2      -30.78        9.502E-2      -30.60        0.79828       -56.59         
91.4954       0.04631       -176.00       9.505E-2      -30.97        9.506E-2      -30.82        0.79813       -56.97         
92.0954       0.04629       -175.93       9.502E-2      -31.16        9.509E-2      -31.03        0.79812       -57.34         
