!    3/16/2021   20:28:22 
! Ref Plane: 0.000 mm
# MHZ S MA R  50
!
0.3000        0.04832       -179.25       9.732E-2      -1.19         9.574E-2      -0.66         0.81583       -0.18          
0.9000        0.04733       -178.34       9.343E-2      -0.53         9.435E-2      -0.25         0.81057       -0.54          
1.4999        0.04734       -178.14       9.378E-2      -0.52         9.429E-2      -0.34         0.81032       -0.85          
2.0999        0.04736       -178.08       9.396E-2      -0.78         9.418E-2      -0.56         0.81009       -1.26          
2.6999        0.04736       -178.03       9.402E-2      -0.95         9.42E-2       -0.79         0.80994       -1.68          
3.2999        0.04738       -178.02       9.405E-2      -1.19         9.414E-2      -0.98         0.80977       -2.07          
3.8998        0.04738       -178.00       9.412E-2      -1.46         9.414E-2      -1.20         0.80964       -2.45          
4.4998        0.04738       -178.00       9.406E-2      -1.58         9.412E-2      -1.40         0.80954       -2.84          
5.0998        0.04735       -177.97       9.412E-2      -1.85         9.416E-2      -1.59         0.80951       -3.23          
5.6997        0.04734       -177.99       9.414E-2      -2.08         9.415E-2      -1.80         0.80936       -3.61          
6.2997        0.04737       -177.95       9.411E-2      -2.24         9.412E-2      -2.02         0.80936       -3.98          
6.8997        0.04735       -177.96       9.424E-2      -2.47         9.414E-2      -2.21         0.80931       -4.36          
7.4996        0.0473        -177.92       9.419E-2      -2.65         9.415E-2      -2.41         0.80915       -4.74          
8.0996        0.04732       -177.90       9.423E-2      -2.87         9.416E-2      -2.65         0.80919       -5.12          
8.6996        0.04728       -177.90       9.423E-2      -3.08         9.419E-2      -2.86         0.80906       -5.50          
9.2996        0.0473        -177.84       9.422E-2      -3.26         9.417E-2      -3.02         0.80901       -5.87          
9.8995        0.04727       -177.88       9.425E-2      -3.50         9.419E-2      -3.24         0.809         -6.25          
10.4995       0.04728       -177.84       9.42E-2       -3.70         9.416E-2      -3.46         0.80894       -6.63          
11.0995       0.04727       -177.83       9.427E-2      -3.87         9.42E-2       -3.66         0.80886       -7.00          
11.6994       0.04726       -177.84       9.429E-2      -4.12         9.421E-2      -3.87         0.80885       -7.38          
12.2994       0.04729       -177.80       9.429E-2      -4.36         9.419E-2      -4.08         0.80872       -7.75          
12.8994       0.04725       -177.80       9.427E-2      -4.53         9.42E-2       -4.28         0.80869       -8.13          
13.4993       0.04723       -177.73       9.431E-2      -4.73         9.42E-2       -4.50         0.80866       -8.50          
14.0993       0.04724       -177.71       9.435E-2      -4.94         9.425E-2      -4.70         0.80859       -8.88          
14.6993       0.0472        -177.68       9.434E-2      -5.13         9.423E-2      -4.89         0.80854       -9.26          
15.2993       0.04726       -177.68       9.431E-2      -5.33         9.425E-2      -5.10         0.80856       -9.64          
15.8992       0.04722       -177.66       9.438E-2      -5.56         9.428E-2      -5.33         0.80851       -10.02         
16.4992       0.04719       -177.62       9.441E-2      -5.79         9.429E-2      -5.49         0.80844       -10.39         
17.0992       0.04719       -177.59       9.44E-2       -5.95         9.427E-2      -5.72         0.80838       -10.77         
17.6991       0.0472        -177.61       9.435E-2      -6.20         9.431E-2      -5.92         0.80839       -11.14         
18.2991       0.04714       -177.54       9.445E-2      -6.35         9.431E-2      -6.14         0.80834       -11.51         
18.8991       0.04714       -177.54       9.442E-2      -6.57         9.433E-2      -6.36         0.80829       -11.89         
19.4990       0.04714       -177.52       9.449E-2      -6.78         9.432E-2      -6.58         0.8083        -12.26         
20.0990       0.0471        -177.50       9.444E-2      -6.98         9.432E-2      -6.76         0.80822       -12.64         
20.6990       0.04712       -177.44       9.439E-2      -7.15         9.436E-2      -6.96         0.80818       -13.02         
21.2990       0.04711       -177.44       9.452E-2      -7.41         9.436E-2      -7.18         0.80818       -13.39         
21.8989       0.04709       -177.46       9.446E-2      -7.60         9.436E-2      -7.38         0.80814       -13.76         
22.4989       0.04711       -177.41       9.446E-2      -7.81         9.438E-2      -7.57         0.80809       -14.14         
23.0989       0.04709       -177.39       9.449E-2      -8.03         9.437E-2      -7.81         0.80809       -14.51         
23.6988       0.04714       -177.35       9.452E-2      -8.21         9.438E-2      -7.99         0.80806       -14.89         
24.2988       0.04709       -177.24       9.454E-2      -8.43         9.445E-2      -8.17         0.80805       -15.26         
24.8988       0.04709       -177.23       9.457E-2      -8.62         9.44E-2       -8.38         0.80803       -15.63         
25.4987       0.04706       -177.25       9.455E-2      -8.83         9.442E-2      -8.58         0.80802       -16.01         
26.0987       0.04705       -177.17       9.457E-2      -9.05         9.448E-2      -8.79         0.80806       -16.38         
26.6987       0.04705       -177.17       9.457E-2      -9.24         9.447E-2      -9.00         0.808         -16.75         
27.2987       0.04705       -177.14       9.458E-2      -9.46         9.449E-2      -9.21         0.80789       -17.13         
27.8986       0.04706       -177.14       9.454E-2      -9.65         9.447E-2      -9.38         0.80786       -17.50         
28.4986       0.04701       -177.06       9.46E-2       -9.86         9.449E-2      -9.58         0.8079        -17.87         
29.0986       0.04704       -177.09       9.459E-2      -10.04        9.451E-2      -9.80         0.80785       -18.25         
29.6985       0.04702       -177.04       9.46E-2       -10.27        9.449E-2      -10.01        0.80775       -18.62         
30.2985       0.04699       -177.05       9.462E-2      -10.47        9.452E-2      -10.22        0.80771       -18.99         
30.8985       0.04698       -177.00       9.462E-2      -10.70        9.453E-2      -10.43        0.80769       -19.37         
31.4984       0.04697       -176.98       9.467E-2      -10.88        9.453E-2      -10.63        0.80757       -19.74         
32.0984       0.04697       -176.92       9.464E-2      -11.08        9.455E-2      -10.85        0.8075        -20.12         
32.6984       0.04698       -176.87       9.461E-2      -11.29        9.454E-2      -11.04        0.80751       -20.49         
33.2984       0.04695       -176.86       9.459E-2      -11.46        9.455E-2      -11.23        0.80741       -20.87         
33.8983       0.04695       -176.82       9.464E-2      -11.69        9.454E-2      -11.44        0.80743       -21.24         
34.4983       0.04696       -176.79       9.468E-2      -11.89        9.466E-2      -11.64        0.80744       -21.62         
35.0983       0.04694       -176.77       9.469E-2      -12.07        9.459E-2      -11.86        0.80731       -21.99         
35.6982       0.04692       -176.76       9.468E-2      -12.33        9.463E-2      -12.06        0.80734       -22.36         
36.2982       0.0469        -176.68       9.465E-2      -12.51        9.462E-2      -12.27        0.8072        -22.74         
36.8982       0.04688       -176.67       9.469E-2      -12.72        9.467E-2      -12.44        0.8071        -23.11         
37.4981       0.04691       -176.67       9.468E-2      -12.91        9.465E-2      -12.65        0.80698       -23.47         
38.0981       0.0469        -176.61       9.464E-2      -13.11        9.463E-2      -12.82        0.80692       -23.84         
38.6981       0.04689       -176.57       9.467E-2      -13.34        9.465E-2      -13.06        0.80676       -24.22         
39.2981       0.04688       -176.59       9.467E-2      -13.52        9.464E-2      -13.27        0.80668       -24.59         
39.8980       0.04686       -176.50       9.468E-2      -13.71        9.459E-2      -13.45        0.80662       -24.95         
40.4980       0.0469        -176.49       9.473E-2      -13.93        9.459E-2      -13.68        0.80654       -25.33         
41.0980       0.04687       -176.45       9.474E-2      -14.12        9.464E-2      -13.86        0.80644       -25.69         
41.6979       0.04683       -176.39       9.474E-2      -14.32        9.465E-2      -14.06        0.80634       -26.07         
42.2979       0.04685       -176.36       9.475E-2      -14.54        9.463E-2      -14.26        0.80629       -26.44         
42.8979       0.04685       -176.30       9.475E-2      -14.75        9.465E-2      -14.47        0.80618       -26.81         
43.4978       0.04687       -176.28       9.476E-2      -14.94        9.469E-2      -14.68        0.80609       -27.18         
44.0978       0.04688       -176.27       9.477E-2      -15.12        9.468E-2      -14.87        0.80596       -27.55         
44.6978       0.04685       -176.22       9.478E-2      -15.34        9.47E-2       -15.07        0.80596       -27.92         
45.2978       0.04686       -176.20       9.475E-2      -15.56        9.467E-2      -15.29        0.80587       -28.29         
45.8977       0.04684       -176.15       9.478E-2      -15.75        9.467E-2      -15.49        0.80571       -28.66         
46.4977       0.04683       -176.11       9.478E-2      -15.92        9.466E-2      -15.70        0.80559       -29.03         
47.0977       0.04682       -176.07       9.476E-2      -16.12        9.466E-2      -15.91        0.80543       -29.43         
47.6976       0.04684       -176.03       9.479E-2      -16.33        9.474E-2      -16.11        0.8054        -29.80         
48.2976       0.04682       -176.02       9.48E-2       -16.52        9.476E-2      -16.31        0.80537       -30.17         
48.8976       0.04685       -175.95       9.478E-2      -16.72        9.474E-2      -16.54        0.8053        -30.55         
49.4975       0.04684       -175.95       9.483E-2      -16.93        9.474E-2      -16.73        0.80518       -30.92         
50.0975       0.04684       -175.89       9.482E-2      -17.13        9.474E-2      -16.94        0.80511       -31.29         
50.6975       0.04687       -175.88       9.484E-2      -17.34        9.476E-2      -17.15        0.80505       -31.66         
51.2975       0.04685       -175.85       9.485E-2      -17.58        9.475E-2      -17.35        0.80502       -32.03         
51.8974       0.04683       -175.82       9.488E-2      -17.77        9.472E-2      -17.52        0.80492       -32.41         
52.4974       0.0468        -175.76       9.49E-2       -17.99        9.472E-2      -17.71        0.80481       -32.78         
53.0974       0.0468        -175.73       9.493E-2      -18.25        9.458E-2      -17.80        0.80471       -33.15         
53.6973       0.04671       -175.95       9.553E-2      -18.73        9.418E-2      -18.10        0.80461       -33.52         
54.2973       0.04678       -175.64       9.483E-2      -18.59        9.479E-2      -18.37        0.80452       -33.89         
54.8973       0.0468        -175.64       9.487E-2      -18.79        9.476E-2      -18.55        0.80444       -34.26         
55.4972       0.04679       -175.61       9.481E-2      -18.98        9.479E-2      -18.77        0.80436       -34.64         
56.0972       0.04677       -175.55       9.483E-2      -19.16        9.479E-2      -18.95        0.80424       -35.01         
56.6972       0.04677       -175.47       9.486E-2      -19.38        9.479E-2      -19.15        0.80411       -35.38         
57.2972       0.04677       -175.50       9.483E-2      -19.62        9.477E-2      -19.33        0.80402       -35.76         
57.8971       0.04676       -175.41       9.485E-2      -19.77        9.481E-2      -19.56        0.8039        -36.14         
58.4971       0.04677       -175.41       9.485E-2      -20.03        9.481E-2      -19.75        0.80385       -36.51         
59.0971       0.04676       -175.36       9.483E-2      -20.21        9.481E-2      -19.98        0.80376       -36.89         
59.6970       0.04678       -175.30       9.486E-2      -20.43        9.482E-2      -20.16        0.80362       -37.27         
60.2970       0.04677       -175.25       9.486E-2      -20.62        9.479E-2      -20.36        0.80358       -37.64         
60.8970       0.04679       -175.24       9.484E-2      -20.85        9.482E-2      -20.58        0.8035        -38.02         
61.4969       0.0468        -175.19       9.487E-2      -21.07        9.485E-2      -20.79        0.80342       -38.40         
62.0969       0.04676       -175.12       9.487E-2      -21.23        9.483E-2      -21.00        0.80326       -38.77         
62.6969       0.04679       -175.08       9.483E-2      -21.48        9.484E-2      -21.21        0.80318       -39.15         
63.2969       0.04681       -175.04       9.482E-2      -21.64        9.485E-2      -21.41        0.80309       -39.53         
63.8968       0.04679       -174.99       9.485E-2      -21.89        9.485E-2      -21.61        0.80296       -39.90         
64.4968       0.04675       -174.95       9.484E-2      -22.08        9.484E-2      -21.82        0.80283       -40.28         
65.0968       0.04678       -174.92       9.49E-2       -22.27        9.483E-2      -22.00        0.80273       -40.66         
65.6967       0.04678       -174.88       9.486E-2      -22.51        9.484E-2      -22.22        0.80261       -41.03         
66.2967       0.04678       -174.84       9.487E-2      -22.65        9.487E-2      -22.45        0.80252       -41.40         
66.8967       0.04678       -174.81       9.486E-2      -22.86        9.485E-2      -22.64        0.80242       -41.78         
67.4966       0.04676       -174.78       9.485E-2      -23.06        9.485E-2      -22.86        0.80234       -42.15         
68.0966       0.04676       -174.70       9.485E-2      -23.29        9.486E-2      -23.04        0.80218       -42.52         
68.6966       0.04677       -174.65       9.488E-2      -23.47        9.485E-2      -23.24        0.80209       -42.89         
69.2966       0.04678       -174.61       9.486E-2      -23.67        9.484E-2      -23.41        0.80197       -43.27         
69.8965       0.04677       -174.58       9.492E-2      -23.91        9.485E-2      -23.64        0.80189       -43.64         
70.4965       0.04676       -174.52       9.488E-2      -24.12        9.488E-2      -23.84        0.80178       -44.02         
71.0965       0.0468        -174.46       9.488E-2      -24.29        9.486E-2      -24.05        0.80168       -44.39         
71.6964       0.04677       -174.40       9.489E-2      -24.51        9.488E-2      -24.23        0.80155       -44.76         
72.2964       0.04677       -174.41       9.493E-2      -24.74        9.483E-2      -24.46        0.80145       -45.14         
72.8964       0.04678       -174.33       9.489E-2      -24.91        9.488E-2      -24.65        0.80137       -45.50         
73.4963       0.0468        -174.28       9.489E-2      -25.13        9.485E-2      -24.85        0.80125       -45.88         
74.0963       0.04681       -174.23       9.489E-2      -25.33        9.486E-2      -25.07        0.80116       -46.25         
74.6963       0.04679       -174.16       9.494E-2      -25.53        9.487E-2      -25.27        0.80106       -46.63         
75.2963       0.04676       -174.14       9.491E-2      -25.74        9.49E-2       -25.48        0.80096       -47.01         
75.8962       0.04676       -174.06       9.493E-2      -25.94        9.483E-2      -25.67        0.80079       -47.38         
76.4962       0.04676       -174.02       9.49E-2       -26.14        9.485E-2      -25.88        0.80061       -47.75         
77.0962       0.04676       -174.00       9.486E-2      -26.37        9.489E-2      -26.06        0.80044       -48.12         
77.6961       0.04677       -173.95       9.488E-2      -26.54        9.486E-2      -26.30        0.80028       -48.50         
78.2961       0.04679       -173.92       9.488E-2      -26.71        9.487E-2      -26.49        0.80006       -48.86         
78.8961       0.04677       -173.84       9.487E-2      -26.94        9.487E-2      -26.70        0.79992       -49.23         
79.4960       0.04678       -173.81       9.487E-2      -27.13        9.488E-2      -26.88        0.7998        -49.59         
80.0960       0.04678       -173.75       9.486E-2      -27.31        9.489E-2      -27.08        0.79976       -49.97         
80.6960       0.04675       -173.73       9.491E-2      -27.51        9.489E-2      -27.31        0.79971       -50.34         
81.2960       0.04676       -173.70       9.49E-2       -27.72        9.489E-2      -27.49        0.79957       -50.71         
81.8959       0.04677       -173.62       9.49E-2       -27.94        9.492E-2      -27.67        0.7994        -51.09         
82.4959       0.04676       -173.57       9.496E-2      -28.16        9.491E-2      -27.89        0.79927       -51.47         
83.0959       0.04679       -173.52       9.49E-2       -28.35        9.49E-2       -28.09        0.79915       -51.84         
83.6958       0.04681       -173.49       9.488E-2      -28.57        9.488E-2      -28.29        0.79903       -52.21         
84.2958       0.04677       -173.46       9.495E-2      -28.75        9.487E-2      -28.49        0.79884       -52.59         
84.8958       0.04681       -173.41       9.488E-2      -28.96        9.491E-2      -28.69        0.79871       -52.96         
85.4957       0.04677       -173.42       9.491E-2      -29.15        9.488E-2      -28.91        0.79857       -53.34         
86.0957       0.04678       -173.31       9.493E-2      -29.34        9.489E-2      -29.09        0.7984        -53.72         
86.6957       0.04678       -173.28       9.489E-2      -29.59        9.49E-2       -29.29        0.7983        -54.09         
87.2957       0.04677       -173.23       9.489E-2      -29.78        9.484E-2      -29.49        0.79812       -54.46         
87.8956       0.04678       -173.16       9.491E-2      -30.00        9.485E-2      -29.71        0.79794       -54.83         
88.4956       0.04678       -173.09       9.488E-2      -30.16        9.484E-2      -29.92        0.79782       -55.21         
89.0956       0.04677       -173.04       9.49E-2       -30.38        9.485E-2      -30.12        0.79765       -55.58         
89.6955       0.0468        -173.03       9.485E-2      -30.57        9.487E-2      -30.33        0.7975        -55.96         
90.2955       0.0468        -173.01       9.49E-2       -30.77        9.488E-2      -30.52        0.79738       -56.34         
90.8955       0.04681       -172.96       9.493E-2      -30.97        9.485E-2      -30.72        0.79721       -56.71         
91.4954       0.04681       -172.88       9.487E-2      -31.17        9.484E-2      -30.96        0.79715       -57.09         
92.0954       0.04683       -172.86       9.484E-2      -31.40        9.486E-2      -31.14        0.79705       -57.46         
