!    3/18/2021   20:05:20 
! Ref Plane: 13.288 mm
# MHZ S MA R  50
!
0.3000        0.04782       179.80        9.73E-2       -1.28         9.592E-2      -0.46         0.81813       -0.02          
0.9000        0.04717       -178.70       9.331E-2      -0.62         9.463E-2      -0.07         0.81192       -0.45          
1.4999        0.0472        -178.26       9.382E-2      -0.61         9.427E-2      -0.16         0.81105       -0.75          
2.0999        0.04725       -178.13       9.397E-2      -0.82         9.417E-2      -0.39         0.81043       -1.18          
2.6999        0.04728       -178.05       9.397E-2      -1.00         9.41E-2       -0.58         0.81028       -1.59          
3.2999        0.04727       -178.08       9.411E-2      -1.19         9.408E-2      -0.76         0.81003       -1.99          
3.8998        0.04729       -178.03       9.412E-2      -1.44         9.41E-2       -1.01         0.80985       -2.38          
4.4998        0.0473        -178.01       9.418E-2      -1.72         9.409E-2      -1.20         0.80976       -2.77          
5.0998        0.04727       -177.92       9.419E-2      -1.92         9.408E-2      -1.43         0.80978       -3.15          
5.6997        0.04724       -177.94       9.418E-2      -2.11         9.409E-2      -1.65         0.8096        -3.54          
6.2997        0.04724       -177.93       9.421E-2      -2.29         9.41E-2       -1.85         0.80951       -3.92          
6.8997        0.04728       -177.89       9.425E-2      -2.53         9.407E-2      -2.06         0.80939       -4.29          
7.4996        0.04723       -177.86       9.426E-2      -2.73         9.407E-2      -2.28         0.80935       -4.67          
8.0996        0.04724       -177.85       9.428E-2      -2.90         9.409E-2      -2.50         0.80927       -5.05          
8.6996        0.04717       -177.81       9.43E-2       -3.11         9.407E-2      -2.72         0.80917       -5.42          
9.2996        0.04718       -177.78       9.434E-2      -3.32         9.407E-2      -2.91         0.80916       -5.80          
9.8995        0.04715       -177.80       9.429E-2      -3.52         9.41E-2       -3.11         0.80906       -6.18          
10.4995       0.04719       -177.71       9.431E-2      -3.78         9.409E-2      -3.33         0.80901       -6.56          
11.0995       0.0472        -177.74       9.438E-2      -3.94         9.413E-2      -3.52         0.80897       -6.93          
11.6994       0.0472        -177.72       9.431E-2      -4.14         9.412E-2      -3.73         0.80887       -7.30          
12.2994       0.04717       -177.65       9.434E-2      -4.33         9.411E-2      -3.94         0.80884       -7.68          
12.8994       0.04714       -177.61       9.435E-2      -4.58         9.412E-2      -4.14         0.80878       -8.06          
13.4993       0.04713       -177.58       9.44E-2       -4.76         9.413E-2      -4.35         0.80875       -8.43          
14.0993       0.04711       -177.58       9.441E-2      -4.93         9.413E-2      -4.54         0.80862       -8.81          
14.6993       0.04713       -177.54       9.44E-2       -5.13         9.416E-2      -4.76         0.80856       -9.18          
15.2993       0.04714       -177.50       9.444E-2      -5.38         9.416E-2      -4.95         0.80858       -9.56          
15.8992       0.04708       -177.50       9.45E-2       -5.57         9.418E-2      -5.16         0.80858       -9.93          
16.4992       0.04707       -177.43       9.448E-2      -5.78         9.417E-2      -5.36         0.80857       -10.31         
17.0992       0.04706       -177.41       9.446E-2      -5.98         9.418E-2      -5.58         0.80843       -10.68         
17.6991       0.04707       -177.32       9.443E-2      -6.18         9.421E-2      -5.78         0.80841       -11.06         
18.2991       0.04702       -177.35       9.453E-2      -6.39         9.422E-2      -5.99         0.80839       -11.43         
18.8991       0.04702       -177.28       9.453E-2      -6.63         9.423E-2      -6.21         0.80834       -11.81         
19.4990       0.04701       -177.27       9.449E-2      -6.80         9.422E-2      -6.39         0.8083        -12.18         
20.0990       0.04698       -177.22       9.448E-2      -7.04         9.423E-2      -6.59         0.80826       -12.56         
20.6990       0.04697       -177.20       9.452E-2      -7.23         9.427E-2      -6.81         0.80821       -12.93         
21.2990       0.04697       -177.20       9.453E-2      -7.45         9.431E-2      -7.01         0.80812       -13.30         
21.8989       0.04697       -177.14       9.455E-2      -7.66         9.432E-2      -7.20         0.80807       -13.67         
22.4989       0.04694       -177.09       9.462E-2      -7.83         9.429E-2      -7.40         0.80807       -14.04         
23.0989       0.04695       -177.02       9.457E-2      -8.04         9.432E-2      -7.61         0.80809       -14.42         
23.6988       0.04696       -177.01       9.458E-2      -8.24         9.435E-2      -7.81         0.80802       -14.79         
24.2988       0.04694       -176.97       9.459E-2      -8.43         9.437E-2      -8.04         0.808         -15.16         
24.8988       0.04695       -176.93       9.453E-2      -8.63         9.436E-2      -8.22         0.80802       -15.54         
25.4987       0.04692       -176.86       9.458E-2      -8.85         9.437E-2      -8.43         0.80798       -15.91         
26.0987       0.04688       -176.78       9.459E-2      -9.08         9.446E-2      -8.62         0.808         -16.29         
26.6987       0.04688       -176.77       9.46E-2       -9.24         9.44E-2       -8.82         0.80802       -16.65         
27.2987       0.04684       -176.72       9.459E-2      -9.45         9.445E-2      -9.02         0.80791       -17.03         
27.8986       0.04686       -176.68       9.466E-2      -9.68         9.446E-2      -9.22         0.80788       -17.40         
28.4986       0.04684       -176.65       9.47E-2       -9.85         9.442E-2      -9.42         0.80779       -17.77         
29.0986       0.04682       -176.67       9.465E-2      -10.07        9.447E-2      -9.63         0.80776       -18.15         
29.6985       0.04684       -176.62       9.467E-2      -10.29        9.449E-2      -9.83         0.80765       -18.52         
30.2985       0.04679       -176.58       9.465E-2      -10.50        9.449E-2      -10.03        0.80763       -18.89         
30.8985       0.0468        -176.54       9.469E-2      -10.70        9.444E-2      -10.28        0.80748       -19.26         
31.4984       0.04678       -176.49       9.472E-2      -10.89        9.451E-2      -10.46        0.80744       -19.64         
32.0984       0.04677       -176.41       9.469E-2      -11.11        9.452E-2      -10.68        0.8074        -20.01         
32.6984       0.04679       -176.38       9.469E-2      -11.31        9.45E-2       -10.86        0.8074        -20.39         
33.2984       0.04674       -176.35       9.472E-2      -11.52        9.453E-2      -11.08        0.80736       -20.76         
33.8983       0.04672       -176.29       9.466E-2      -11.69        9.454E-2      -11.27        0.80734       -21.13         
34.4983       0.04672       -176.23       9.473E-2      -11.90        9.455E-2      -11.48        0.80725       -21.51         
35.0983       0.04673       -176.20       9.472E-2      -12.07        9.46E-2       -11.68        0.80724       -21.88         
35.6982       0.0467        -176.18       9.475E-2      -12.33        9.459E-2      -11.87        0.80718       -22.25         
36.2982       0.04671       -176.12       9.48E-2       -12.52        9.461E-2      -12.08        0.80709       -22.62         
36.8982       0.04669       -176.10       9.478E-2      -12.70        9.459E-2      -12.29        0.807         -22.99         
37.4981       0.04667       -176.05       9.478E-2      -12.90        9.462E-2      -12.50        0.80686       -23.36         
38.0981       0.04666       -175.99       9.478E-2      -13.13        9.461E-2      -12.69        0.80681       -23.73         
38.6981       0.04664       -175.93       9.477E-2      -13.35        9.457E-2      -12.88        0.80672       -24.10         
39.2981       0.04662       -175.96       9.475E-2      -13.53        9.462E-2      -13.07        0.80663       -24.47         
39.8980       0.04662       -175.93       9.476E-2      -13.75        9.458E-2      -13.30        0.80646       -24.84         
40.4980       0.04661       -175.82       9.47E-2       -13.92        9.465E-2      -13.48        0.80638       -25.21         
41.0980       0.04657       -175.80       9.476E-2      -14.13        9.463E-2      -13.70        0.80626       -25.58         
41.6979       0.04658       -175.75       9.482E-2      -14.36        9.459E-2      -13.91        0.80614       -25.94         
42.2979       0.04658       -175.69       9.483E-2      -14.53        9.461E-2      -14.07        0.80612       -26.31         
42.8979       0.04658       -175.62       9.48E-2       -14.77        9.466E-2      -14.30        0.80603       -26.69         
43.4978       0.04656       -175.58       9.483E-2      -14.93        9.466E-2      -14.48        0.8059        -27.06         
44.0978       0.04656       -175.55       9.485E-2      -15.12        9.468E-2      -14.69        0.80577       -27.42         
44.6978       0.04654       -175.45       9.483E-2      -15.33        9.469E-2      -14.89        0.80575       -27.79         
45.2978       0.04655       -175.48       9.487E-2      -15.53        9.468E-2      -15.10        0.80564       -28.17         
45.8977       0.04652       -175.39       9.489E-2      -15.71        9.469E-2      -15.29        0.80551       -28.54         
46.4977       0.04654       -175.36       9.49E-2       -15.92        9.466E-2      -15.52        0.80539       -28.91         
47.0977       0.04657       -175.27       9.479E-2      -16.07        9.472E-2      -15.72        0.80526       -29.30         
47.6976       0.04657       -175.22       9.483E-2      -16.30        9.475E-2      -15.95        0.80516       -29.67         
48.2976       0.04655       -175.14       9.485E-2      -16.49        9.472E-2      -16.16        0.80513       -30.05         
48.8976       0.04656       -175.12       9.485E-2      -16.69        9.475E-2      -16.36        0.80503       -30.42         
49.4975       0.04653       -175.10       9.488E-2      -16.90        9.473E-2      -16.55        0.80498       -30.79         
50.0975       0.04652       -175.02       9.491E-2      -17.08        9.472E-2      -16.77        0.80482       -31.16         
50.6975       0.04654       -175.03       9.49E-2       -17.30        9.472E-2      -17.01        0.80482       -31.53         
51.2975       0.04651       -174.93       9.493E-2      -17.48        9.47E-2       -17.18        0.80472       -31.90         
51.8974       0.04651       -174.93       9.502E-2      -17.74        9.465E-2      -17.35        0.80464       -32.27         
52.4974       0.04645       -174.87       9.507E-2      -17.97        9.463E-2      -17.50        0.80453       -32.64         
53.0974       0.04648       -174.84       9.505E-2      -18.22        9.455E-2      -17.64        0.80446       -33.01         
53.6973       0.04642       -174.74       9.524E-2      -18.65        9.357E-2      -17.57        0.80433       -33.38         
54.2973       0.04631       -175.16       9.602E-2      -18.98        9.421E-2      -18.22        0.80426       -33.75         
54.8973       0.04643       -174.65       9.492E-2      -18.74        9.477E-2      -18.36        0.80414       -34.13         
55.4972       0.04638       -174.60       9.495E-2      -18.95        9.483E-2      -18.57        0.80403       -34.50         
56.0972       0.0464        -174.51       9.493E-2      -19.14        9.483E-2      -18.74        0.80392       -34.87         
56.6972       0.0464        -174.51       9.493E-2      -19.37        9.481E-2      -18.96        0.80383       -35.24         
57.2972       0.04637       -174.44       9.493E-2      -19.59        9.478E-2      -19.17        0.80374       -35.61         
57.8971       0.04638       -174.42       9.493E-2      -19.78        9.48E-2       -19.37        0.80365       -35.99         
58.4971       0.04641       -174.38       9.489E-2      -19.99        9.486E-2      -19.57        0.80357       -36.36         
59.0971       0.04635       -174.30       9.495E-2      -20.22        9.485E-2      -19.77        0.80346       -36.75         
59.6970       0.04634       -174.22       9.495E-2      -20.39        9.48E-2       -19.96        0.80334       -37.12         
60.2970       0.04636       -174.23       9.498E-2      -20.63        9.482E-2      -20.17        0.80328       -37.50         
60.8970       0.04633       -174.13       9.496E-2      -20.83        9.482E-2      -20.38        0.80313       -37.87         
61.4969       0.04632       -174.07       9.496E-2      -21.06        9.486E-2      -20.58        0.80304       -38.25         
62.0969       0.04637       -174.06       9.494E-2      -21.25        9.481E-2      -20.80        0.80294       -38.62         
62.6969       0.04636       -173.96       9.494E-2      -21.45        9.487E-2      -20.97        0.80281       -39.00         
63.2969       0.04631       -173.93       9.493E-2      -21.64        9.484E-2      -21.19        0.80272       -39.37         
63.8968       0.04636       -173.81       9.491E-2      -21.84        9.488E-2      -21.40        0.8026        -39.75         
64.4968       0.04635       -173.79       9.492E-2      -22.04        9.487E-2      -21.63        0.80252       -40.13         
65.0968       0.04634       -173.77       9.492E-2      -22.26        9.486E-2      -21.80        0.80237       -40.50         
65.6967       0.04633       -173.70       9.494E-2      -22.50        9.488E-2      -22.02        0.80228       -40.87         
66.2967       0.0463        -173.65       9.493E-2      -22.66        9.486E-2      -22.24        0.80222       -41.25         
66.8967       0.04632       -173.53       9.492E-2      -22.87        9.488E-2      -22.42        0.80201       -41.62         
67.4966       0.04629       -173.54       9.498E-2      -23.03        9.492E-2      -22.63        0.80195       -41.99         
68.0966       0.0463        -173.46       9.497E-2      -23.28        9.489E-2      -22.85        0.80181       -42.37         
68.6966       0.04631       -173.35       9.497E-2      -23.45        9.489E-2      -23.02        0.80166       -42.73         
69.2966       0.04629       -173.35       9.499E-2      -23.66        9.49E-2       -23.24        0.80155       -43.11         
69.8965       0.04629       -173.22       9.50E-2       -23.86        9.49E-2       -23.42        0.80142       -43.48         
70.4965       0.04628       -173.24       9.50E-2       -24.06        9.488E-2      -23.63        0.8013        -43.85         
71.0965       0.04625       -173.17       9.497E-2      -24.25        9.49E-2       -23.83        0.80118       -44.22         
71.6964       0.0463        -173.12       9.496E-2      -24.48        9.486E-2      -24.02        0.80107       -44.59         
72.2964       0.04628       -173.05       9.501E-2      -24.70        9.487E-2      -24.23        0.80098       -44.96         
72.8964       0.04626       -172.97       9.502E-2      -24.87        9.486E-2      -24.43        0.8009        -45.34         
73.4963       0.04628       -172.87       9.50E-2       -25.09        9.487E-2      -24.65        0.80077       -45.71         
74.0963       0.04624       -172.84       9.504E-2      -25.31        9.493E-2      -24.87        0.80072       -46.08         
74.6963       0.04624       -172.80       9.501E-2      -25.50        9.49E-2       -25.04        0.80063       -46.45         
75.2963       0.0462        -172.74       9.505E-2      -25.71        9.49E-2       -25.26        0.80054       -46.82         
75.8962       0.0462        -172.67       9.502E-2      -25.87        9.491E-2      -25.44        0.80038       -47.19         
76.4962       0.04621       -172.62       9.504E-2      -26.12        9.495E-2      -25.68        0.80032       -47.57         
77.0962       0.0462        -172.54       9.502E-2      -26.29        9.492E-2      -25.88        0.80015       -47.94         
77.6961       0.0462        -172.48       9.501E-2      -26.51        9.492E-2      -26.07        0.79993       -48.32         
78.2961       0.04619       -172.42       9.504E-2      -26.69        9.493E-2      -26.28        0.79984       -48.69         
78.8961       0.04618       -172.38       9.501E-2      -26.89        9.495E-2      -26.47        0.79967       -49.06         
79.4960       0.04618       -172.33       9.50E-2       -27.08        9.493E-2      -26.68        0.79952       -49.43         
80.0960       0.04617       -172.26       9.506E-2      -27.28        9.497E-2      -26.88        0.79937       -49.80         
80.6960       0.04616       -172.19       9.502E-2      -27.50        9.493E-2      -27.07        0.7992        -50.17         
81.2960       0.04619       -172.13       9.507E-2      -27.70        9.499E-2      -27.29        0.79911       -50.55         
81.8959       0.04615       -172.08       9.504E-2      -27.89        9.496E-2      -27.46        0.7989        -50.92         
82.4959       0.04619       -172.03       9.507E-2      -28.07        9.492E-2      -27.69        0.79873       -51.30         
83.0959       0.04616       -171.98       9.504E-2      -28.30        9.497E-2      -27.87        0.79856       -51.67         
83.6958       0.04612       -171.95       9.504E-2      -28.52        9.495E-2      -28.09        0.79837       -52.04         
84.2958       0.04613       -171.88       9.503E-2      -28.69        9.495E-2      -28.29        0.79824       -52.42         
84.8958       0.04613       -171.82       9.502E-2      -28.92        9.495E-2      -28.48        0.79811       -52.79         
85.4957       0.04615       -171.74       9.504E-2      -29.11        9.491E-2      -28.69        0.79792       -53.17         
86.0957       0.04613       -171.72       9.508E-2      -29.36        9.494E-2      -28.89        0.7978        -53.54         
86.6957       0.04613       -171.66       9.503E-2      -29.53        9.496E-2      -29.08        0.79771       -53.91         
87.2957       0.04612       -171.57       9.501E-2      -29.77        9.493E-2      -29.29        0.79748       -54.29         
87.8956       0.0461        -171.46       9.506E-2      -29.92        9.492E-2      -29.49        0.79734       -54.66         
88.4956       0.0461        -171.40       9.501E-2      -30.14        9.495E-2      -29.71        0.7972        -55.03         
89.0956       0.04608       -171.34       9.502E-2      -30.33        9.49E-2       -29.89        0.79709       -55.41         
89.6955       0.04609       -171.28       9.505E-2      -30.54        9.493E-2      -30.09        0.79689       -55.78         
90.2955       0.04612       -171.22       9.502E-2      -30.77        9.49E-2       -30.31        0.79676       -56.16         
90.8955       0.04612       -171.20       9.503E-2      -30.93        9.499E-2      -30.50        0.79661       -56.53         
91.4954       0.04613       -171.12       9.504E-2      -31.14        9.492E-2      -30.72        0.79648       -56.91         
92.0954       0.04611       -171.04       9.506E-2      -31.34        9.496E-2      -30.93        0.79639       -57.28         
