!    3/18/2021   20:23:00 
! Ref Plane: 13.288 mm
# MHZ S MA R  50
!
0.3000        0.04752       179.90        9.732E-2      -1.26         9.593E-2      -0.42         0.81745       0.01           
0.9000        0.04719       -178.75       9.332E-2      -0.59         9.462E-2      -0.07         0.81167       -0.44          
1.4999        0.04722       -178.25       9.382E-2      -0.58         9.428E-2      -0.20         0.81085       -0.76          
2.0999        0.04726       -178.10       9.399E-2      -0.78         9.418E-2      -0.40         0.81031       -1.19          
2.6999        0.0473        -178.02       9.40E-2       -1.01         9.41E-2       -0.62         0.81005       -1.62          
3.2999        0.0473        -177.98       9.413E-2      -1.18         9.409E-2      -0.81         0.80991       -2.02          
3.8998        0.0473        -177.96       9.411E-2      -1.42         9.412E-2      -1.05         0.80973       -2.42          
4.4998        0.04731       -177.93       9.416E-2      -1.68         9.41E-2       -1.25         0.80967       -2.81          
5.0998        0.04728       -177.90       9.418E-2      -1.90         9.412E-2      -1.47         0.80969       -3.21          
5.6997        0.04727       -177.86       9.421E-2      -2.10         9.409E-2      -1.70         0.80948       -3.60          
6.2997        0.04726       -177.83       9.421E-2      -2.30         9.411E-2      -1.89         0.80944       -4.00          
6.8997        0.0473        -177.79       9.421E-2      -2.55         9.407E-2      -2.09         0.80928       -4.38          
7.4996        0.04729       -177.73       9.424E-2      -2.74         9.409E-2      -2.32         0.80922       -4.77          
8.0996        0.04727       -177.71       9.424E-2      -2.91         9.412E-2      -2.53         0.8092        -5.16          
8.6996        0.04721       -177.67       9.43E-2       -3.14         9.411E-2      -2.78         0.80916       -5.54          
9.2996        0.04725       -177.67       9.432E-2      -3.34         9.409E-2      -2.96         0.80906       -5.93          
9.8995        0.04721       -177.63       9.428E-2      -3.55         9.414E-2      -3.18         0.809         -6.31          
10.4995       0.04722       -177.54       9.431E-2      -3.81         9.411E-2      -3.39         0.80894       -6.70          
11.0995       0.04723       -177.55       9.435E-2      -3.98         9.411E-2      -3.59         0.80891       -7.09          
11.6994       0.04722       -177.54       9.432E-2      -4.19         9.413E-2      -3.82         0.80881       -7.47          
12.2994       0.04722       -177.46       9.433E-2      -4.38         9.414E-2      -4.01         0.80878       -7.86          
12.8994       0.0472        -177.42       9.435E-2      -4.64         9.414E-2      -4.22         0.80875       -8.25          
13.4993       0.0472        -177.40       9.435E-2      -4.83         9.417E-2      -4.45         0.80873       -8.63          
14.0993       0.04717       -177.38       9.438E-2      -5.02         9.413E-2      -4.62         0.80857       -9.01          
14.6993       0.04716       -177.33       9.44E-2       -5.21         9.416E-2      -4.85         0.80854       -9.40          
15.2993       0.04721       -177.29       9.44E-2       -5.46         9.418E-2      -5.05         0.80857       -9.78          
15.8992       0.04715       -177.29       9.448E-2      -5.65         9.421E-2      -5.28         0.80853       -10.17         
16.4992       0.04713       -177.18       9.448E-2      -5.88         9.421E-2      -5.49         0.80853       -10.56         
17.0992       0.04713       -177.15       9.449E-2      -6.07         9.419E-2      -5.70         0.80847       -10.94         
17.6991       0.04714       -177.09       9.44E-2       -6.29         9.423E-2      -5.90         0.80839       -11.33         
18.2991       0.04712       -177.08       9.449E-2      -6.48         9.42E-2       -6.12         0.80837       -11.71         
18.8991       0.04712       -177.05       9.448E-2      -6.73         9.426E-2      -6.33         0.80832       -12.10         
19.4990       0.04708       -177.00       9.446E-2      -6.91         9.424E-2      -6.53         0.80831       -12.48         
20.0990       0.04707       -176.99       9.447E-2      -7.15         9.425E-2      -6.72         0.80823       -12.86         
20.6990       0.04706       -176.95       9.448E-2      -7.34         9.427E-2      -6.95         0.8082        -13.24         
21.2990       0.04706       -176.86       9.448E-2      -7.55         9.431E-2      -7.17         0.80815       -13.63         
21.8989       0.04708       -176.83       9.454E-2      -7.77         9.429E-2      -7.35         0.80814       -14.01         
22.4989       0.04706       -176.77       9.458E-2      -7.99         9.431E-2      -7.55         0.80816       -14.39         
23.0989       0.04705       -176.71       9.454E-2      -8.17         9.432E-2      -7.77         0.80814       -14.77         
23.6988       0.04707       -176.68       9.456E-2      -8.37         9.436E-2      -7.98         0.80815       -15.16         
24.2988       0.04705       -176.61       9.454E-2      -8.57         9.434E-2      -8.20         0.8081        -15.54         
24.8988       0.04704       -176.60       9.45E-2       -8.78         9.433E-2      -8.39         0.80808       -15.92         
25.4987       0.047         -176.55       9.453E-2      -9.00         9.435E-2      -8.61         0.80805       -16.31         
26.0987       0.04699       -176.46       9.456E-2      -9.24         9.443E-2      -8.79         0.80808       -16.69         
26.6987       0.04698       -176.41       9.456E-2      -9.41         9.436E-2      -8.99         0.80809       -17.08         
27.2987       0.04696       -176.36       9.456E-2      -9.59         9.443E-2      -9.22         0.80803       -17.46         
27.8986       0.04699       -176.33       9.461E-2      -9.84         9.442E-2      -9.40         0.80797       -17.84         
28.4986       0.04696       -176.30       9.464E-2      -10.01        9.442E-2      -9.62         0.80791       -18.22         
29.0986       0.04693       -176.28       9.459E-2      -10.23        9.446E-2      -9.83         0.80792       -18.60         
29.6985       0.04694       -176.21       9.459E-2      -10.46        9.445E-2      -10.04        0.80779       -18.99         
30.2985       0.04692       -176.18       9.46E-2       -10.69        9.445E-2      -10.24        0.80777       -19.37         
30.8985       0.04692       -176.13       9.464E-2      -10.87        9.44E-2       -10.49        0.80765       -19.75         
31.4984       0.04691       -176.07       9.468E-2      -11.08        9.444E-2      -10.68        0.80759       -20.14         
32.0984       0.04687       -176.02       9.464E-2      -11.29        9.445E-2      -10.90        0.80759       -20.52         
32.6984       0.04693       -175.97       9.464E-2      -11.51        9.445E-2      -11.10        0.80756       -20.90         
33.2984       0.04686       -175.89       9.467E-2      -11.72        9.446E-2      -11.30        0.80756       -21.28         
33.8983       0.04686       -175.86       9.46E-2       -11.90        9.45E-2       -11.52        0.80757       -21.66         
34.4983       0.04685       -175.78       9.467E-2      -12.10        9.451E-2      -11.73        0.80749       -22.05         
35.0983       0.04687       -175.75       9.465E-2      -12.28        9.453E-2      -11.93        0.8075        -22.43         
35.6982       0.04682       -175.77       9.468E-2      -12.55        9.453E-2      -12.13        0.80745       -22.81         
36.2982       0.04683       -175.66       9.472E-2      -12.76        9.455E-2      -12.33        0.80735       -23.19         
36.8982       0.04684       -175.59       9.469E-2      -12.93        9.454E-2      -12.55        0.80725       -23.57         
37.4981       0.0468        -175.56       9.467E-2      -13.15        9.455E-2      -12.76        0.80715       -23.95         
38.0981       0.04681       -175.51       9.467E-2      -13.38        9.454E-2      -12.95        0.80708       -24.33         
38.6981       0.04676       -175.46       9.465E-2      -13.57        9.45E-2       -13.17        0.80698       -24.71         
39.2981       0.04678       -175.41       9.466E-2      -13.76        9.455E-2      -13.33        0.80693       -25.09         
39.8980       0.04676       -175.40       9.465E-2      -13.98        9.452E-2      -13.58        0.80679       -25.47         
40.4980       0.04675       -175.33       9.461E-2      -14.17        9.458E-2      -13.78        0.80672       -25.84         
41.0980       0.04672       -175.31       9.468E-2      -14.38        9.454E-2      -13.98        0.80655       -26.22         
41.6979       0.04674       -175.17       9.471E-2      -14.62        9.451E-2      -14.19        0.80651       -26.60         
42.2979       0.04675       -175.16       9.473E-2      -14.79        9.454E-2      -14.36        0.80647       -26.98         
42.8979       0.04672       -175.09       9.47E-2       -15.04        9.456E-2      -14.60        0.80638       -27.36         
43.4978       0.04671       -175.00       9.472E-2      -15.21        9.458E-2      -14.77        0.80626       -27.74         
44.0978       0.04673       -174.99       9.475E-2      -15.41        9.458E-2      -14.99        0.80619       -28.12         
44.6978       0.04671       -174.89       9.474E-2      -15.63        9.458E-2      -15.21        0.80621       -28.50         
45.2978       0.0467        -174.89       9.475E-2      -15.82        9.453E-2      -15.42        0.80608       -28.88         
45.8977       0.04672       -174.79       9.477E-2      -16.02        9.458E-2      -15.62        0.80596       -29.26         
46.4977       0.04673       -174.77       9.479E-2      -16.21        9.457E-2      -15.85        0.80578       -29.63         
47.0977       0.04674       -174.66       9.465E-2      -16.35        9.46E-2       -16.05        0.80568       -30.04         
47.6976       0.04676       -174.62       9.471E-2      -16.60        9.461E-2      -16.28        0.80567       -30.42         
48.2976       0.04675       -174.55       9.472E-2      -16.80        9.463E-2      -16.49        0.80559       -30.80         
48.8976       0.04671       -174.53       9.471E-2      -17.01        9.46E-2       -16.71        0.80554       -31.18         
49.4975       0.04671       -174.48       9.473E-2      -17.23        9.461E-2      -16.89        0.80548       -31.56         
50.0975       0.04673       -174.39       9.477E-2      -17.40        9.458E-2      -17.12        0.80541       -31.95         
50.6975       0.04672       -174.36       9.475E-2      -17.65        9.46E-2       -17.35        0.80535       -32.32         
51.2975       0.0467        -174.34       9.478E-2      -17.83        9.458E-2      -17.54        0.80529       -32.70         
51.8974       0.04669       -174.27       9.486E-2      -18.06        9.451E-2      -17.72        0.80522       -33.08         
52.4974       0.04666       -174.25       9.491E-2      -18.32        9.448E-2      -17.89        0.80513       -33.46         
53.0974       0.04666       -174.17       9.488E-2      -18.54        9.442E-2      -18.02        0.80507       -33.83         
53.6973       0.04663       -174.10       9.506E-2      -18.98        9.346E-2      -17.95        0.80496       -34.22         
54.2973       0.0465        -174.49       9.58E-2       -19.28        9.433E-2      -18.61        0.80492       -34.60         
54.8973       0.04663       -173.99       9.476E-2      -19.08        9.46E-2       -18.73        0.80482       -34.98         
55.4972       0.04661       -173.92       9.477E-2      -19.31        9.467E-2      -18.95        0.80476       -35.36         
56.0972       0.04664       -173.86       9.477E-2      -19.49        9.465E-2      -19.15        0.80462       -35.74         
56.6972       0.04661       -173.85       9.473E-2      -19.74        9.463E-2      -19.35        0.80452       -36.12         
57.2972       0.04659       -173.76       9.476E-2      -19.95        9.462E-2      -19.56        0.80448       -36.50         
57.8971       0.04659       -173.72       9.475E-2      -20.15        9.463E-2      -19.79        0.8044        -36.88         
58.4971       0.04665       -173.66       9.47E-2       -20.36        9.466E-2      -19.97        0.80433       -37.26         
59.0971       0.04657       -173.58       9.473E-2      -20.61        9.465E-2      -20.17        0.80423       -37.65         
59.6970       0.04657       -173.50       9.474E-2      -20.77        9.461E-2      -20.37        0.80411       -38.04         
60.2970       0.04658       -173.47       9.479E-2      -21.03        9.464E-2      -20.59        0.80408       -38.42         
60.8970       0.04659       -173.41       9.475E-2      -21.22        9.462E-2      -20.78        0.80399       -38.81         
61.4969       0.04656       -173.35       9.475E-2      -21.45        9.465E-2      -21.00        0.80388       -39.19         
62.0969       0.04657       -173.33       9.473E-2      -21.67        9.459E-2      -21.22        0.8038        -39.58         
62.6969       0.0466        -173.23       9.473E-2      -21.85        9.464E-2      -21.41        0.80364       -39.96         
63.2969       0.04657       -173.15       9.472E-2      -22.05        9.461E-2      -21.62        0.80365       -40.34         
63.8968       0.04658       -173.08       9.468E-2      -22.26        9.466E-2      -21.84        0.8035        -40.73         
64.4968       0.0466        -173.05       9.471E-2      -22.46        9.462E-2      -22.09        0.80347       -41.11         
65.0968       0.04658       -172.99       9.468E-2      -22.68        9.464E-2      -22.25        0.80333       -41.49         
65.6967       0.04659       -172.91       9.471E-2      -22.92        9.465E-2      -22.47        0.80329       -41.87         
66.2967       0.04654       -172.88       9.471E-2      -23.07        9.465E-2      -22.71        0.80317       -42.25         
66.8967       0.04658       -172.77       9.468E-2      -23.28        9.459E-2      -22.88        0.80303       -42.64         
67.4966       0.04654       -172.73       9.473E-2      -23.47        9.466E-2      -23.10        0.80292       -43.01         
68.0966       0.04654       -172.67       9.473E-2      -23.72        9.464E-2      -23.30        0.80287       -43.40         
68.6966       0.04658       -172.58       9.468E-2      -23.90        9.462E-2      -23.49        0.80275       -43.77         
69.2966       0.04657       -172.55       9.47E-2       -24.09        9.465E-2      -23.68        0.80268       -44.15         
69.8965       0.04655       -172.42       9.473E-2      -24.31        9.46E-2       -23.90        0.80258       -44.53         
70.4965       0.04656       -172.42       9.474E-2      -24.51        9.46E-2       -24.11        0.80247       -44.91         
71.0965       0.04652       -172.33       9.468E-2      -24.71        9.462E-2      -24.31        0.80236       -45.29         
71.6964       0.04656       -172.28       9.466E-2      -24.95        9.461E-2      -24.51        0.80229       -45.67         
72.2964       0.04653       -172.21       9.473E-2      -25.16        9.461E-2      -24.73        0.8022        -46.05         
72.8964       0.04656       -172.14       9.473E-2      -25.35        9.458E-2      -24.93        0.80213       -46.43         
73.4963       0.04655       -172.06       9.472E-2      -25.56        9.459E-2      -25.15        0.80202       -46.80         
74.0963       0.04655       -171.99       9.472E-2      -25.77        9.465E-2      -25.36        0.802         -47.18         
74.6963       0.04649       -171.95       9.469E-2      -25.96        9.459E-2      -25.54        0.80192       -47.56         
75.2963       0.04651       -171.86       9.473E-2      -26.20        9.46E-2       -25.75        0.80187       -47.94         
75.8962       0.04651       -171.80       9.47E-2       -26.35        9.462E-2      -25.93        0.80167       -48.32         
76.4962       0.0465        -171.74       9.473E-2      -26.61        9.463E-2      -26.17        0.80163       -48.71         
77.0962       0.04647       -171.65       9.468E-2      -26.79        9.463E-2      -26.39        0.8015        -49.08         
77.6961       0.04649       -171.60       9.465E-2      -27.01        9.461E-2      -26.58        0.80136       -49.46         
78.2961       0.0465        -171.52       9.469E-2      -27.19        9.462E-2      -26.79        0.80122       -49.84         
78.8961       0.04651       -171.48       9.468E-2      -27.39        9.462E-2      -26.99        0.80113       -50.22         
79.4960       0.04649       -171.42       9.465E-2      -27.59        9.458E-2      -27.21        0.80101       -50.59         
80.0960       0.0465        -171.36       9.471E-2      -27.79        9.463E-2      -27.43        0.80084       -50.98         
80.6960       0.0465        -171.29       9.464E-2      -28.00        9.456E-2      -27.61        0.80071       -51.36         
81.2960       0.0465        -171.23       9.469E-2      -28.20        9.461E-2      -27.83        0.8006        -51.74         
81.8959       0.04648       -171.16       9.469E-2      -28.39        9.457E-2      -28.01        0.80045       -52.11         
82.4959       0.04649       -171.13       9.469E-2      -28.61        9.457E-2      -28.24        0.80032       -52.50         
83.0959       0.04647       -171.06       9.467E-2      -28.81        9.46E-2       -28.41        0.80017       -52.88         
83.6958       0.04645       -171.04       9.464E-2      -29.03        9.458E-2      -28.62        0.79998       -53.25         
84.2958       0.04646       -170.95       9.464E-2      -29.23        9.458E-2      -28.85        0.7999        -53.63         
84.8958       0.0465        -170.88       9.463E-2      -29.45        9.456E-2      -29.04        0.79978       -54.02         
85.4957       0.04649       -170.80       9.464E-2      -29.63        9.453E-2      -29.24        0.79964       -54.40         
86.0957       0.04648       -170.77       9.464E-2      -29.89        9.453E-2      -29.43        0.79951       -54.78         
86.6957       0.04649       -170.67       9.465E-2      -30.06        9.454E-2      -29.64        0.79942       -55.16         
87.2957       0.04646       -170.62       9.46E-2       -30.30        9.45E-2       -29.85        0.79926       -55.54         
87.8956       0.0465        -170.55       9.464E-2      -30.48        9.451E-2      -30.06        0.79911       -55.92         
88.4956       0.04647       -170.45       9.458E-2      -30.70        9.452E-2      -30.28        0.79895       -56.30         
89.0956       0.04647       -170.35       9.46E-2       -30.88        9.451E-2      -30.47        0.7989        -56.67         
89.6955       0.04647       -170.34       9.459E-2      -31.09        9.45E-2       -30.66        0.7987        -57.06         
90.2955       0.04648       -170.25       9.46E-2       -31.31        9.451E-2      -30.89        0.79863       -57.44         
90.8955       0.0465        -170.24       9.456E-2      -31.49        9.453E-2      -31.09        0.79852       -57.82         
91.4954       0.04652       -170.14       9.459E-2      -31.70        9.446E-2      -31.30        0.79835       -58.20         
92.0954       0.04649       -170.07       9.458E-2      -31.90        9.451E-2      -31.52        0.7983        -58.58         
