!    3/18/2021   08:15:13 
! Ref Plane: 13.288 mm
# MHZ S MA R  50
!
0.3000        0.04766       -179.07       9.755E-2      -1.14         9.553E-2      -0.73         0.81587       -0.17          
0.9000        0.0472        -178.38       9.35E-2       -0.55         9.426E-2      -0.14         0.81001       -0.55          
1.4999        0.04718       -178.05       9.386E-2      -0.53         9.417E-2      -0.29         0.80976       -0.86          
2.0999        0.04721       -177.98       9.399E-2      -0.73         9.415E-2      -0.50         0.80971       -1.27          
2.6999        0.04719       -177.95       9.396E-2      -0.88         9.411E-2      -0.70         0.8096        -1.67          
3.2999        0.0472        -177.96       9.408E-2      -1.07         9.412E-2      -0.89         0.80955       -2.05          
3.8998        0.04723       -177.89       9.405E-2      -1.31         9.415E-2      -1.13         0.8094        -2.43          
4.4998        0.04721       -177.90       9.408E-2      -1.58         9.414E-2      -1.32         0.80939       -2.82          
5.0998        0.04724       -177.82       9.411E-2      -1.80         9.415E-2      -1.54         0.80939       -3.21          
5.6997        0.04718       -177.85       9.413E-2      -2.00         9.419E-2      -1.76         0.80925       -3.59          
6.2997        0.0472        -177.81       9.411E-2      -2.18         9.417E-2      -1.95         0.80918       -3.98          
6.8997        0.0472        -177.77       9.414E-2      -2.44         9.414E-2      -2.15         0.8091        -4.36          
7.4996        0.0472        -177.71       9.417E-2      -2.63         9.416E-2      -2.37         0.80902       -4.74          
8.0996        0.04719       -177.72       9.416E-2      -2.81         9.42E-2       -2.58         0.809         -5.12          
8.6996        0.04717       -177.66       9.418E-2      -3.04         9.421E-2      -2.82         0.80895       -5.50          
9.2996        0.04715       -177.67       9.424E-2      -3.22         9.419E-2      -2.99         0.80882       -5.88          
9.8995        0.0471        -177.67       9.419E-2      -3.44         9.424E-2      -3.21         0.80883       -6.26          
10.4995       0.04714       -177.55       9.42E-2       -3.71         9.42E-2       -3.43         0.80875       -6.65          
11.0995       0.04715       -177.58       9.423E-2      -3.86         9.427E-2      -3.62         0.8087        -7.03          
11.6994       0.04717       -177.52       9.421E-2      -4.07         9.427E-2      -3.86         0.80864       -7.41          
12.2994       0.04714       -177.50       9.423E-2      -4.27         9.425E-2      -4.02         0.80855       -7.79          
12.8994       0.04712       -177.44       9.422E-2      -4.53         9.425E-2      -4.25         0.80856       -8.17          
13.4993       0.04711       -177.43       9.426E-2      -4.71         9.428E-2      -4.47         0.80849       -8.55          
14.0993       0.0471        -177.40       9.427E-2      -4.88         9.427E-2      -4.63         0.8084        -8.94          
14.6993       0.0471        -177.37       9.429E-2      -5.09         9.428E-2      -4.87         0.80832       -9.31          
15.2993       0.0471        -177.32       9.431E-2      -5.32         9.429E-2      -5.07         0.80838       -9.69          
15.8992       0.0471        -177.31       9.438E-2      -5.52         9.429E-2      -5.30         0.80834       -10.08         
16.4992       0.04703       -177.25       9.443E-2      -5.74         9.429E-2      -5.51         0.80829       -10.46         
17.0992       0.04705       -177.21       9.437E-2      -5.94         9.43E-2       -5.72         0.80824       -10.83         
17.6991       0.04705       -177.12       9.433E-2      -6.13         9.435E-2      -5.93         0.80819       -11.22         
18.2991       0.04702       -177.15       9.441E-2      -6.35         9.432E-2      -6.14         0.80816       -11.60         
18.8991       0.047         -177.09       9.439E-2      -6.59         9.434E-2      -6.34         0.80815       -11.98         
19.4990       0.04701       -177.06       9.44E-2       -6.74         9.433E-2      -6.54         0.80813       -12.36         
20.0990       0.04699       -177.04       9.437E-2      -6.99         9.434E-2      -6.73         0.80801       -12.74         
20.6990       0.04701       -176.98       9.44E-2       -7.20         9.438E-2      -6.95         0.80801       -13.12         
21.2990       0.04698       -176.99       9.443E-2      -7.40         9.441E-2      -7.19         0.80801       -13.50         
21.8989       0.04699       -176.90       9.445E-2      -7.62         9.441E-2      -7.36         0.80792       -13.87         
22.4989       0.04697       -176.89       9.453E-2      -7.81         9.437E-2      -7.56         0.80792       -14.26         
23.0989       0.04697       -176.79       9.448E-2      -8.02         9.443E-2      -7.79         0.80792       -14.63         
23.6988       0.04698       -176.79       9.45E-2       -8.20         9.444E-2      -8.00         0.80788       -15.01         
24.2988       0.04697       -176.75       9.447E-2      -8.40         9.447E-2      -8.20         0.80787       -15.40         
24.8988       0.04697       -176.72       9.446E-2      -8.61         9.444E-2      -8.39         0.80788       -15.77         
25.4987       0.04691       -176.64       9.448E-2      -8.83         9.447E-2      -8.62         0.80785       -16.15         
26.0987       0.04688       -176.55       9.451E-2      -9.07         9.454E-2      -8.81         0.80787       -16.53         
26.6987       0.0469        -176.52       9.451E-2      -9.23         9.448E-2      -8.99         0.80785       -16.91         
27.2987       0.04687       -176.48       9.448E-2      -9.42         9.453E-2      -9.23         0.8078        -17.29         
27.8986       0.04688       -176.44       9.453E-2      -9.67         9.452E-2      -9.42         0.80772       -17.67         
28.4986       0.04684       -176.39       9.462E-2      -9.85         9.448E-2      -9.63         0.80769       -18.05         
29.0986       0.04686       -176.40       9.456E-2      -10.06        9.456E-2      -9.83         0.80766       -18.43         
29.6985       0.04685       -176.34       9.457E-2      -10.28        9.457E-2      -10.03        0.80762       -18.80         
30.2985       0.04682       -176.29       9.455E-2      -10.51        9.458E-2      -10.24        0.80754       -19.19         
30.8985       0.04681       -176.28       9.459E-2      -10.71        9.451E-2      -10.49        0.80743       -19.56         
31.4984       0.04681       -176.21       9.462E-2      -10.91        9.457E-2      -10.68        0.80736       -19.95         
32.0984       0.04678       -176.14       9.46E-2       -11.13        9.457E-2      -10.90        0.80737       -20.33         
32.6984       0.0468        -176.10       9.46E-2       -11.31        9.457E-2      -11.08        0.80735       -20.70         
33.2984       0.04677       -176.03       9.462E-2      -11.53        9.459E-2      -11.30        0.80729       -21.09         
33.8983       0.04677       -176.01       9.457E-2      -11.73        9.461E-2      -11.51        0.80731       -21.46         
34.4983       0.04676       -175.95       9.464E-2      -11.92        9.462E-2      -11.72        0.80725       -21.84         
35.0983       0.04676       -175.91       9.463E-2      -12.10        9.465E-2      -11.90        0.8072        -22.22         
35.6982       0.04673       -175.89       9.467E-2      -12.36        9.462E-2      -12.12        0.80714       -22.60         
36.2982       0.0467        -175.83       9.468E-2      -12.58        9.466E-2      -12.32        0.80709       -22.98         
36.8982       0.04671       -175.78       9.468E-2      -12.75        9.465E-2      -12.53        0.80694       -23.35         
37.4981       0.04667       -175.75       9.465E-2      -12.95        9.468E-2      -12.73        0.80686       -23.73         
38.0981       0.04669       -175.68       9.465E-2      -13.16        9.465E-2      -12.93        0.80678       -24.10         
38.6981       0.04665       -175.62       9.465E-2      -13.39        9.462E-2      -13.13        0.80672       -24.48         
39.2981       0.04666       -175.65       9.467E-2      -13.57        9.467E-2      -13.32        0.80667       -24.85         
39.8980       0.04666       -175.57       9.465E-2      -13.79        9.462E-2      -13.54        0.8065        -25.23         
40.4980       0.04664       -175.48       9.461E-2      -13.97        9.468E-2      -13.76        0.80638       -25.60         
41.0980       0.04661       -175.46       9.466E-2      -14.20        9.463E-2      -13.95        0.80626       -25.98         
41.6979       0.04661       -175.42       9.471E-2      -14.42        9.463E-2      -14.16        0.80619       -26.35         
42.2979       0.04662       -175.37       9.474E-2      -14.61        9.466E-2      -14.34        0.80615       -26.73         
42.8979       0.04662       -175.27       9.468E-2      -14.85        9.469E-2      -14.56        0.80604       -27.11         
43.4978       0.04659       -175.19       9.47E-2       -15.02        9.469E-2      -14.75        0.80596       -27.49         
44.0978       0.0466        -175.18       9.475E-2      -15.21        9.472E-2      -14.98        0.80582       -27.86         
44.6978       0.04659       -175.11       9.473E-2      -15.43        9.472E-2      -15.18        0.80586       -28.23         
45.2978       0.04659       -175.09       9.475E-2      -15.61        9.464E-2      -15.38        0.80572       -28.61         
45.8977       0.04656       -175.02       9.477E-2      -15.80        9.469E-2      -15.59        0.80562       -28.99         
46.4977       0.04658       -174.99       9.479E-2      -16.01        9.468E-2      -15.80        0.80545       -29.36         
47.0977       0.04658       -174.90       9.467E-2      -16.18        9.471E-2      -16.01        0.80536       -29.77         
47.6976       0.04661       -174.85       9.475E-2      -16.42        9.475E-2      -16.23        0.80533       -30.14         
48.2976       0.04658       -174.76       9.476E-2      -16.62        9.474E-2      -16.43        0.80526       -30.52         
48.8976       0.04657       -174.71       9.474E-2      -16.83        9.473E-2      -16.65        0.8052        -30.90         
49.4975       0.04653       -174.72       9.477E-2      -17.05        9.477E-2      -16.83        0.80514       -31.27         
50.0975       0.04654       -174.66       9.475E-2      -17.22        9.473E-2      -17.05        0.80504       -31.65         
50.6975       0.04653       -174.62       9.477E-2      -17.46        9.475E-2      -17.28        0.80501       -32.03         
51.2975       0.04653       -174.56       9.478E-2      -17.65        9.473E-2      -17.46        0.8049        -32.41         
51.8974       0.04655       -174.51       9.484E-2      -17.87        9.472E-2      -17.67        0.80481       -32.79         
52.4974       0.04648       -174.46       9.485E-2      -18.10        9.471E-2      -17.86        0.80472       -33.16         
53.0974       0.04648       -174.41       9.485E-2      -18.29        9.464E-2      -18.02        0.80465       -33.53         
53.6973       0.04643       -174.35       9.495E-2      -18.65        9.396E-2      -18.22        0.80452       -33.91         
54.2973       0.04646       -174.33       9.478E-2      -18.68        9.479E-2      -18.48        0.80449       -34.29         
54.8973       0.04646       -174.22       9.478E-2      -18.88        9.479E-2      -18.68        0.8044        -34.67         
55.4972       0.04645       -174.19       9.484E-2      -19.10        9.482E-2      -18.90        0.80428       -35.05         
56.0972       0.04645       -174.13       9.48E-2       -19.28        9.482E-2      -19.10        0.80421       -35.42         
56.6972       0.04643       -174.07       9.479E-2      -19.53        9.481E-2      -19.30        0.80409       -35.80         
57.2972       0.04642       -174.01       9.48E-2       -19.72        9.479E-2      -19.49        0.80395       -36.18         
57.8971       0.04642       -173.99       9.479E-2      -19.94        9.479E-2      -19.73        0.80391       -36.56         
58.4971       0.04643       -173.93       9.476E-2      -20.14        9.483E-2      -19.91        0.80387       -36.94         
59.0971       0.04639       -173.86       9.479E-2      -20.37        9.483E-2      -20.10        0.80375       -37.33         
59.6970       0.0464        -173.78       9.479E-2      -20.55        9.479E-2      -20.33        0.80364       -37.70         
60.2970       0.04639       -173.78       9.484E-2      -20.79        9.481E-2      -20.55        0.80359       -38.09         
60.8970       0.04638       -173.69       9.481E-2      -20.98        9.478E-2      -20.74        0.80348       -38.47         
61.4969       0.04636       -173.61       9.481E-2      -21.20        9.486E-2      -20.95        0.80336       -38.85         
62.0969       0.04641       -173.60       9.48E-2       -21.42        9.478E-2      -21.17        0.80329       -39.24         
62.6969       0.0464        -173.48       9.481E-2      -21.63        9.482E-2      -21.37        0.8031        -39.61         
63.2969       0.04635       -173.46       9.481E-2      -21.82        9.483E-2      -21.56        0.80307       -40.00         
63.8968       0.0464        -173.38       9.476E-2      -22.02        9.485E-2      -21.80        0.80296       -40.38         
64.4968       0.04638       -173.35       9.478E-2      -22.21        9.481E-2      -22.03        0.80291       -40.76         
65.0968       0.04637       -173.30       9.476E-2      -22.45        9.482E-2      -22.19        0.80275       -41.14         
65.6967       0.04637       -173.20       9.48E-2       -22.69        9.482E-2      -22.41        0.80266       -41.52         
66.2967       0.04634       -173.17       9.477E-2      -22.83        9.482E-2      -22.63        0.80258       -41.89         
66.8967       0.04636       -173.11       9.476E-2      -23.05        9.483E-2      -22.81        0.80246       -42.28         
67.4966       0.04632       -173.09       9.482E-2      -23.23        9.488E-2      -23.03        0.80234       -42.65         
68.0966       0.04631       -173.00       9.48E-2       -23.49        9.484E-2      -23.23        0.80225       -43.03         
68.6966       0.04633       -172.92       9.479E-2      -23.67        9.483E-2      -23.42        0.8021        -43.41         
69.2966       0.04632       -172.89       9.481E-2      -23.85        9.485E-2      -23.62        0.80203       -43.78         
69.8965       0.04631       -172.74       9.483E-2      -24.06        9.482E-2      -23.83        0.80189       -44.16         
70.4965       0.0463        -172.74       9.483E-2      -24.28        9.481E-2      -24.04        0.80179       -44.54         
71.0965       0.0463        -172.71       9.476E-2      -24.48        9.481E-2      -24.23        0.80163       -44.92         
71.6964       0.04632       -172.63       9.479E-2      -24.72        9.481E-2      -24.44        0.80156       -45.29         
72.2964       0.0463        -172.57       9.483E-2      -24.92        9.481E-2      -24.66        0.80148       -45.67         
72.8964       0.04629       -172.49       9.484E-2      -25.09        9.478E-2      -24.85        0.80141       -46.05         
73.4963       0.04629       -172.43       9.481E-2      -25.31        9.481E-2      -25.09        0.80131       -46.42         
74.0963       0.04631       -172.35       9.483E-2      -25.52        9.486E-2      -25.29        0.80124       -46.80         
74.6963       0.04626       -172.31       9.481E-2      -25.72        9.483E-2      -25.46        0.80117       -47.18         
75.2963       0.04625       -172.29       9.486E-2      -25.94        9.482E-2      -25.68        0.80109       -47.56         
75.8962       0.04625       -172.19       9.481E-2      -26.10        9.484E-2      -25.88        0.80091       -47.93         
76.4962       0.04625       -172.13       9.485E-2      -26.36        9.485E-2      -26.12        0.80085       -48.32         
77.0962       0.04624       -172.05       9.479E-2      -26.53        9.484E-2      -26.30        0.80064       -48.69         
77.6961       0.04624       -171.97       9.481E-2      -26.75        9.483E-2      -26.50        0.80054       -49.07         
78.2961       0.04622       -171.93       9.482E-2      -26.93        9.485E-2      -26.72        0.8004        -49.45         
78.8961       0.04623       -171.87       9.48E-2       -27.15        9.486E-2      -26.92        0.80024       -49.82         
79.4960       0.04621       -171.83       9.479E-2      -27.33        9.488E-2      -27.13        0.8002        -50.20         
80.0960       0.04624       -171.78       9.485E-2      -27.54        9.488E-2      -27.34        0.79999       -50.58         
80.6960       0.0462        -171.71       9.479E-2      -27.77        9.481E-2      -27.52        0.79983       -50.96         
81.2960       0.04621       -171.65       9.484E-2      -27.96        9.485E-2      -27.74        0.79971       -51.34         
81.8959       0.0462        -171.60       9.481E-2      -28.17        9.482E-2      -27.93        0.79956       -51.72         
82.4959       0.04622       -171.55       9.484E-2      -28.37        9.482E-2      -28.15        0.79935       -52.09         
83.0959       0.0462        -171.45       9.484E-2      -28.57        9.483E-2      -28.32        0.79922       -52.47         
83.6958       0.04618       -171.45       9.48E-2       -28.79        9.485E-2      -28.52        0.79907       -52.84         
84.2958       0.04619       -171.35       9.48E-2       -28.97        9.483E-2      -28.74        0.79892       -53.22         
84.8958       0.0462        -171.30       9.481E-2      -29.20        9.482E-2      -28.95        0.79882       -53.61         
85.4957       0.0462        -171.25       9.479E-2      -29.38        9.479E-2      -29.16        0.79865       -53.99         
86.0957       0.04619       -171.19       9.482E-2      -29.62        9.479E-2      -29.36        0.79851       -54.37         
86.6957       0.04619       -171.15       9.48E-2       -29.82        9.48E-2       -29.55        0.79842       -54.75         
87.2957       0.04617       -171.08       9.477E-2      -30.04        9.478E-2      -29.76        0.79823       -55.12         
87.8956       0.04619       -170.96       9.48E-2       -30.22        9.479E-2      -29.97        0.79808       -55.50         
88.4956       0.04617       -170.87       9.476E-2      -30.43        9.479E-2      -30.18        0.79791       -55.88         
89.0956       0.04616       -170.85       9.477E-2      -30.64        9.478E-2      -30.39        0.79785       -56.26         
89.6955       0.04617       -170.78       9.478E-2      -30.84        9.479E-2      -30.58        0.79762       -56.64         
90.2955       0.0462        -170.74       9.478E-2      -31.05        9.477E-2      -30.81        0.79753       -57.02         
90.8955       0.04618       -170.70       9.474E-2      -31.25        9.484E-2      -31.01        0.79741       -57.40         
91.4954       0.04619       -170.61       9.477E-2      -31.44        9.477E-2      -31.21        0.79726       -57.78         
92.0954       0.04618       -170.54       9.48E-2       -31.65        9.48E-2       -31.42        0.79718       -58.16         
