!    3/18/2021   19:29:40 
! Ref Plane: 13.288 mm
# MHZ S MA R  50
!
0.3000        0.04762       -179.64       9.734E-2      -1.29         9.578E-2      -0.52         0.81666       -0.10          
0.9000        0.04716       -178.49       9.336E-2      -0.65         9.449E-2      -0.07         0.81108       -0.54          
1.4999        0.04722       -178.14       9.387E-2      -0.64         9.422E-2      -0.22         0.81055       -0.85          
2.0999        0.04727       -178.02       9.398E-2      -0.84         9.416E-2      -0.42         0.81014       -1.26          
2.6999        0.04727       -177.94       9.401E-2      -1.02         9.412E-2      -0.64         0.81005       -1.68          
3.2999        0.04726       -177.93       9.41E-2       -1.21         9.409E-2      -0.82         0.80982       -2.07          
3.8998        0.04726       -177.86       9.409E-2      -1.46         9.413E-2      -1.07         0.80967       -2.47          
4.4998        0.04727       -177.88       9.417E-2      -1.71         9.41E-2       -1.26         0.80957       -2.86          
5.0998        0.0473        -177.78       9.417E-2      -1.91         9.411E-2      -1.50         0.80959       -3.25          
5.6997        0.04725       -177.77       9.418E-2      -2.11         9.411E-2      -1.73         0.80941       -3.64          
6.2997        0.04722       -177.74       9.416E-2      -2.31         9.413E-2      -1.92         0.80935       -4.03          
6.8997        0.04727       -177.73       9.419E-2      -2.56         9.41E-2       -2.12         0.80927       -4.41          
7.4996        0.04723       -177.66       9.422E-2      -2.75         9.411E-2      -2.35         0.80923       -4.79          
8.0996        0.04723       -177.60       9.423E-2      -2.93         9.414E-2      -2.56         0.80916       -5.18          
8.6996        0.04723       -177.58       9.425E-2      -3.14         9.411E-2      -2.82         0.80909       -5.56          
9.2996        0.04721       -177.57       9.433E-2      -3.35         9.41E-2       -2.98         0.809         -5.95          
9.8995        0.04716       -177.55       9.425E-2      -3.56         9.415E-2      -3.20         0.809         -6.33          
10.4995       0.0472        -177.44       9.428E-2      -3.83         9.413E-2      -3.43         0.8089        -6.71          
11.0995       0.04721       -177.42       9.435E-2      -3.99         9.417E-2      -3.62         0.80885       -7.10          
11.6994       0.04721       -177.45       9.428E-2      -4.19         9.418E-2      -3.84         0.80879       -7.48          
12.2994       0.04721       -177.36       9.428E-2      -4.38         9.414E-2      -4.03         0.80875       -7.86          
12.8994       0.04717       -177.29       9.429E-2      -4.65         9.417E-2      -4.25         0.80869       -8.25          
13.4993       0.04718       -177.27       9.432E-2      -4.82         9.418E-2      -4.46         0.80869       -8.63          
14.0993       0.04714       -177.25       9.435E-2      -5.01         9.416E-2      -4.66         0.80854       -9.01          
14.6993       0.04714       -177.22       9.437E-2      -5.21         9.418E-2      -4.88         0.8085        -9.40          
15.2993       0.04718       -177.15       9.436E-2      -5.46         9.422E-2      -5.07         0.80854       -9.78          
15.8992       0.04713       -177.16       9.445E-2      -5.66         9.423E-2      -5.30         0.80852       -10.16         
16.4992       0.04711       -177.06       9.449E-2      -5.88         9.421E-2      -5.50         0.80851       -10.55         
17.0992       0.04709       -177.00       9.442E-2      -6.09         9.42E-2       -5.71         0.80842       -10.92         
17.6991       0.04711       -176.93       9.438E-2      -6.27         9.426E-2      -5.94         0.80838       -11.31         
18.2991       0.04709       -176.93       9.447E-2      -6.48         9.425E-2      -6.17         0.80836       -11.69         
18.8991       0.04709       -176.87       9.447E-2      -6.73         9.428E-2      -6.36         0.80829       -12.07         
19.4990       0.04706       -176.85       9.444E-2      -6.89         9.427E-2      -6.55         0.80824       -12.46         
20.0990       0.04704       -176.81       9.444E-2      -7.15         9.427E-2      -6.74         0.80817       -12.84         
20.6990       0.04705       -176.76       9.446E-2      -7.35         9.43E-2       -6.97         0.80816       -13.22         
21.2990       0.04705       -176.69       9.448E-2      -7.55         9.433E-2      -7.19         0.80814       -13.60         
21.8989       0.04703       -176.69       9.451E-2      -7.78         9.434E-2      -7.37         0.80815       -13.98         
22.4989       0.04704       -176.60       9.456E-2      -7.97         9.433E-2      -7.57         0.80811       -14.36         
23.0989       0.04705       -176.54       9.453E-2      -8.18         9.434E-2      -7.78         0.80812       -14.74         
23.6988       0.04702       -176.49       9.456E-2      -8.35         9.438E-2      -7.99         0.8081        -15.12         
24.2988       0.04704       -176.45       9.454E-2      -8.56         9.436E-2      -8.21         0.80809       -15.50         
24.8988       0.04704       -176.40       9.45E-2       -8.77         9.436E-2      -8.41         0.80801       -15.88         
25.4987       0.04699       -176.32       9.455E-2      -9.01         9.439E-2      -8.63         0.80806       -16.27         
26.0987       0.04697       -176.26       9.454E-2      -9.23         9.445E-2      -8.82         0.808         -16.65         
26.6987       0.04697       -176.24       9.454E-2      -9.39         9.44E-2       -9.01         0.80804       -17.03         
27.2987       0.04693       -176.16       9.454E-2      -9.59         9.446E-2      -9.23         0.80799       -17.41         
27.8986       0.04697       -176.12       9.46E-2       -9.84         9.445E-2      -9.43         0.80791       -17.79         
28.4986       0.04694       -176.08       9.463E-2      -10.01        9.445E-2      -9.64         0.80787       -18.17         
29.0986       0.04692       -176.04       9.457E-2      -10.22        9.449E-2      -9.85         0.80787       -18.55         
29.6985       0.04693       -175.98       9.459E-2      -10.45        9.45E-2       -10.06        0.80778       -18.93         
30.2985       0.04689       -175.97       9.458E-2      -10.68        9.45E-2       -10.26        0.80773       -19.31         
30.8985       0.04691       -175.90       9.462E-2      -10.88        9.443E-2      -10.50        0.80759       -19.69         
31.4984       0.04692       -175.81       9.464E-2      -11.07        9.448E-2      -10.70        0.80755       -20.08         
32.0984       0.04687       -175.79       9.463E-2      -11.30        9.449E-2      -10.92        0.80753       -20.46         
32.6984       0.04691       -175.72       9.465E-2      -11.49        9.452E-2      -11.10        0.80756       -20.84         
33.2984       0.04683       -175.68       9.466E-2      -11.71        9.45E-2       -11.32        0.80747       -21.22         
33.8983       0.04686       -175.64       9.459E-2      -11.90        9.455E-2      -11.52        0.80748       -21.60         
34.4983       0.04684       -175.54       9.466E-2      -12.09        9.457E-2      -11.74        0.80745       -21.98         
35.0983       0.04683       -175.50       9.465E-2      -12.28        9.456E-2      -11.95        0.80743       -22.36         
35.6982       0.04681       -175.47       9.467E-2      -12.53        9.457E-2      -12.15        0.80736       -22.74         
36.2982       0.04682       -175.40       9.471E-2      -12.75        9.46E-2       -12.36        0.80727       -23.12         
36.8982       0.0468        -175.35       9.468E-2      -12.90        9.457E-2      -12.57        0.80719       -23.50         
37.4981       0.04677       -175.31       9.468E-2      -13.13        9.461E-2      -12.77        0.80702       -23.88         
38.0981       0.0468        -175.25       9.466E-2      -13.33        9.458E-2      -12.97        0.80698       -24.25         
38.6981       0.04677       -175.18       9.467E-2      -13.57        9.457E-2      -13.17        0.80691       -24.63         
39.2981       0.04676       -175.14       9.469E-2      -13.74        9.459E-2      -13.35        0.80684       -25.01         
39.8980       0.04675       -175.14       9.467E-2      -13.98        9.456E-2      -13.60        0.80668       -25.39         
40.4980       0.04674       -175.05       9.462E-2      -14.15        9.463E-2      -13.79        0.80659       -25.76         
41.0980       0.04672       -174.99       9.469E-2      -14.36        9.457E-2      -13.99        0.80649       -26.14         
41.6979       0.04674       -174.94       9.473E-2      -14.61        9.456E-2      -14.21        0.80639       -26.52         
42.2979       0.04675       -174.87       9.474E-2      -14.79        9.456E-2      -14.38        0.80635       -26.89         
42.8979       0.04672       -174.78       9.47E-2       -15.04        9.462E-2      -14.61        0.80624       -27.27         
43.4978       0.04672       -174.73       9.471E-2      -15.20        9.463E-2      -14.79        0.80615       -27.65         
44.0978       0.04671       -174.69       9.477E-2      -15.40        9.461E-2      -15.02        0.80602       -28.02         
44.6978       0.04668       -174.63       9.472E-2      -15.60        9.463E-2      -15.23        0.80604       -28.40         
45.2978       0.0467        -174.60       9.475E-2      -15.81        9.461E-2      -15.44        0.80591       -28.78         
45.8977       0.04671       -174.51       9.476E-2      -15.98        9.463E-2      -15.63        0.80581       -29.16         
46.4977       0.04672       -174.49       9.478E-2      -16.20        9.459E-2      -15.85        0.80566       -29.54         
47.0977       0.04673       -174.37       9.468E-2      -16.35        9.465E-2      -16.07        0.80554       -29.94         
47.6976       0.04676       -174.33       9.474E-2      -16.60        9.468E-2      -16.29        0.80548       -30.32         
48.2976       0.04673       -174.26       9.476E-2      -16.79        9.469E-2      -16.49        0.80546       -30.70         
48.8976       0.04675       -174.20       9.473E-2      -17.01        9.466E-2      -16.70        0.80536       -31.08         
49.4975       0.0467        -174.16       9.475E-2      -17.22        9.47E-2       -16.88        0.8053        -31.45         
50.0975       0.04668       -174.07       9.476E-2      -17.40        9.465E-2      -17.13        0.80523       -31.83         
50.6975       0.0467        -174.06       9.477E-2      -17.64        9.463E-2      -17.35        0.80517       -32.22         
51.2975       0.04669       -173.98       9.48E-2       -17.81        9.464E-2      -17.54        0.8051        -32.59         
51.8974       0.04667       -173.99       9.488E-2      -18.05        9.457E-2      -17.72        0.80499       -32.97         
52.4974       0.04662       -173.89       9.493E-2      -18.30        9.46E-2       -17.89        0.80492       -33.35         
53.0974       0.04664       -173.84       9.49E-2       -18.51        9.453E-2      -18.05        0.80487       -33.72         
53.6973       0.0466        -173.76       9.507E-2      -18.94        9.354E-2      -18.02        0.80471       -34.10         
54.2973       0.04651       -174.15       9.574E-2      -19.15        9.468E-2      -18.55        0.80466       -34.48         
54.8973       0.04664       -173.64       9.476E-2      -19.07        9.468E-2      -18.74        0.80459       -34.86         
55.4972       0.04659       -173.56       9.482E-2      -19.30        9.475E-2      -18.95        0.80451       -35.24         
56.0972       0.04662       -173.51       9.479E-2      -19.48        9.473E-2      -19.15        0.80438       -35.62         
56.6972       0.0466        -173.47       9.478E-2      -19.72        9.47E-2       -19.36        0.8043        -36.00         
57.2972       0.04658       -173.40       9.479E-2      -19.92        9.468E-2      -19.56        0.80423       -36.38         
57.8971       0.04657       -173.35       9.478E-2      -20.14        9.471E-2      -19.78        0.80413       -36.76         
58.4971       0.04665       -173.29       9.474E-2      -20.34        9.474E-2      -19.98        0.80409       -37.14         
59.0971       0.04658       -173.24       9.478E-2      -20.59        9.475E-2      -20.17        0.80398       -37.53         
59.6970       0.04657       -173.12       9.478E-2      -20.76        9.471E-2      -20.38        0.80386       -37.91         
60.2970       0.04658       -173.11       9.484E-2      -21.00        9.471E-2      -20.60        0.8038        -38.29         
60.8970       0.04659       -173.03       9.479E-2      -21.19        9.473E-2      -20.78        0.8037        -38.68         
61.4969       0.04656       -172.96       9.481E-2      -21.42        9.475E-2      -21.01        0.80357       -39.06         
62.0969       0.04659       -172.92       9.477E-2      -21.64        9.47E-2       -21.24        0.8035        -39.45         
62.6969       0.0466        -172.83       9.475E-2      -21.84        9.473E-2      -21.42        0.80333       -39.83         
63.2969       0.04656       -172.79       9.48E-2       -22.03        9.471E-2      -21.64        0.80332       -40.21         
63.8968       0.04659       -172.68       9.473E-2      -22.23        9.474E-2      -21.86        0.80319       -40.60         
64.4968       0.0466        -172.65       9.477E-2      -22.43        9.474E-2      -22.10        0.80316       -40.98         
65.0968       0.04656       -172.61       9.473E-2      -22.66        9.475E-2      -22.25        0.803         -41.36         
65.6967       0.04658       -172.52       9.478E-2      -22.91        9.474E-2      -22.48        0.80289       -41.74         
66.2967       0.04654       -172.46       9.474E-2      -23.05        9.473E-2      -22.70        0.80282       -42.12         
66.8967       0.04658       -172.37       9.473E-2      -23.26        9.471E-2      -22.89        0.80268       -42.50         
67.4966       0.04654       -172.32       9.478E-2      -23.45        9.479E-2      -23.11        0.80257       -42.88         
68.0966       0.04654       -172.27       9.477E-2      -23.71        9.473E-2      -23.30        0.8025        -43.26         
68.6966       0.04655       -172.16       9.476E-2      -23.88        9.472E-2      -23.49        0.80235       -43.63         
69.2966       0.04656       -172.13       9.477E-2      -24.08        9.475E-2      -23.71        0.80226       -44.01         
69.8965       0.04656       -172.01       9.479E-2      -24.29        9.473E-2      -23.91        0.80215       -44.40         
70.4965       0.04653       -171.98       9.48E-2       -24.51        9.472E-2      -24.12        0.80205       -44.77         
71.0965       0.04651       -171.92       9.476E-2      -24.69        9.47E-2       -24.32        0.80191       -45.15         
71.6964       0.04655       -171.85       9.474E-2      -24.94        9.472E-2      -24.51        0.80181       -45.53         
72.2964       0.04653       -171.79       9.479E-2      -25.15        9.47E-2       -24.74        0.80169       -45.91         
72.8964       0.04656       -171.71       9.478E-2      -25.32        9.468E-2      -24.93        0.80165       -46.28         
73.4963       0.04656       -171.61       9.478E-2      -25.55        9.471E-2      -25.15        0.80155       -46.66         
74.0963       0.04654       -171.58       9.481E-2      -25.75        9.475E-2      -25.36        0.80149       -47.04         
74.6963       0.04652       -171.52       9.475E-2      -25.96        9.469E-2      -25.54        0.8014        -47.42         
75.2963       0.0465        -171.42       9.481E-2      -26.17        9.469E-2      -25.75        0.80136       -47.80         
75.8962       0.0465        -171.40       9.478E-2      -26.34        9.472E-2      -25.96        0.80122       -48.18         
76.4962       0.04649       -171.30       9.48E-2       -26.59        9.474E-2      -26.19        0.80114       -48.56         
77.0962       0.0465        -171.24       9.474E-2      -26.77        9.473E-2      -26.40        0.80098       -48.94         
77.6961       0.04649       -171.15       9.475E-2      -26.96        9.471E-2      -26.59        0.80081       -49.32         
78.2961       0.04649       -171.07       9.478E-2      -27.16        9.472E-2      -26.80        0.80069       -49.70         
78.8961       0.0465        -171.03       9.476E-2      -27.39        9.476E-2      -27.01        0.80057       -50.08         
79.4960       0.0465        -171.00       9.474E-2      -27.56        9.476E-2      -27.21        0.80048       -50.45         
80.0960       0.0465        -170.91       9.48E-2       -27.77        9.476E-2      -27.43        0.8003        -50.84         
80.6960       0.04646       -170.83       9.474E-2      -27.99        9.47E-2       -27.61        0.80014       -51.21         
81.2960       0.04649       -170.76       9.477E-2      -28.20        9.475E-2      -27.83        0.80004       -51.59         
81.8959       0.04649       -170.69       9.477E-2      -28.39        9.47E-2       -28.03        0.79988       -51.98         
82.4959       0.04649       -170.65       9.479E-2      -28.59        9.47E-2       -28.24        0.79971       -52.35         
83.0959       0.0465        -170.59       9.477E-2      -28.80        9.474E-2      -28.43        0.79958       -52.74         
83.6958       0.04646       -170.52       9.476E-2      -29.02        9.471E-2      -28.64        0.79937       -53.11         
84.2958       0.04646       -170.46       9.474E-2      -29.20        9.472E-2      -28.86        0.79922       -53.49         
84.8958       0.04649       -170.39       9.472E-2      -29.43        9.472E-2      -29.06        0.79917       -53.88         
85.4957       0.04651       -170.32       9.473E-2      -29.63        9.464E-2      -29.24        0.79903       -54.26         
86.0957       0.04647       -170.27       9.476E-2      -29.87        9.468E-2      -29.46        0.79887       -54.64         
86.6957       0.0465        -170.21       9.474E-2      -30.06        9.467E-2      -29.66        0.7988        -55.01         
87.2957       0.04647       -170.15       9.471E-2      -30.28        9.465E-2      -29.85        0.79863       -55.39         
87.8956       0.04649       -170.02       9.474E-2      -30.47        9.466E-2      -30.07        0.79846       -55.77         
88.4956       0.0465        -169.94       9.469E-2      -30.69        9.467E-2      -30.27        0.79828       -56.15         
89.0956       0.04645       -169.89       9.47E-2       -30.87        9.465E-2      -30.49        0.79824       -56.53         
89.6955       0.04648       -169.81       9.47E-2       -31.07        9.466E-2      -30.68        0.79803       -56.92         
90.2955       0.04652       -169.76       9.468E-2      -31.30        9.465E-2      -30.91        0.7979        -57.30         
90.8955       0.04651       -169.73       9.468E-2      -31.48        9.467E-2      -31.11        0.79782       -57.68         
91.4954       0.04652       -169.63       9.469E-2      -31.69        9.464E-2      -31.31        0.79768       -58.07         
92.0954       0.04651       -169.54       9.472E-2      -31.89        9.468E-2      -31.52        0.7976        -58.44         
