!    3/18/2021   18:55:14 
! Ref Plane: 13.288 mm
# MHZ S MA R  50
!
0.3000        0.04748       -178.64       9.764E-2      -1.12         9.547E-2      -0.76         0.81589       -0.27          
0.9000        0.04721       -178.18       9.361E-2      -0.59         9.426E-2      -0.13         0.80972       -0.63          
1.4999        0.04728       -177.99       9.397E-2      -0.51         9.417E-2      -0.31         0.80969       -0.93          
2.0999        0.04729       -177.92       9.402E-2      -0.72         9.42E-2       -0.52         0.80961       -1.31          
2.6999        0.04726       -177.91       9.401E-2      -0.88         9.416E-2      -0.74         0.80953       -1.71          
3.2999        0.04725       -177.92       9.411E-2      -1.06         9.415E-2      -0.91         0.80949       -2.08          
3.8998        0.04727       -177.87       9.409E-2      -1.29         9.417E-2      -1.15         0.8094        -2.46          
4.4998        0.04729       -177.87       9.408E-2      -1.56         9.421E-2      -1.34         0.80931       -2.84          
5.0998        0.04727       -177.80       9.415E-2      -1.76         9.421E-2      -1.55         0.80931       -3.22          
5.6997        0.04722       -177.80       9.412E-2      -1.96         9.422E-2      -1.77         0.80918       -3.60          
6.2997        0.04724       -177.76       9.415E-2      -2.14         9.423E-2      -1.96         0.80913       -3.98          
6.8997        0.04727       -177.75       9.416E-2      -2.40         9.42E-2       -2.14         0.80904       -4.36          
7.4996        0.04722       -177.71       9.416E-2      -2.59         9.421E-2      -2.36         0.80895       -4.73          
8.0996        0.04722       -177.71       9.416E-2      -2.76         9.426E-2      -2.58         0.80891       -5.11          
8.6996        0.04721       -177.63       9.42E-2       -3.00         9.425E-2      -2.80         0.80886       -5.48          
9.2996        0.04718       -177.61       9.424E-2      -3.19         9.422E-2      -2.98         0.80873       -5.87          
9.8995        0.04714       -177.62       9.418E-2      -3.39         9.429E-2      -3.21         0.80871       -6.24          
10.4995       0.0472        -177.53       9.419E-2      -3.64         9.426E-2      -3.40         0.80866       -6.62          
11.0995       0.04719       -177.57       9.424E-2      -3.82         9.431E-2      -3.60         0.80859       -7.00          
11.6994       0.0472        -177.53       9.421E-2      -4.01         9.432E-2      -3.84         0.80856       -7.37          
12.2994       0.04718       -177.47       9.423E-2      -4.22         9.43E-2       -4.00         0.80849       -7.75          
12.8994       0.04715       -177.43       9.424E-2      -4.47         9.431E-2      -4.22         0.80848       -8.13          
13.4993       0.04716       -177.42       9.426E-2      -4.65         9.43E-2       -4.45         0.8084        -8.51          
14.0993       0.04714       -177.39       9.428E-2      -4.82         9.432E-2      -4.61         0.80829       -8.89          
14.6993       0.04712       -177.37       9.429E-2      -5.02         9.431E-2      -4.85         0.80826       -9.26          
15.2993       0.04715       -177.29       9.431E-2      -5.26         9.434E-2      -5.04         0.80822       -9.64          
15.8992       0.04712       -177.32       9.437E-2      -5.45         9.435E-2      -5.26         0.80827       -10.02         
16.4992       0.04709       -177.20       9.442E-2      -5.67         9.435E-2      -5.50         0.80824       -10.39         
17.0992       0.04707       -177.18       9.438E-2      -5.87         9.436E-2      -5.68         0.80817       -10.77         
17.6991       0.04708       -177.10       9.434E-2      -6.06         9.437E-2      -5.89         0.80808       -11.15         
18.2991       0.04707       -177.13       9.443E-2      -6.26         9.439E-2      -6.10         0.80805       -11.52         
18.8991       0.04708       -177.06       9.442E-2      -6.50         9.439E-2      -6.32         0.80802       -11.90         
19.4990       0.04705       -177.04       9.44E-2       -6.67         9.438E-2      -6.50         0.80797       -12.28         
20.0990       0.047         -177.02       9.44E-2       -6.91         9.44E-2       -6.70         0.80793       -12.65         
20.6990       0.04703       -176.94       9.441E-2      -7.11         9.443E-2      -6.92         0.80791       -13.03         
21.2990       0.047         -176.92       9.444E-2      -7.32         9.447E-2      -7.14         0.80786       -13.41         
21.8989       0.04701       -176.90       9.445E-2      -7.53         9.446E-2      -7.32         0.80783       -13.78         
22.4989       0.04698       -176.84       9.45E-2       -7.72         9.445E-2      -7.51         0.80788       -14.15         
23.0989       0.047         -176.77       9.449E-2      -7.93         9.445E-2      -7.73         0.80784       -14.53         
23.6988       0.04698       -176.74       9.453E-2      -8.11         9.45E-2       -7.94         0.80778       -14.90         
24.2988       0.047         -176.71       9.452E-2      -8.31         9.45E-2       -8.15         0.80775       -15.28         
24.8988       0.04698       -176.66       9.448E-2      -8.51         9.449E-2      -8.34         0.80775       -15.65         
25.4987       0.04693       -176.61       9.449E-2      -8.73         9.451E-2      -8.56         0.80775       -16.03         
26.0987       0.04691       -176.50       9.453E-2      -8.98         9.458E-2      -8.75         0.80776       -16.41         
26.6987       0.04691       -176.53       9.454E-2      -9.13         9.451E-2      -8.95         0.80776       -16.78         
27.2987       0.04688       -176.44       9.451E-2      -9.33         9.459E-2      -9.16         0.80766       -17.16         
27.8986       0.0469        -176.44       9.457E-2      -9.56         9.456E-2      -9.35         0.80763       -17.53         
28.4986       0.04687       -176.36       9.464E-2      -9.74         9.455E-2      -9.56         0.80758       -17.91         
29.0986       0.04686       -176.35       9.457E-2      -9.94         9.46E-2       -9.77         0.80755       -18.28         
29.6985       0.04685       -176.33       9.46E-2       -10.18        9.464E-2      -9.96         0.80749       -18.66         
30.2985       0.04683       -176.23       9.46E-2       -10.41        9.461E-2      -10.18        0.80743       -19.03         
30.8985       0.04683       -176.21       9.461E-2      -10.58        9.456E-2      -10.41        0.80729       -19.40         
31.4984       0.0468        -176.16       9.464E-2      -10.78        9.462E-2      -10.59        0.80729       -19.79         
32.0984       0.04677       -176.08       9.463E-2      -11.01        9.463E-2      -10.81        0.80724       -20.16         
32.6984       0.0468        -176.06       9.463E-2      -11.20        9.461E-2      -11.00        0.8072        -20.54         
33.2984       0.04675       -175.98       9.464E-2      -11.41        9.463E-2      -11.22        0.80717       -20.91         
33.8983       0.04676       -175.96       9.46E-2       -11.60        9.467E-2      -11.42        0.80715       -21.29         
34.4983       0.04674       -175.88       9.468E-2      -11.81        9.472E-2      -11.63        0.80711       -21.66         
35.0983       0.04675       -175.85       9.465E-2      -11.98        9.468E-2      -11.82        0.8071        -22.04         
35.6982       0.04669       -175.82       9.469E-2      -12.23        9.468E-2      -12.02        0.807         -22.41         
36.2982       0.04669       -175.75       9.473E-2      -12.44        9.471E-2      -12.23        0.80698       -22.79         
36.8982       0.04669       -175.71       9.469E-2      -12.61        9.468E-2      -12.46        0.80685       -23.16         
37.4981       0.04668       -175.65       9.47E-2       -12.82        9.475E-2      -12.65        0.80674       -23.53         
38.0981       0.04667       -175.61       9.471E-2      -13.03        9.47E-2       -12.84        0.80661       -23.91         
38.6981       0.04665       -175.57       9.471E-2      -13.26        9.468E-2      -13.04        0.80658       -24.28         
39.2981       0.04664       -175.53       9.471E-2      -13.43        9.473E-2      -13.22        0.8065        -24.65         
39.8980       0.04663       -175.54       9.469E-2      -13.66        9.469E-2      -13.46        0.80634       -25.02         
40.4980       0.04659       -175.44       9.466E-2      -13.85        9.473E-2      -13.66        0.80626       -25.39         
41.0980       0.04656       -175.41       9.47E-2       -14.05        9.47E-2       -13.84        0.80616       -25.76         
41.6979       0.04656       -175.37       9.474E-2      -14.28        9.467E-2      -14.06        0.80604       -26.13         
42.2979       0.04657       -175.24       9.476E-2      -14.46        9.471E-2      -14.24        0.80601       -26.51         
42.8979       0.04656       -175.18       9.473E-2      -14.70        9.474E-2      -14.46        0.80588       -26.88         
43.4978       0.04656       -175.13       9.476E-2      -14.88        9.477E-2      -14.64        0.80578       -27.26         
44.0978       0.04656       -175.12       9.481E-2      -15.06        9.478E-2      -14.86        0.80571       -27.62         
44.6978       0.04651       -175.02       9.477E-2      -15.27        9.478E-2      -15.05        0.80568       -27.99         
45.2978       0.04651       -174.98       9.477E-2      -15.47        9.474E-2      -15.28        0.8056        -28.37         
45.8977       0.0465        -174.92       9.483E-2      -15.66        9.476E-2      -15.47        0.80543       -28.74         
46.4977       0.04652       -174.89       9.485E-2      -15.85        9.475E-2      -15.69        0.8053        -29.11         
47.0977       0.04652       -174.79       9.478E-2      -16.04        9.477E-2      -15.89        0.80518       -29.51         
47.6976       0.04653       -174.76       9.481E-2      -16.27        9.482E-2      -16.09        0.80517       -29.88         
48.2976       0.04652       -174.67       9.479E-2      -16.46        9.481E-2      -16.29        0.80509       -30.26         
48.8976       0.0465        -174.64       9.481E-2      -16.66        9.483E-2      -16.51        0.80506       -30.63         
49.4975       0.04647       -174.63       9.481E-2      -16.89        9.483E-2      -16.69        0.80496       -31.00         
50.0975       0.04649       -174.54       9.482E-2      -17.07        9.482E-2      -16.93        0.80486       -31.38         
50.6975       0.04647       -174.53       9.482E-2      -17.31        9.482E-2      -17.15        0.80483       -31.75         
51.2975       0.04648       -174.46       9.484E-2      -17.48        9.484E-2      -17.33        0.80473       -32.13         
51.8974       0.04644       -174.40       9.488E-2      -17.69        9.484E-2      -17.54        0.80463       -32.50         
52.4974       0.04641       -174.38       9.489E-2      -17.91        9.483E-2      -17.75        0.80454       -32.87         
53.0974       0.04639       -174.32       9.487E-2      -18.07        9.481E-2      -17.96        0.80448       -33.24         
53.6973       0.04641       -174.23       9.485E-2      -18.31        9.492E-2      -18.16        0.80433       -33.61         
54.2973       0.04638       -174.22       9.481E-2      -18.50        9.485E-2      -18.34        0.80428       -33.99         
54.8973       0.04636       -174.12       9.484E-2      -18.70        9.485E-2      -18.53        0.80418       -34.36         
55.4972       0.04636       -174.07       9.487E-2      -18.93        9.492E-2      -18.76        0.80411       -34.74         
56.0972       0.04637       -174.02       9.486E-2      -19.11        9.491E-2      -18.94        0.80399       -35.11         
56.6972       0.04633       -173.97       9.485E-2      -19.35        9.487E-2      -19.14        0.80388       -35.49         
57.2972       0.04633       -173.92       9.487E-2      -19.54        9.486E-2      -19.35        0.80381       -35.86         
57.8971       0.04634       -173.89       9.485E-2      -19.75        9.488E-2      -19.56        0.80372       -36.24         
58.4971       0.04633       -173.80       9.483E-2      -19.97        9.491E-2      -19.75        0.80361       -36.62         
59.0971       0.04629       -173.76       9.485E-2      -20.19        9.491E-2      -19.97        0.80353       -37.00         
59.6970       0.04627       -173.67       9.485E-2      -20.35        9.486E-2      -20.17        0.80343       -37.37         
60.2970       0.04628       -173.66       9.491E-2      -20.58        9.488E-2      -20.39        0.80335       -37.75         
60.8970       0.04626       -173.58       9.491E-2      -20.77        9.489E-2      -20.57        0.80324       -38.13         
61.4969       0.04623       -173.52       9.49E-2       -21.01        9.493E-2      -20.79        0.80313       -38.51         
62.0969       0.04628       -173.49       9.485E-2      -21.20        9.489E-2      -21.02        0.80303       -38.89         
62.6969       0.04629       -173.37       9.488E-2      -21.40        9.491E-2      -21.22        0.80288       -39.27         
63.2969       0.04623       -173.36       9.489E-2      -21.62        9.489E-2      -21.42        0.80282       -39.65         
63.8968       0.04626       -173.29       9.485E-2      -21.80        9.494E-2      -21.65        0.80272       -40.02         
64.4968       0.04624       -173.24       9.486E-2      -22.01        9.49E-2       -21.85        0.80264       -40.40         
65.0968       0.04622       -173.22       9.485E-2      -22.23        9.492E-2      -22.03        0.80248       -40.78         
65.6967       0.04623       -173.13       9.487E-2      -22.47        9.491E-2      -22.25        0.80236       -41.15         
66.2967       0.0462        -173.06       9.485E-2      -22.63        9.493E-2      -22.45        0.80234       -41.53         
66.8967       0.04623       -172.95       9.486E-2      -22.85        9.491E-2      -22.63        0.80219       -41.90         
67.4966       0.0462        -172.95       9.49E-2       -23.02        9.498E-2      -22.86        0.80208       -42.28         
68.0966       0.04618       -172.87       9.49E-2       -23.29        9.493E-2      -23.05        0.80195       -42.65         
68.6966       0.04619       -172.80       9.487E-2      -23.45        9.493E-2      -23.24        0.80181       -43.03         
69.2966       0.04616       -172.77       9.492E-2      -23.64        9.495E-2      -23.43        0.80175       -43.40         
69.8965       0.04618       -172.63       9.491E-2      -23.85        9.493E-2      -23.66        0.80161       -43.78         
70.4965       0.04614       -172.62       9.493E-2      -24.06        9.494E-2      -23.87        0.80151       -44.15         
71.0965       0.04614       -172.57       9.488E-2      -24.25        9.494E-2      -24.05        0.80137       -44.52         
71.6964       0.04614       -172.52       9.487E-2      -24.49        9.491E-2      -24.27        0.80126       -44.90         
72.2964       0.04615       -172.44       9.492E-2      -24.69        9.492E-2      -24.47        0.80113       -45.27         
72.8964       0.04613       -172.37       9.493E-2      -24.87        9.488E-2      -24.68        0.80106       -45.65         
73.4963       0.04613       -172.29       9.491E-2      -25.08        9.493E-2      -24.90        0.80097       -46.02         
74.0963       0.04611       -172.26       9.494E-2      -25.29        9.495E-2      -25.10        0.80085       -46.39         
74.6963       0.04609       -172.19       9.49E-2       -25.49        9.494E-2      -25.29        0.80072       -46.77         
75.2963       0.04606       -172.16       9.495E-2      -25.71        9.492E-2      -25.51        0.80065       -47.14         
75.8962       0.04608       -172.07       9.491E-2      -25.87        9.494E-2      -25.68        0.80046       -47.51         
76.4962       0.04606       -172.02       9.494E-2      -26.12        9.496E-2      -25.91        0.80037       -47.88         
77.0962       0.04606       -171.92       9.486E-2      -26.29        9.495E-2      -26.12        0.80024       -48.26         
77.6961       0.04608       -171.86       9.49E-2       -26.51        9.494E-2      -26.31        0.80013       -48.63         
78.2961       0.04604       -171.82       9.492E-2      -26.69        9.497E-2      -26.52        0.80001       -49.01         
78.8961       0.04606       -171.72       9.491E-2      -26.91        9.496E-2      -26.71        0.79986       -49.38         
79.4960       0.04607       -171.72       9.488E-2      -27.10        9.497E-2      -26.93        0.79974       -49.75         
80.0960       0.04607       -171.64       9.496E-2      -27.29        9.50E-2       -27.14        0.79962       -50.13         
80.6960       0.04601       -171.59       9.49E-2       -27.52        9.493E-2      -27.30        0.79945       -50.50         
81.2960       0.04602       -171.52       9.494E-2      -27.71        9.499E-2      -27.52        0.79932       -50.88         
81.8959       0.04602       -171.46       9.491E-2      -27.89        9.496E-2      -27.72        0.79917       -51.26         
82.4959       0.04602       -171.44       9.496E-2      -28.12        9.495E-2      -27.94        0.79901       -51.63         
83.0959       0.04603       -171.34       9.494E-2      -28.32        9.495E-2      -28.10        0.7989        -52.01         
83.6958       0.046         -171.30       9.492E-2      -28.53        9.495E-2      -28.32        0.79867       -52.38         
84.2958       0.04599       -171.24       9.491E-2      -28.72        9.496E-2      -28.55        0.79853       -52.76         
84.8958       0.04601       -171.19       9.492E-2      -28.94        9.496E-2      -28.74        0.79843       -53.14         
85.4957       0.046         -171.13       9.494E-2      -29.12        9.494E-2      -28.94        0.79829       -53.51         
86.0957       0.04599       -171.06       9.495E-2      -29.35        9.496E-2      -29.15        0.79814       -53.89         
86.6957       0.04599       -171.03       9.492E-2      -29.54        9.496E-2      -29.35        0.798         -54.26         
87.2957       0.04596       -170.96       9.491E-2      -29.77        9.491E-2      -29.54        0.79782       -54.64         
87.8956       0.04597       -170.81       9.493E-2      -29.94        9.493E-2      -29.75        0.79769       -55.01         
88.4956       0.04599       -170.78       9.489E-2      -30.17        9.495E-2      -29.95        0.79753       -55.39         
89.0956       0.04594       -170.72       9.492E-2      -30.35        9.494E-2      -30.16        0.79744       -55.76         
89.6955       0.04597       -170.67       9.49E-2       -30.56        9.491E-2      -30.34        0.79717       -56.14         
90.2955       0.046         -170.59       9.489E-2      -30.78        9.493E-2      -30.57        0.79709       -56.52         
90.8955       0.04597       -170.58       9.489E-2      -30.96        9.497E-2      -30.77        0.79696       -56.89         
91.4954       0.04599       -170.50       9.49E-2       -31.16        9.492E-2      -30.99        0.79681       -57.27         
92.0954       0.04599       -170.41       9.491E-2      -31.37        9.496E-2      -31.20        0.79667       -57.65         
