!    3/18/2021   19:52:43 
! Ref Plane: 13.288 mm
# MHZ S MA R  50
!
0.3000        0.04778       179.92        9.739E-2      -1.33         9.588E-2      -0.41         0.81769       -0.02          
0.9000        0.04721       -178.69       9.335E-2      -0.64         9.463E-2      -0.07         0.81154       -0.47          
1.4999        0.04721       -178.27       9.384E-2      -0.64         9.427E-2      -0.16         0.8107        -0.76          
2.0999        0.04725       -178.13       9.401E-2      -0.84         9.418E-2      -0.37         0.81025       -1.16          
2.6999        0.04726       -178.09       9.403E-2      -1.02         9.413E-2      -0.60         0.81006       -1.58          
3.2999        0.04724       -178.11       9.412E-2      -1.20         9.411E-2      -0.76         0.80988       -1.95          
3.8998        0.04721       -178.05       9.414E-2      -1.42         9.413E-2      -1.01         0.80971       -2.34          
4.4998        0.04726       -178.09       9.416E-2      -1.70         9.413E-2      -1.18         0.80965       -2.72          
5.0998        0.04726       -178.00       9.419E-2      -1.89         9.414E-2      -1.42         0.80965       -3.10          
5.6997        0.0472        -178.00       9.42E-2       -2.07         9.412E-2      -1.64         0.8095        -3.47          
6.2997        0.0472        -178.02       9.424E-2      -2.27         9.414E-2      -1.83         0.80941       -3.85          
6.8997        0.04721       -177.98       9.424E-2      -2.49         9.409E-2      -2.03         0.8093        -4.22          
7.4996        0.04719       -177.96       9.426E-2      -2.70         9.407E-2      -2.26         0.80925       -4.59          
8.0996        0.04717       -177.97       9.429E-2      -2.87         9.415E-2      -2.46         0.80916       -4.96          
8.6996        0.04712       -177.94       9.43E-2       -3.08         9.409E-2      -2.68         0.80911       -5.33          
9.2996        0.04714       -177.89       9.436E-2      -3.28         9.411E-2      -2.87         0.80901       -5.70          
9.8995        0.04709       -177.91       9.431E-2      -3.48         9.415E-2      -3.07         0.809         -6.07          
10.4995       0.04712       -177.83       9.431E-2      -3.74         9.413E-2      -3.29         0.80894       -6.44          
11.0995       0.04715       -177.86       9.438E-2      -3.90         9.417E-2      -3.49         0.80885       -6.81          
11.6994       0.04715       -177.84       9.432E-2      -4.10         9.416E-2      -3.70         0.80876       -7.18          
12.2994       0.0471        -177.79       9.437E-2      -4.28         9.418E-2      -3.89         0.80876       -7.55          
12.8994       0.04705       -177.76       9.438E-2      -4.54         9.418E-2      -4.09         0.80871       -7.92          
13.4993       0.04705       -177.72       9.439E-2      -4.71         9.418E-2      -4.31         0.80866       -8.29          
14.0993       0.04706       -177.74       9.443E-2      -4.89         9.416E-2      -4.48         0.80855       -8.66          
14.6993       0.04703       -177.71       9.444E-2      -5.09         9.42E-2       -4.70         0.80846       -9.03          
15.2993       0.04706       -177.67       9.444E-2      -5.31         9.422E-2      -4.90         0.80853       -9.39          
15.8992       0.04702       -177.68       9.45E-2       -5.51         9.425E-2      -5.10         0.80857       -9.76          
16.4992       0.04698       -177.60       9.451E-2      -5.73         9.423E-2      -5.30         0.80846       -10.14         
17.0992       0.04694       -177.59       9.452E-2      -5.91         9.425E-2      -5.51         0.80839       -10.50         
17.6991       0.04697       -177.51       9.445E-2      -6.11         9.429E-2      -5.72         0.80833       -10.87         
18.2991       0.04692       -177.52       9.455E-2      -6.33         9.428E-2      -5.92         0.80827       -11.24         
18.8991       0.04693       -177.50       9.454E-2      -6.56         9.43E-2       -6.13         0.80819       -11.61         
19.4990       0.04689       -177.47       9.452E-2      -6.72         9.429E-2      -6.32         0.8082        -11.98         
20.0990       0.04688       -177.43       9.451E-2      -6.96         9.428E-2      -6.51         0.80817       -12.35         
20.6990       0.04687       -177.43       9.455E-2      -7.15         9.433E-2      -6.74         0.80806       -12.71         
21.2990       0.04688       -177.40       9.455E-2      -7.36         9.436E-2      -6.93         0.80802       -13.08         
21.8989       0.04686       -177.39       9.458E-2      -7.58         9.437E-2      -7.13         0.80802       -13.45         
22.4989       0.04682       -177.32       9.465E-2      -7.74         9.436E-2      -7.31         0.80803       -13.81         
23.0989       0.04684       -177.27       9.463E-2      -7.95         9.437E-2      -7.54         0.80797       -14.18         
23.6988       0.04684       -177.24       9.463E-2      -8.15         9.441E-2      -7.74         0.80796       -14.55         
24.2988       0.04683       -177.22       9.462E-2      -8.34         9.442E-2      -7.94         0.80796       -14.91         
24.8988       0.04684       -177.19       9.457E-2      -8.56         9.443E-2      -8.14         0.80796       -15.28         
25.4987       0.04677       -177.12       9.463E-2      -8.76         9.444E-2      -8.32         0.80792       -15.65         
26.0987       0.04674       -177.05       9.462E-2      -8.99         9.45E-2       -8.53         0.80788       -16.02         
26.6987       0.04675       -177.06       9.464E-2      -9.15         9.445E-2      -8.71         0.80785       -16.38         
27.2987       0.04673       -176.99       9.463E-2      -9.34         9.453E-2      -8.95         0.80781       -16.75         
27.8986       0.04672       -176.98       9.468E-2      -9.58         9.452E-2      -9.13         0.80779       -17.12         
28.4986       0.0467        -176.95       9.475E-2      -9.76         9.451E-2      -9.33         0.80771       -17.49         
29.0986       0.04669       -176.95       9.469E-2      -9.96         9.453E-2      -9.51         0.8077        -17.85         
29.6985       0.04668       -176.91       9.47E-2       -10.17        9.457E-2      -9.72         0.80755       -18.23         
30.2985       0.04665       -176.88       9.469E-2      -10.39        9.457E-2      -9.93         0.80758       -18.59         
30.8985       0.04666       -176.82       9.473E-2      -10.58        9.453E-2      -10.17        0.80741       -18.95         
31.4984       0.04663       -176.76       9.477E-2      -10.77        9.457E-2      -10.36        0.80734       -19.33         
32.0984       0.04661       -176.73       9.475E-2      -10.99        9.459E-2      -10.56        0.80734       -19.69         
32.6984       0.04663       -176.71       9.476E-2      -11.19        9.458E-2      -10.75        0.80731       -20.06         
33.2984       0.04659       -176.65       9.479E-2      -11.39        9.462E-2      -10.96        0.80722       -20.43         
33.8983       0.04659       -176.63       9.471E-2      -11.57        9.464E-2      -11.14        0.80721       -20.79         
34.4983       0.04657       -176.55       9.481E-2      -11.76        9.462E-2      -11.36        0.8071        -21.16         
35.0983       0.04656       -176.56       9.479E-2      -11.94        9.467E-2      -11.56        0.80709       -21.53         
35.6982       0.04652       -176.52       9.482E-2      -12.20        9.467E-2      -11.75        0.80708       -21.89         
36.2982       0.04653       -176.47       9.484E-2      -12.40        9.469E-2      -11.95        0.80696       -22.26         
36.8982       0.04652       -176.45       9.484E-2      -12.56        9.468E-2      -12.17        0.80686       -22.63         
37.4981       0.04651       -176.38       9.483E-2      -12.77        9.471E-2      -12.37        0.80676       -22.99         
38.0981       0.04649       -176.35       9.483E-2      -12.98        9.468E-2      -12.55        0.80666       -23.36         
38.6981       0.04646       -176.31       9.483E-2      -13.20        9.466E-2      -12.75        0.80656       -23.71         
39.2981       0.04647       -176.31       9.483E-2      -13.37        9.469E-2      -12.92        0.80651       -24.08         
39.8980       0.04643       -176.32       9.484E-2      -13.59        9.468E-2      -13.17        0.80631       -24.45         
40.4980       0.04641       -176.22       9.481E-2      -13.78        9.475E-2      -13.35        0.80621       -24.81         
41.0980       0.0464        -176.19       9.485E-2      -13.98        9.47E-2       -13.55        0.80609       -25.18         
41.6979       0.04641       -176.12       9.488E-2      -14.20        9.468E-2      -13.75        0.80599       -25.54         
42.2979       0.04641       -176.06       9.492E-2      -14.39        9.471E-2      -13.93        0.80595       -25.90         
42.8979       0.04641       -176.00       9.488E-2      -14.61        9.478E-2      -14.15        0.80585       -26.27         
43.4978       0.04637       -175.95       9.49E-2       -14.79        9.476E-2      -14.32        0.8057        -26.63         
44.0978       0.04637       -175.93       9.495E-2      -14.98        9.478E-2      -14.54        0.80558       -26.99         
44.6978       0.04635       -175.88       9.491E-2      -15.18        9.48E-2       -14.74        0.80558       -27.36         
45.2978       0.04634       -175.87       9.496E-2      -15.38        9.476E-2      -14.95        0.80547       -27.73         
45.8977       0.04634       -175.80       9.497E-2      -15.56        9.479E-2      -15.14        0.80535       -28.09         
46.4977       0.04634       -175.78       9.498E-2      -15.75        9.48E-2       -15.34        0.80517       -28.46         
47.0977       0.04635       -175.70       9.49E-2       -15.92        9.48E-2       -15.57        0.80504       -28.84         
47.6976       0.04638       -175.65       9.495E-2      -16.13        9.486E-2      -15.79        0.80494       -29.21         
48.2976       0.04636       -175.59       9.495E-2      -16.32        9.484E-2      -15.98        0.8049        -29.58         
48.8976       0.04633       -175.53       9.496E-2      -16.51        9.486E-2      -16.19        0.80483       -29.94         
49.4975       0.04632       -175.52       9.497E-2      -16.74        9.487E-2      -16.37        0.80473       -30.30         
50.0975       0.0463        -175.47       9.502E-2      -16.91        9.485E-2      -16.60        0.80463       -30.68         
50.6975       0.04632       -175.46       9.501E-2      -17.14        9.484E-2      -16.82        0.80455       -31.04         
51.2975       0.04629       -175.42       9.504E-2      -17.30        9.482E-2      -17.00        0.8045        -31.41         
51.8974       0.0463        -175.40       9.514E-2      -17.55        9.481E-2      -17.18        0.80438       -31.77         
52.4974       0.04623       -175.34       9.517E-2      -17.80        9.477E-2      -17.34        0.80427       -32.14         
53.0974       0.04624       -175.32       9.514E-2      -18.03        9.469E-2      -17.48        0.80421       -32.50         
53.6973       0.04619       -175.24       9.536E-2      -18.44        9.373E-2      -17.42        0.80405       -32.87         
54.2973       0.04611       -175.64       9.607E-2      -18.75        9.455E-2      -18.03        0.80398       -33.23         
54.8973       0.0462        -175.15       9.503E-2      -18.54        9.492E-2      -18.17        0.80385       -33.60         
55.4972       0.04618       -175.10       9.507E-2      -18.76        9.495E-2      -18.38        0.80377       -33.97         
56.0972       0.04618       -175.03       9.506E-2      -18.95        9.497E-2      -18.57        0.80366       -34.33         
56.6972       0.04617       -175.02       9.506E-2      -19.19        9.494E-2      -18.77        0.80352       -34.70         
57.2972       0.04616       -174.95       9.507E-2      -19.37        9.496E-2      -18.98        0.80345       -35.07         
57.8971       0.04614       -174.94       9.507E-2      -19.59        9.497E-2      -19.19        0.80332       -35.44         
58.4971       0.04616       -174.87       9.503E-2      -19.78        9.50E-2       -19.35        0.80324       -35.81         
59.0971       0.04611       -174.82       9.508E-2      -20.02        9.498E-2      -19.56        0.80309       -36.18         
59.6970       0.04612       -174.77       9.509E-2      -20.18        9.497E-2      -19.77        0.80301       -36.56         
60.2970       0.04614       -174.73       9.511E-2      -20.43        9.498E-2      -19.97        0.8029        -36.93         
60.8970       0.04611       -174.68       9.51E-2       -20.63        9.499E-2      -20.16        0.80275       -37.30         
61.4969       0.04608       -174.61       9.512E-2      -20.84        9.503E-2      -20.39        0.80266       -37.67         
62.0969       0.04611       -174.60       9.51E-2       -21.04        9.501E-2      -20.58        0.80258       -38.04         
62.6969       0.04613       -174.48       9.511E-2      -21.23        9.504E-2      -20.77        0.80239       -38.41         
63.2969       0.04607       -174.47       9.511E-2      -21.43        9.501E-2      -20.99        0.80233       -38.78         
63.8968       0.04609       -174.37       9.511E-2      -21.63        9.506E-2      -21.20        0.80222       -39.15         
64.4968       0.04608       -174.37       9.509E-2      -21.83        9.503E-2      -21.43        0.80211       -39.52         
65.0968       0.04609       -174.34       9.511E-2      -22.04        9.506E-2      -21.60        0.80198       -39.89         
65.6967       0.04608       -174.24       9.511E-2      -22.29        9.505E-2      -21.81        0.80185       -40.26         
66.2967       0.04605       -174.21       9.51E-2       -22.44        9.504E-2      -22.04        0.80172       -40.63         
66.8967       0.04606       -174.15       9.508E-2      -22.63        9.504E-2      -22.21        0.80158       -41.00         
67.4966       0.04601       -174.11       9.514E-2      -22.80        9.511E-2      -22.42        0.80146       -41.36         
68.0966       0.04602       -174.08       9.515E-2      -23.05        9.508E-2      -22.61        0.80137       -41.74         
68.6966       0.04604       -173.96       9.514E-2      -23.22        9.508E-2      -22.81        0.80117       -42.10         
69.2966       0.04604       -173.96       9.516E-2      -23.43        9.51E-2       -23.00        0.801         -42.46         
69.8965       0.04601       -173.82       9.518E-2      -23.63        9.508E-2      -23.19        0.80092       -42.84         
70.4965       0.04601       -173.79       9.52E-2       -23.84        9.507E-2      -23.41        0.80081       -43.20         
71.0965       0.046         -173.76       9.515E-2      -24.04        9.507E-2      -23.61        0.80064       -43.57         
71.6964       0.04603       -173.75       9.516E-2      -24.26        9.508E-2      -23.79        0.80056       -43.93         
72.2964       0.046         -173.66       9.521E-2      -24.45        9.511E-2      -24.02        0.80041       -44.30         
72.8964       0.04598       -173.57       9.521E-2      -24.63        9.506E-2      -24.20        0.80032       -44.67         
73.4963       0.04598       -173.55       9.518E-2      -24.85        9.511E-2      -24.41        0.80025       -45.03         
74.0963       0.04597       -173.49       9.523E-2      -25.07        9.515E-2      -24.61        0.80013       -45.40         
74.6963       0.04596       -173.45       9.52E-2       -25.25        9.512E-2      -24.81        0.80007       -45.77         
75.2963       0.04589       -173.39       9.526E-2      -25.48        9.512E-2      -25.02        0.79992       -46.14         
75.8962       0.04593       -173.34       9.522E-2      -25.62        9.515E-2      -25.20        0.7998        -46.51         
76.4962       0.04593       -173.26       9.524E-2      -25.87        9.516E-2      -25.41        0.79968       -46.87         
77.0962       0.04592       -173.19       9.521E-2      -26.04        9.519E-2      -25.61        0.79949       -47.24         
77.6961       0.04591       -173.12       9.523E-2      -26.25        9.515E-2      -25.82        0.79935       -47.61         
78.2961       0.04588       -173.07       9.525E-2      -26.43        9.521E-2      -26.01        0.79925       -47.98         
78.8961       0.04591       -173.08       9.524E-2      -26.64        9.52E-2       -26.24        0.79905       -48.35         
79.4960       0.04589       -172.98       9.523E-2      -26.83        9.52E-2       -26.43        0.7989        -48.71         
80.0960       0.04588       -172.92       9.529E-2      -27.03        9.523E-2      -26.65        0.79877       -49.08         
80.6960       0.04585       -172.88       9.523E-2      -27.24        9.517E-2      -26.82        0.79853       -49.45         
81.2960       0.04587       -172.83       9.529E-2      -27.44        9.524E-2      -27.04        0.79841       -49.82         
81.8959       0.04586       -172.77       9.528E-2      -27.61        9.52E-2       -27.22        0.79825       -50.19         
82.4959       0.04586       -172.73       9.528E-2      -27.82        9.52E-2       -27.44        0.79804       -50.56         
83.0959       0.04586       -172.63       9.529E-2      -28.03        9.523E-2      -27.63        0.7979        -50.93         
83.6958       0.04583       -172.63       9.531E-2      -28.24        9.523E-2      -27.82        0.79769       -51.30         
84.2958       0.04581       -172.59       9.527E-2      -28.42        9.522E-2      -28.03        0.79757       -51.67         
84.8958       0.04583       -172.53       9.528E-2      -28.64        9.523E-2      -28.21        0.7974        -52.04         
85.4957       0.04583       -172.49       9.529E-2      -28.83        9.519E-2      -28.40        0.79719       -52.41         
86.0957       0.04579       -172.46       9.533E-2      -29.09        9.52E-2       -28.62        0.79705       -52.78         
86.6957       0.04583       -172.36       9.53E-2       -29.27        9.525E-2      -28.81        0.79692       -53.15         
87.2957       0.04579       -172.30       9.529E-2      -29.48        9.52E-2       -29.01        0.79668       -53.52         
87.8956       0.04578       -172.22       9.531E-2      -29.65        9.523E-2      -29.22        0.79657       -53.89         
88.4956       0.04578       -172.15       9.529E-2      -29.87        9.522E-2      -29.42        0.79633       -54.26         
89.0956       0.04577       -172.11       9.53E-2       -30.07        9.52E-2       -29.62        0.79627       -54.63         
89.6955       0.04578       -172.03       9.533E-2      -30.26        9.525E-2      -29.80        0.79604       -55.00         
90.2955       0.04578       -171.97       9.529E-2      -30.47        9.523E-2      -30.03        0.79588       -55.37         
90.8955       0.04579       -171.96       9.53E-2       -30.65        9.528E-2      -30.25        0.79574       -55.74         
91.4954       0.04579       -171.87       9.533E-2      -30.86        9.525E-2      -30.43        0.79558       -56.11         
92.0954       0.04578       -171.83       9.533E-2      -31.05        9.526E-2      -30.65        0.79546       -56.48         
