!    3/18/2021   08:05:19 
! Ref Plane: 13.288 mm
# MHZ S MA R  50
!
0.3000        0.04763       -178.71       9.759E-2      -1.09         9.541E-2      -0.81         0.81469       -0.22          
0.9000        0.04724       -178.22       9.356E-2      -0.56         9.42E-2       -0.17         0.80937       -0.59          
1.4999        0.04727       -178.00       9.393E-2      -0.50         9.416E-2      -0.34         0.80948       -0.90          
2.0999        0.04727       -177.95       9.404E-2      -0.66         9.418E-2      -0.55         0.80957       -1.29          
2.6999        0.04728       -177.97       9.399E-2      -0.86         9.418E-2      -0.76         0.8096        -1.68          
3.2999        0.04725       -177.96       9.407E-2      -1.03         9.414E-2      -0.93         0.80944       -2.06          
3.8998        0.04727       -177.92       9.406E-2      -1.28         9.416E-2      -1.18         0.80937       -2.43          
4.4998        0.04728       -177.94       9.408E-2      -1.53         9.418E-2      -1.37         0.8093        -2.82          
5.0998        0.04729       -177.85       9.412E-2      -1.74         9.419E-2      -1.59         0.8093        -3.19          
5.6997        0.04725       -177.88       9.412E-2      -1.93         9.422E-2      -1.80         0.80916       -3.57          
6.2997        0.04724       -177.84       9.408E-2      -2.11         9.423E-2      -1.98         0.80914       -3.95          
6.8997        0.04727       -177.83       9.411E-2      -2.37         9.422E-2      -2.17         0.80904       -4.32          
7.4996        0.04724       -177.80       9.416E-2      -2.57         9.42E-2       -2.40         0.80892       -4.69          
8.0996        0.04723       -177.82       9.414E-2      -2.74         9.426E-2      -2.60         0.80896       -5.06          
8.6996        0.04719       -177.76       9.416E-2      -2.96         9.422E-2      -2.83         0.80887       -5.43          
9.2996        0.0472        -177.73       9.422E-2      -3.15         9.423E-2      -3.00         0.80876       -5.82          
9.8995        0.04719       -177.75       9.417E-2      -3.36         9.427E-2      -3.21         0.80877       -6.19          
10.4995       0.0472        -177.65       9.418E-2      -3.61         9.426E-2      -3.43         0.80867       -6.57          
11.0995       0.04723       -177.68       9.421E-2      -3.77         9.427E-2      -3.63         0.80865       -6.94          
11.6994       0.04723       -177.66       9.419E-2      -3.98         9.433E-2      -3.84         0.80858       -7.31          
12.2994       0.04721       -177.60       9.421E-2      -4.16         9.431E-2      -4.01         0.80852       -7.69          
12.8994       0.04719       -177.59       9.421E-2      -4.43         9.429E-2      -4.23         0.80852       -8.07          
13.4993       0.04717       -177.57       9.425E-2      -4.59         9.43E-2       -4.44         0.80847       -8.44          
14.0993       0.04717       -177.55       9.426E-2      -4.78         9.432E-2      -4.64         0.80836       -8.82          
14.6993       0.04715       -177.51       9.43E-2       -4.99         9.43E-2       -4.86         0.80831       -9.19          
15.2993       0.04717       -177.49       9.429E-2      -5.21         9.434E-2      -5.04         0.80829       -9.56          
15.8992       0.04714       -177.47       9.437E-2      -5.40         9.437E-2      -5.26         0.80831       -9.94          
16.4992       0.0471        -177.41       9.439E-2      -5.62         9.434E-2      -5.50         0.80826       -10.31         
17.0992       0.0471        -177.39       9.436E-2      -5.81         9.437E-2      -5.68         0.80823       -10.68         
17.6991       0.0471        -177.31       9.43E-2       -6.01         9.438E-2      -5.88         0.80817       -11.06         
18.2991       0.04707       -177.34       9.442E-2      -6.20         9.437E-2      -6.11         0.80811       -11.43         
18.8991       0.04705       -177.30       9.439E-2      -6.45         9.44E-2       -6.31         0.80809       -11.81         
19.4990       0.04706       -177.28       9.437E-2      -6.62         9.44E-2       -6.50         0.80808       -12.18         
20.0990       0.04704       -177.24       9.438E-2      -6.85         9.439E-2      -6.70         0.80797       -12.56         
20.6990       0.04705       -177.21       9.442E-2      -7.06         9.444E-2      -6.92         0.80796       -12.93         
21.2990       0.04704       -177.19       9.443E-2      -7.25         9.445E-2      -7.14         0.80794       -13.31         
21.8989       0.04703       -177.17       9.447E-2      -7.47         9.448E-2      -7.32         0.80787       -13.67         
22.4989       0.04701       -177.10       9.45E-2       -7.66         9.443E-2      -7.51         0.80792       -14.04         
23.0989       0.04703       -177.03       9.449E-2      -7.86         9.447E-2      -7.73         0.8079        -14.42         
23.6988       0.04703       -177.01       9.449E-2      -8.06         9.45E-2       -7.94         0.80785       -14.79         
24.2988       0.04702       -176.98       9.448E-2      -8.24         9.451E-2      -8.15         0.80781       -15.17         
24.8988       0.04702       -176.93       9.445E-2      -8.44         9.45E-2       -8.33         0.80784       -15.54         
25.4987       0.04698       -176.90       9.449E-2      -8.66         9.45E-2       -8.55         0.80778       -15.91         
26.0987       0.04694       -176.84       9.45E-2       -8.90         9.459E-2      -8.76         0.8078        -16.29         
26.6987       0.04697       -176.82       9.449E-2      -9.06         9.453E-2      -8.92         0.8078        -16.66         
27.2987       0.04691       -176.77       9.449E-2      -9.24         9.46E-2       -9.14         0.80774       -17.03         
27.8986       0.04693       -176.73       9.456E-2      -9.48         9.457E-2      -9.32         0.80764       -17.40         
28.4986       0.04689       -176.73       9.461E-2      -9.67         9.455E-2      -9.54         0.8076        -17.78         
29.0986       0.04689       -176.69       9.454E-2      -9.87         9.459E-2      -9.75         0.80758       -18.15         
29.6985       0.04689       -176.64       9.456E-2      -10.09        9.462E-2      -9.94         0.80753       -18.52         
30.2985       0.04687       -176.63       9.456E-2      -10.32        9.462E-2      -10.15        0.80747       -18.89         
30.8985       0.04687       -176.60       9.457E-2      -10.51        9.457E-2      -10.38        0.80737       -19.27         
31.4984       0.04685       -176.51       9.462E-2      -10.71        9.462E-2      -10.59        0.80732       -19.64         
32.0984       0.04681       -176.49       9.461E-2      -10.92        9.463E-2      -10.78        0.80729       -20.02         
32.6984       0.04685       -176.46       9.461E-2      -11.11        9.463E-2      -10.98        0.80725       -20.39         
33.2984       0.04682       -176.39       9.463E-2      -11.33        9.465E-2      -11.19        0.80725       -20.77         
33.8983       0.04681       -176.36       9.458E-2      -11.50        9.466E-2      -11.38        0.80718       -21.13         
34.4983       0.04681       -176.30       9.465E-2      -11.70        9.47E-2       -11.59        0.80719       -21.51         
35.0983       0.04679       -176.28       9.463E-2      -11.89        9.469E-2      -11.78        0.80712       -21.88         
35.6982       0.04677       -176.25       9.466E-2      -12.13        9.469E-2      -11.99        0.80705       -22.25         
36.2982       0.04677       -176.19       9.469E-2      -12.35        9.471E-2      -12.19        0.80702       -22.62         
36.8982       0.04675       -176.15       9.467E-2      -12.52        9.472E-2      -12.41        0.80692       -23.00         
37.4981       0.04673       -176.10       9.468E-2      -12.73        9.472E-2      -12.60        0.80679       -23.36         
38.0981       0.04672       -176.05       9.468E-2      -12.94        9.471E-2      -12.80        0.80666       -23.73         
38.6981       0.04669       -176.04       9.467E-2      -13.17        9.47E-2       -13.00        0.80658       -24.10         
39.2981       0.0467        -176.02       9.467E-2      -13.35        9.475E-2      -13.17        0.80656       -24.47         
39.8980       0.04669       -176.00       9.467E-2      -13.55        9.47E-2       -13.39        0.80637       -24.84         
40.4980       0.04666       -175.90       9.464E-2      -13.73        9.475E-2      -13.61        0.80629       -25.21         
41.0980       0.04665       -175.91       9.471E-2      -13.94        9.473E-2      -13.79        0.80618       -25.58         
41.6979       0.04663       -175.81       9.473E-2      -14.19        9.47E-2       -14.02        0.80608       -25.95         
42.2979       0.04663       -175.75       9.475E-2      -14.37        9.474E-2      -14.18        0.80606       -26.32         
42.8979       0.04663       -175.69       9.47E-2       -14.60        9.476E-2      -14.41        0.80594       -26.69         
43.4978       0.04661       -175.71       9.474E-2      -14.77        9.479E-2      -14.58        0.80586       -27.06         
44.0978       0.04662       -175.66       9.479E-2      -14.95        9.479E-2      -14.80        0.80574       -27.43         
44.6978       0.04659       -175.57       9.476E-2      -15.16        9.48E-2       -15.01        0.80574       -27.80         
45.2978       0.04659       -175.56       9.479E-2      -15.36        9.474E-2      -15.22        0.80562       -28.17         
45.8977       0.0466        -175.46       9.483E-2      -15.53        9.479E-2      -15.41        0.80549       -28.54         
46.4977       0.04661       -175.45       9.482E-2      -15.75        9.478E-2      -15.63        0.80533       -28.91         
47.0977       0.04659       -175.41       9.476E-2      -15.93        9.48E-2       -15.83        0.80521       -29.30         
47.6976       0.04663       -175.38       9.479E-2      -16.15        9.485E-2      -16.04        0.80518       -29.67         
48.2976       0.0466        -175.27       9.479E-2      -16.35        9.485E-2      -16.23        0.80515       -30.05         
48.8976       0.04658       -175.23       9.479E-2      -16.55        9.482E-2      -16.46        0.80507       -30.42         
49.4975       0.04653       -175.25       9.479E-2      -16.78        9.486E-2      -16.65        0.80501       -30.79         
50.0975       0.04658       -175.15       9.481E-2      -16.96        9.483E-2      -16.87        0.80488       -31.17         
50.6975       0.04653       -175.17       9.481E-2      -17.18        9.481E-2      -17.09        0.80483       -31.53         
51.2975       0.04652       -175.07       9.484E-2      -17.35        9.484E-2      -17.27        0.80478       -31.91         
51.8974       0.04651       -175.07       9.486E-2      -17.57        9.483E-2      -17.48        0.80466       -32.28         
52.4974       0.04648       -175.02       9.487E-2      -17.78        9.483E-2      -17.67        0.80457       -32.65         
53.0974       0.04651       -174.90       9.486E-2      -17.98        9.48E-2       -17.84        0.8045        -33.02         
53.6973       0.04648       -174.88       9.495E-2      -18.29        9.464E-2      -18.08        0.80434       -33.39         
54.2973       0.04647       -174.88       9.482E-2      -18.37        9.488E-2      -18.28        0.80432       -33.76         
54.8973       0.04646       -174.79       9.483E-2      -18.57        9.487E-2      -18.47        0.80421       -34.13         
55.4972       0.04643       -174.75       9.488E-2      -18.79        9.494E-2      -18.67        0.80415       -34.50         
56.0972       0.04644       -174.65       9.486E-2      -18.98        9.494E-2      -18.88        0.80401       -34.87         
56.6972       0.04642       -174.67       9.482E-2      -19.21        9.488E-2      -19.07        0.80389       -35.25         
57.2972       0.04643       -174.62       9.484E-2      -19.42        9.493E-2      -19.27        0.80385       -35.62         
57.8971       0.04641       -174.59       9.486E-2      -19.61        9.489E-2      -19.49        0.80371       -35.99         
58.4971       0.04644       -174.54       9.481E-2      -19.81        9.494E-2      -19.67        0.80362       -36.37         
59.0971       0.0464        -174.46       9.483E-2      -20.05        9.494E-2      -19.89        0.80356       -36.75         
59.6970       0.04639       -174.40       9.487E-2      -20.22        9.489E-2      -20.09        0.80344       -37.12         
60.2970       0.04638       -174.39       9.489E-2      -20.45        9.492E-2      -20.30        0.80337       -37.50         
60.8970       0.04638       -174.30       9.489E-2      -20.65        9.492E-2      -20.50        0.80326       -37.88         
61.4969       0.04634       -174.29       9.49E-2       -20.89        9.496E-2      -20.70        0.80316       -38.25         
62.0969       0.04638       -174.22       9.484E-2      -21.07        9.49E-2       -20.92        0.80307       -38.63         
62.6969       0.0464        -174.11       9.488E-2      -21.29        9.493E-2      -21.11        0.80293       -39.01         
63.2969       0.04634       -174.08       9.488E-2      -21.47        9.492E-2      -21.31        0.80286       -39.38         
63.8968       0.04636       -174.02       9.484E-2      -21.66        9.496E-2      -21.55        0.80273       -39.76         
64.4968       0.04636       -174.00       9.485E-2      -21.87        9.493E-2      -21.77        0.80263       -40.13         
65.0968       0.04636       -173.95       9.484E-2      -22.09        9.497E-2      -21.94        0.80251       -40.51         
65.6967       0.04634       -173.89       9.488E-2      -22.32        9.494E-2      -22.15        0.80239       -40.88         
66.2967       0.0463        -173.83       9.485E-2      -22.48        9.494E-2      -22.37        0.8023        -41.25         
66.8967       0.04633       -173.74       9.484E-2      -22.69        9.493E-2      -22.55        0.80219       -41.63         
67.4966       0.04632       -173.77       9.49E-2       -22.87        9.50E-2       -22.75        0.80208       -42.00         
68.0966       0.0463        -173.69       9.488E-2      -23.12        9.495E-2      -22.95        0.80197       -42.37         
68.6966       0.04629       -173.58       9.488E-2      -23.30        9.495E-2      -23.16        0.80183       -42.74         
69.2966       0.04629       -173.58       9.49E-2       -23.47        9.498E-2      -23.33        0.80173       -43.11         
69.8965       0.0463        -173.46       9.491E-2      -23.69        9.496E-2      -23.54        0.80164       -43.49         
70.4965       0.04627       -173.41       9.494E-2      -23.90        9.495E-2      -23.76        0.80149       -43.86         
71.0965       0.04626       -173.42       9.488E-2      -24.09        9.494E-2      -23.94        0.80135       -44.23         
71.6964       0.04627       -173.36       9.486E-2      -24.32        9.497E-2      -24.15        0.80131       -44.60         
72.2964       0.04629       -173.31       9.494E-2      -24.53        9.494E-2      -24.37        0.80111       -44.97         
72.8964       0.04624       -173.23       9.495E-2      -24.70        9.492E-2      -24.57        0.80109       -45.34         
73.4963       0.04628       -173.14       9.492E-2      -24.92        9.497E-2      -24.79        0.80102       -45.71         
74.0963       0.04623       -173.12       9.493E-2      -25.13        9.499E-2      -24.99        0.80091       -46.09         
74.6963       0.04623       -173.11       9.491E-2      -25.32        9.498E-2      -25.17        0.80085       -46.46         
75.2963       0.04619       -173.04       9.497E-2      -25.55        9.497E-2      -25.38        0.80075       -46.83         
75.8962       0.0462        -172.93       9.492E-2      -25.69        9.499E-2      -25.57        0.80058       -47.21         
76.4962       0.0462        -172.91       9.495E-2      -25.95        9.502E-2      -25.80        0.80047       -47.58         
77.0962       0.04618       -172.82       9.489E-2      -26.13        9.501E-2      -26.02        0.80031       -47.95         
77.6961       0.04619       -172.80       9.492E-2      -26.32        9.50E-2       -26.19        0.80017       -48.33         
78.2961       0.04616       -172.73       9.493E-2      -26.52        9.50E-2       -26.39        0.80003       -48.70         
78.8961       0.04618       -172.67       9.491E-2      -26.74        9.502E-2      -26.59        0.79992       -49.07         
79.4960       0.04618       -172.63       9.49E-2       -26.90        9.50E-2       -26.81        0.79977       -49.44         
80.0960       0.04616       -172.57       9.499E-2      -27.12        9.504E-2      -27.02        0.79963       -49.82         
80.6960       0.04616       -172.53       9.492E-2      -27.34        9.501E-2      -27.19        0.79943       -50.19         
81.2960       0.04613       -172.47       9.497E-2      -27.52        9.504E-2      -27.40        0.79934       -50.56         
81.8959       0.04613       -172.42       9.493E-2      -27.72        9.50E-2       -27.59        0.79919       -50.93         
82.4959       0.04614       -172.37       9.498E-2      -27.92        9.501E-2      -27.82        0.799         -51.31         
83.0959       0.04611       -172.28       9.496E-2      -28.13        9.502E-2      -27.99        0.79884       -51.68         
83.6958       0.04612       -172.31       9.492E-2      -28.36        9.50E-2       -28.20        0.79868       -52.05         
84.2958       0.04611       -172.23       9.492E-2      -28.53        9.503E-2      -28.41        0.79854       -52.43         
84.8958       0.04614       -172.16       9.493E-2      -28.75        9.502E-2      -28.61        0.79843       -52.80         
85.4957       0.04613       -172.11       9.493E-2      -28.94        9.497E-2      -28.81        0.79824       -53.18         
86.0957       0.04612       -172.05       9.496E-2      -29.17        9.497E-2      -29.01        0.79806       -53.55         
86.6957       0.0461        -172.01       9.492E-2      -29.35        9.50E-2       -29.21        0.79797       -53.92         
87.2957       0.04609       -171.96       9.492E-2      -29.60        9.498E-2      -29.41        0.79781       -54.30         
87.8956       0.04611       -171.84       9.494E-2      -29.76        9.498E-2      -29.62        0.79763       -54.67         
88.4956       0.04609       -171.79       9.489E-2      -30.00        9.50E-2       -29.82        0.79748       -55.04         
89.0956       0.04608       -171.76       9.493E-2      -30.16        9.50E-2       -30.02        0.79735       -55.42         
89.6955       0.0461        -171.67       9.492E-2      -30.38        9.499E-2      -30.21        0.79715       -55.80         
90.2955       0.0461        -171.66       9.493E-2      -30.60        9.497E-2      -30.42        0.79705       -56.17         
90.8955       0.0461        -171.63       9.49E-2       -30.77        9.501E-2      -30.62        0.7969        -56.54         
91.4954       0.0461        -171.53       9.493E-2      -30.97        9.499E-2      -30.84        0.79675       -56.92         
92.0954       0.04611       -171.47       9.494E-2      -31.18        9.501E-2      -31.05        0.79666       -57.30         
