!    3/18/2021   19:22:17 
! Ref Plane: 13.288 mm
# MHZ S MA R  50
!
0.3000        0.04765       -179.49       9.739E-2      -1.27         9.577E-2      -0.54         0.81669       -0.13          
0.9000        0.04721       -178.53       9.337E-2      -0.63         9.452E-2      -0.12         0.81114       -0.55          
1.4999        0.0472        -178.14       9.387E-2      -0.62         9.425E-2      -0.23         0.81055       -0.85          
2.0999        0.04723       -177.99       9.402E-2      -0.82         9.419E-2      -0.45         0.81013       -1.26          
2.6999        0.04724       -177.96       9.398E-2      -0.99         9.414E-2      -0.66         0.81003       -1.66          
3.2999        0.04725       -177.94       9.41E-2       -1.20         9.411E-2      -0.83         0.80982       -2.05          
3.8998        0.04727       -177.91       9.411E-2      -1.42         9.414E-2      -1.09         0.80972       -2.43          
4.4998        0.04726       -177.89       9.414E-2      -1.69         9.414E-2      -1.28         0.80962       -2.82          
5.0998        0.04725       -177.82       9.417E-2      -1.86         9.416E-2      -1.51         0.80964       -3.20          
5.6997        0.04721       -177.82       9.42E-2       -2.08         9.415E-2      -1.71         0.80948       -3.58          
6.2997        0.04723       -177.79       9.416E-2      -2.26         9.413E-2      -1.92         0.80941       -3.96          
6.8997        0.04723       -177.76       9.421E-2      -2.50         9.411E-2      -2.11         0.80931       -4.34          
7.4996        0.04721       -177.69       9.423E-2      -2.70         9.411E-2      -2.34         0.80929       -4.71          
8.0996        0.0472        -177.68       9.424E-2      -2.86         9.416E-2      -2.54         0.80921       -5.09          
8.6996        0.04717       -177.67       9.429E-2      -3.08         9.412E-2      -2.78         0.80913       -5.46          
9.2996        0.04717       -177.60       9.431E-2      -3.29         9.416E-2      -2.97         0.80905       -5.84          
9.8995        0.04713       -177.63       9.425E-2      -3.48         9.418E-2      -3.19         0.80902       -6.22          
10.4995       0.04716       -177.52       9.428E-2      -3.76         9.415E-2      -3.41         0.80896       -6.60          
11.0995       0.04719       -177.51       9.433E-2      -3.92         9.42E-2       -3.59         0.80889       -6.97          
11.6994       0.04719       -177.52       9.428E-2      -4.11         9.42E-2       -3.80         0.80883       -7.35          
12.2994       0.04715       -177.43       9.433E-2      -4.29         9.419E-2      -4.00         0.80879       -7.72          
12.8994       0.04713       -177.40       9.433E-2      -4.57         9.419E-2      -4.23         0.80877       -8.10          
13.4993       0.04711       -177.37       9.436E-2      -4.73         9.422E-2      -4.42         0.80873       -8.47          
14.0993       0.04711       -177.36       9.436E-2      -4.92         9.422E-2      -4.60         0.80858       -8.85          
14.6993       0.04709       -177.29       9.437E-2      -5.12         9.422E-2      -4.83         0.80857       -9.22          
15.2993       0.04712       -177.24       9.438E-2      -5.35         9.424E-2      -5.01         0.80858       -9.60          
15.8992       0.04709       -177.27       9.448E-2      -5.55         9.425E-2      -5.25         0.80855       -9.98          
16.4992       0.04709       -177.13       9.446E-2      -5.77         9.425E-2      -5.45         0.80855       -10.35         
17.0992       0.04704       -177.12       9.446E-2      -5.95         9.424E-2      -5.65         0.80845       -10.72         
17.6991       0.04709       -177.04       9.439E-2      -6.16         9.43E-2       -5.86         0.80837       -11.10         
18.2991       0.04704       -177.09       9.447E-2      -6.39         9.428E-2      -6.08         0.80838       -11.47         
18.8991       0.04703       -176.98       9.449E-2      -6.60         9.432E-2      -6.29         0.80834       -11.85         
19.4990       0.047         -176.98       9.448E-2      -6.77         9.43E-2       -6.47         0.80826       -12.22         
20.0990       0.04701       -176.91       9.447E-2      -7.01         9.429E-2      -6.65         0.80825       -12.60         
20.6990       0.04699       -176.92       9.45E-2       -7.21         9.434E-2      -6.88         0.80817       -12.97         
21.2990       0.04696       -176.83       9.451E-2      -7.43         9.436E-2      -7.09         0.80818       -13.35         
21.8989       0.04698       -176.81       9.454E-2      -7.63         9.436E-2      -7.27         0.80817       -13.72         
22.4989       0.04695       -176.74       9.459E-2      -7.81         9.437E-2      -7.49         0.80814       -14.09         
23.0989       0.04698       -176.69       9.455E-2      -8.02         9.438E-2      -7.69         0.80815       -14.46         
23.6988       0.04698       -176.66       9.458E-2      -8.22         9.441E-2      -7.90         0.80812       -14.84         
24.2988       0.04697       -176.61       9.456E-2      -8.41         9.443E-2      -8.12         0.80812       -15.21         
24.8988       0.04695       -176.53       9.452E-2      -8.61         9.441E-2      -8.30         0.80813       -15.58         
25.4987       0.04693       -176.49       9.454E-2      -8.83         9.444E-2      -8.52         0.80809       -15.96         
26.0987       0.0469        -176.42       9.457E-2      -9.07         9.452E-2      -8.71         0.80808       -16.33         
26.6987       0.04691       -176.38       9.456E-2      -9.22         9.445E-2      -8.90         0.8081        -16.70         
27.2987       0.04688       -176.34       9.455E-2      -9.43         9.452E-2      -9.13         0.80805       -17.08         
27.8986       0.0469        -176.27       9.459E-2      -9.65         9.45E-2       -9.29         0.80793       -17.45         
28.4986       0.04687       -176.25       9.468E-2      -9.84         9.448E-2      -9.50         0.80792       -17.83         
29.0986       0.04687       -176.24       9.461E-2      -10.05        9.453E-2      -9.70         0.80788       -18.20         
29.6985       0.04684       -176.16       9.463E-2      -10.26        9.454E-2      -9.91         0.80777       -18.57         
30.2985       0.04681       -176.14       9.463E-2      -10.49        9.456E-2      -10.12        0.80774       -18.94         
30.8985       0.04684       -176.09       9.466E-2      -10.68        9.448E-2      -10.37        0.80759       -19.32         
31.4984       0.0468        -176.04       9.467E-2      -10.86        9.453E-2      -10.57        0.80756       -19.69         
32.0984       0.04677       -175.97       9.469E-2      -11.09        9.456E-2      -10.77        0.80754       -20.07         
32.6984       0.04682       -175.91       9.469E-2      -11.29        9.455E-2      -10.95        0.80755       -20.44         
33.2984       0.04679       -175.86       9.47E-2       -11.50        9.458E-2      -11.17        0.80748       -20.81         
33.8983       0.04678       -175.82       9.463E-2      -11.67        9.46E-2       -11.37        0.8075        -21.18         
34.4983       0.04677       -175.77       9.47E-2       -11.88        9.462E-2      -11.58        0.80738       -21.56         
35.0983       0.04676       -175.72       9.47E-2       -12.04        9.464E-2      -11.77        0.80743       -21.93         
35.6982       0.04671       -175.72       9.473E-2      -12.31        9.463E-2      -11.97        0.80734       -22.30         
36.2982       0.04673       -175.63       9.475E-2      -12.52        9.467E-2      -12.18        0.80724       -22.68         
36.8982       0.04674       -175.58       9.473E-2      -12.68        9.462E-2      -12.40        0.80719       -23.05         
37.4981       0.04669       -175.52       9.471E-2      -12.90        9.466E-2      -12.59        0.80703       -23.42         
38.0981       0.04669       -175.48       9.474E-2      -13.12        9.467E-2      -12.79        0.80696       -23.79         
38.6981       0.04666       -175.42       9.474E-2      -13.33        9.462E-2      -12.98        0.8069        -24.16         
39.2981       0.04667       -175.38       9.472E-2      -13.49        9.467E-2      -13.16        0.80685       -24.53         
39.8980       0.04667       -175.35       9.472E-2      -13.72        9.463E-2      -13.40        0.80668       -24.90         
40.4980       0.04665       -175.27       9.469E-2      -13.91        9.47E-2       -13.59        0.80655       -25.27         
41.0980       0.04661       -175.26       9.473E-2      -14.12        9.465E-2      -13.78        0.80646       -25.64         
41.6979       0.04662       -175.15       9.482E-2      -14.34        9.464E-2      -14.00        0.80635       -26.01         
42.2979       0.04664       -175.12       9.478E-2      -14.52        9.466E-2      -14.17        0.80631       -26.38         
42.8979       0.04664       -175.04       9.478E-2      -14.77        9.469E-2      -14.40        0.8062        -26.75         
43.4978       0.04662       -174.98       9.477E-2      -14.93        9.469E-2      -14.58        0.80613       -27.12         
44.0978       0.04662       -174.97       9.483E-2      -15.13        9.471E-2      -14.79        0.80601       -27.49         
44.6978       0.0466        -174.90       9.48E-2       -15.32        9.474E-2      -15.01        0.80601       -27.86         
45.2978       0.04658       -174.87       9.485E-2      -15.54        9.469E-2      -15.21        0.80587       -28.23         
45.8977       0.04659       -174.78       9.486E-2      -15.71        9.471E-2      -15.40        0.80575       -28.60         
46.4977       0.04659       -174.75       9.485E-2      -15.90        9.469E-2      -15.61        0.80561       -28.97         
47.0977       0.04662       -174.66       9.478E-2      -16.06        9.475E-2      -15.83        0.80549       -29.36         
47.6976       0.04666       -174.61       9.482E-2      -16.31        9.477E-2      -16.06        0.80539       -29.74         
48.2976       0.04663       -174.53       9.484E-2      -16.50        9.477E-2      -16.24        0.80535       -30.11         
48.8976       0.04659       -174.47       9.482E-2      -16.71        9.476E-2      -16.47        0.80529       -30.48         
49.4975       0.04658       -174.45       9.484E-2      -16.93        9.478E-2      -16.65        0.80525       -30.85         
50.0975       0.04657       -174.39       9.486E-2      -17.09        9.474E-2      -16.87        0.80512       -31.23         
50.6975       0.04659       -174.38       9.485E-2      -17.33        9.474E-2      -17.10        0.80507       -31.60         
51.2975       0.04658       -174.30       9.49E-2       -17.50        9.474E-2      -17.27        0.80503       -31.97         
51.8974       0.04656       -174.25       9.495E-2      -17.73        9.47E-2       -17.46        0.80494       -32.34         
52.4974       0.04653       -174.21       9.50E-2       -17.98        9.468E-2      -17.63        0.80482       -32.71         
53.0974       0.04654       -174.14       9.499E-2      -18.21        9.464E-2      -17.78        0.80471       -33.08         
53.6973       0.0465        -174.07       9.517E-2      -18.64        9.364E-2      -17.73        0.80466       -33.45         
54.2973       0.04639       -174.48       9.585E-2      -18.85        9.476E-2      -18.28        0.80454       -33.82         
54.8973       0.0465        -173.92       9.489E-2      -18.75        9.482E-2      -18.46        0.80445       -34.20         
55.4972       0.04647       -173.88       9.49E-2       -18.96        9.486E-2      -18.68        0.80436       -34.57         
56.0972       0.04651       -173.83       9.488E-2      -19.15        9.485E-2      -18.86        0.80424       -34.94         
56.6972       0.04647       -173.81       9.488E-2      -19.39        9.483E-2      -19.07        0.80414       -35.31         
57.2972       0.04644       -173.72       9.489E-2      -19.59        9.484E-2      -19.27        0.80406       -35.69         
57.8971       0.04646       -173.68       9.49E-2       -19.79        9.484E-2      -19.47        0.80397       -36.06         
58.4971       0.04648       -173.64       9.486E-2      -19.98        9.487E-2      -19.68        0.80391       -36.44         
59.0971       0.04645       -173.59       9.488E-2      -20.23        9.488E-2      -19.88        0.80382       -36.82         
59.6970       0.04645       -173.49       9.49E-2       -20.39        9.484E-2      -20.08        0.80368       -37.19         
60.2970       0.04643       -173.47       9.491E-2      -20.65        9.487E-2      -20.29        0.80362       -37.57         
60.8970       0.04644       -173.39       9.493E-2      -20.83        9.482E-2      -20.49        0.80345       -37.95         
61.4969       0.0464        -173.28       9.49E-2       -21.07        9.491E-2      -20.71        0.80339       -38.32         
62.0969       0.04645       -173.29       9.49E-2       -21.26        9.483E-2      -20.90        0.80327       -38.70         
62.6969       0.04643       -173.18       9.488E-2      -21.46        9.488E-2      -21.12        0.80312       -39.08         
63.2969       0.0464        -173.15       9.491E-2      -21.65        9.486E-2      -21.31        0.80307       -39.45         
63.8968       0.04642       -173.06       9.486E-2      -21.87        9.49E-2       -21.52        0.80296       -39.83         
64.4968       0.04644       -173.02       9.489E-2      -22.06        9.488E-2      -21.76        0.80289       -40.20         
65.0968       0.04641       -172.98       9.488E-2      -22.28        9.488E-2      -21.92        0.80274       -40.58         
65.6967       0.04643       -172.89       9.491E-2      -22.52        9.49E-2       -22.16        0.80264       -40.95         
66.2967       0.04637       -172.84       9.489E-2      -22.66        9.489E-2      -22.37        0.80254       -41.32         
66.8967       0.04639       -172.77       9.487E-2      -22.88        9.487E-2      -22.55        0.80241       -41.70         
67.4966       0.04641       -172.72       9.492E-2      -23.05        9.494E-2      -22.76        0.80229       -42.07         
68.0966       0.04637       -172.64       9.492E-2      -23.30        9.491E-2      -22.96        0.80216       -42.45         
68.6966       0.04639       -172.55       9.487E-2      -23.48        9.489E-2      -23.16        0.80208       -42.81         
69.2966       0.04639       -172.52       9.493E-2      -23.66        9.492E-2      -23.34        0.80197       -43.19         
69.8965       0.04638       -172.43       9.494E-2      -23.86        9.489E-2      -23.55        0.80184       -43.56         
70.4965       0.0464        -172.37       9.498E-2      -24.08        9.49E-2       -23.76        0.80176       -43.93         
71.0965       0.04636       -172.33       9.492E-2      -24.28        9.488E-2      -23.95        0.80156       -44.30         
71.6964       0.0464        -172.27       9.489E-2      -24.52        9.489E-2      -24.17        0.80154       -44.67         
72.2964       0.04638       -172.19       9.495E-2      -24.73        9.488E-2      -24.37        0.80134       -45.05         
72.8964       0.04635       -172.13       9.498E-2      -24.91        9.486E-2      -24.56        0.80132       -45.42         
73.4963       0.04636       -172.07       9.495E-2      -25.11        9.491E-2      -24.78        0.80127       -45.79         
74.0963       0.04636       -171.95       9.495E-2      -25.33        9.491E-2      -24.99        0.80114       -46.16         
74.6963       0.04633       -171.95       9.493E-2      -25.52        9.491E-2      -25.16        0.80106       -46.53         
75.2963       0.04631       -171.89       9.50E-2       -25.73        9.49E-2       -25.38        0.80095       -46.91         
75.8962       0.0463        -171.83       9.493E-2      -25.89        9.492E-2      -25.57        0.80085       -47.28         
76.4962       0.04631       -171.72       9.497E-2      -26.13        9.494E-2      -25.80        0.80075       -47.65         
77.0962       0.04631       -171.66       9.494E-2      -26.33        9.493E-2      -26.00        0.80058       -48.02         
77.6961       0.04631       -171.57       9.494E-2      -26.54        9.491E-2      -26.18        0.80041       -48.40         
78.2961       0.0463        -171.53       9.496E-2      -26.71        9.495E-2      -26.39        0.80035       -48.77         
78.8961       0.0463        -171.49       9.497E-2      -26.93        9.497E-2      -26.60        0.80018       -49.14         
79.4960       0.04631       -171.41       9.493E-2      -27.10        9.496E-2      -26.81        0.80005       -49.51         
80.0960       0.04632       -171.37       9.501E-2      -27.30        9.497E-2      -27.02        0.79986       -49.89         
80.6960       0.04627       -171.27       9.495E-2      -27.54        9.493E-2      -27.20        0.79973       -50.26         
81.2960       0.04631       -171.25       9.498E-2      -27.73        9.497E-2      -27.42        0.79963       -50.63         
81.8959       0.04629       -171.19       9.496E-2      -27.93        9.493E-2      -27.61        0.79943       -51.01         
82.4959       0.04628       -171.12       9.498E-2      -28.12        9.494E-2      -27.83        0.79929       -51.38         
83.0959       0.04628       -171.05       9.497E-2      -28.33        9.497E-2      -28.01        0.79913       -51.75         
83.6958       0.04628       -171.04       9.499E-2      -28.55        9.495E-2      -28.22        0.79892       -52.13         
84.2958       0.04626       -170.95       9.496E-2      -28.73        9.497E-2      -28.44        0.7988        -52.50         
84.8958       0.04626       -170.88       9.495E-2      -28.94        9.494E-2      -28.62        0.79867       -52.88         
85.4957       0.04629       -170.80       9.496E-2      -29.14        9.491E-2      -28.81        0.7985        -53.25         
86.0957       0.04628       -170.77       9.502E-2      -29.37        9.49E-2       -29.01        0.79838       -53.63         
86.6957       0.04627       -170.70       9.497E-2      -29.55        9.492E-2      -29.20        0.79827       -54.00         
87.2957       0.04625       -170.62       9.495E-2      -29.80        9.492E-2      -29.41        0.79807       -54.37         
87.8956       0.04627       -170.53       9.498E-2      -29.95        9.491E-2      -29.63        0.79793       -54.75         
88.4956       0.04629       -170.46       9.494E-2      -30.18        9.492E-2      -29.83        0.79774       -55.12         
89.0956       0.04625       -170.37       9.495E-2      -30.36        9.49E-2       -30.03        0.79766       -55.50         
89.6955       0.04627       -170.34       9.497E-2      -30.56        9.492E-2      -30.23        0.79746       -55.87         
90.2955       0.04629       -170.26       9.493E-2      -30.79        9.492E-2      -30.45        0.79728       -56.24         
90.8955       0.04627       -170.24       9.494E-2      -30.96        9.497E-2      -30.64        0.79722       -56.62         
91.4954       0.0463        -170.15       9.495E-2      -31.16        9.494E-2      -30.85        0.79709       -57.00         
92.0954       0.04628       -170.09       9.498E-2      -31.37        9.493E-2      -31.07        0.79697       -57.37         
