!    3/18/2021   11:04:56 
! Ref Plane: 13.288 mm
# MHZ S MA R  50
!
0.3000        0.04732       -178.34       9.762E-2      -1.24         9.538E-2      -0.61         0.81482       -0.25          
0.9000        0.04716       -178.08       9.352E-2      -0.66         9.418E-2      -0.06         0.80937       -0.62          
1.4999        0.04721       -177.91       9.388E-2      -0.61         9.41E-2       -0.22         0.80962       -0.94          
2.0999        0.04722       -177.86       9.40E-2       -0.80         9.41E-2       -0.43         0.8096        -1.32          
2.6999        0.04721       -177.82       9.397E-2      -0.95         9.411E-2      -0.67         0.80949       -1.72          
3.2999        0.04721       -177.86       9.404E-2      -1.14         9.407E-2      -0.84         0.80948       -2.09          
3.8998        0.04725       -177.78       9.404E-2      -1.35         9.412E-2      -1.10         0.80943       -2.46          
4.4998        0.04722       -177.82       9.407E-2      -1.60         9.413E-2      -1.27         0.80938       -2.84          
5.0998        0.04724       -177.72       9.409E-2      -1.82         9.416E-2      -1.50         0.80933       -3.23          
5.6997        0.04719       -177.70       9.409E-2      -2.01         9.416E-2      -1.71         0.80924       -3.60          
6.2997        0.0472        -177.69       9.41E-2       -2.18         9.416E-2      -1.91         0.80916       -3.98          
6.8997        0.04725       -177.66       9.411E-2      -2.42         9.413E-2      -2.10         0.80911       -4.36          
7.4996        0.04721       -177.61       9.414E-2      -2.62         9.415E-2      -2.35         0.80904       -4.74          
8.0996        0.0472        -177.62       9.415E-2      -2.81         9.418E-2      -2.56         0.80902       -5.11          
8.6996        0.04715       -177.53       9.417E-2      -3.02         9.417E-2      -2.78         0.80897       -5.49          
9.2996        0.04719       -177.52       9.422E-2      -3.20         9.418E-2      -2.94         0.80883       -5.87          
9.8995        0.04714       -177.52       9.416E-2      -3.42         9.422E-2      -3.18         0.80885       -6.25          
10.4995       0.04716       -177.43       9.415E-2      -3.67         9.42E-2       -3.39         0.80878       -6.63          
11.0995       0.04718       -177.45       9.422E-2      -3.83         9.422E-2      -3.58         0.80869       -7.00          
11.6994       0.0472        -177.40       9.417E-2      -4.03         9.425E-2      -3.82         0.80867       -7.39          
12.2994       0.04719       -177.33       9.421E-2      -4.22         9.422E-2      -3.97         0.8086        -7.76          
12.8994       0.04716       -177.33       9.418E-2      -4.49         9.422E-2      -4.22         0.80859       -8.14          
13.4993       0.04715       -177.28       9.424E-2      -4.66         9.425E-2      -4.43         0.80857       -8.52          
14.0993       0.04713       -177.20       9.425E-2      -4.85         9.423E-2      -4.60         0.80844       -8.90          
14.6993       0.04714       -177.21       9.428E-2      -5.05         9.428E-2      -4.84         0.80843       -9.28          
15.2993       0.04717       -177.16       9.428E-2      -5.29         9.428E-2      -5.02         0.80847       -9.66          
15.8992       0.04713       -177.17       9.432E-2      -5.48         9.429E-2      -5.25         0.80846       -10.03         
16.4992       0.04708       -177.08       9.436E-2      -5.69         9.429E-2      -5.46         0.8084        -10.42         
17.0992       0.04707       -177.02       9.433E-2      -5.88         9.429E-2      -5.67         0.80837       -10.79         
17.6991       0.0471        -176.94       9.429E-2      -6.10         9.43E-2       -5.86         0.80825       -11.17         
18.2991       0.04706       -177.00       9.439E-2      -6.28         9.433E-2      -6.08         0.80827       -11.55         
18.8991       0.04705       -176.91       9.435E-2      -6.53         9.432E-2      -6.29         0.80819       -11.93         
19.4990       0.04705       -176.86       9.434E-2      -6.71         9.432E-2      -6.47         0.80818       -12.31         
20.0990       0.04702       -176.84       9.434E-2      -6.94         9.434E-2      -6.70         0.80813       -12.68         
20.6990       0.04702       -176.80       9.439E-2      -7.15         9.436E-2      -6.90         0.80811       -13.06         
21.2990       0.04703       -176.76       9.439E-2      -7.35         9.439E-2      -7.13         0.80801       -13.44         
21.8989       0.04702       -176.71       9.442E-2      -7.57         9.44E-2       -7.30         0.80805       -13.81         
22.4989       0.047         -176.65       9.448E-2      -7.75         9.439E-2      -7.51         0.80806       -14.19         
23.0989       0.04702       -176.59       9.444E-2      -7.96         9.44E-2       -7.73         0.808         -14.57         
23.6988       0.04702       -176.55       9.449E-2      -8.15         9.443E-2      -7.93         0.80799       -14.94         
24.2988       0.04701       -176.49       9.445E-2      -8.34         9.444E-2      -8.15         0.80792       -15.32         
24.8988       0.04701       -176.44       9.442E-2      -8.55         9.442E-2      -8.34         0.80798       -15.70         
25.4987       0.047         -176.41       9.445E-2      -8.78         9.446E-2      -8.54         0.80798       -16.08         
26.0987       0.04692       -176.32       9.444E-2      -9.01         9.451E-2      -8.75         0.80794       -16.45         
26.6987       0.04693       -176.28       9.448E-2      -9.17         9.447E-2      -8.94         0.80793       -16.83         
27.2987       0.04693       -176.23       9.444E-2      -9.35         9.452E-2      -9.16         0.80791       -17.21         
27.8986       0.04694       -176.20       9.451E-2      -9.60         9.452E-2      -9.35         0.80784       -17.59         
28.4986       0.0469        -176.16       9.456E-2      -9.79         9.448E-2      -9.56         0.80778       -17.97         
29.0986       0.04689       -176.12       9.45E-2       -9.98         9.454E-2      -9.76         0.80776       -18.34         
29.6985       0.04688       -176.09       9.452E-2      -10.22        9.458E-2      -9.96         0.80769       -18.72         
30.2985       0.04684       -176.02       9.453E-2      -10.44        9.457E-2      -10.18        0.80771       -19.09         
30.8985       0.04689       -175.99       9.455E-2      -10.63        9.45E-2       -10.41        0.80754       -19.47         
31.4984       0.04685       -175.90       9.457E-2      -10.83        9.457E-2      -10.61        0.8075        -19.85         
32.0984       0.04683       -175.86       9.458E-2      -11.06        9.457E-2      -10.82        0.80747       -20.23         
32.6984       0.04686       -175.82       9.455E-2      -11.25        9.456E-2      -11.01        0.80742       -20.60         
33.2984       0.04682       -175.73       9.458E-2      -11.46        9.459E-2      -11.22        0.80743       -20.98         
33.8983       0.0468        -175.70       9.453E-2      -11.64        9.462E-2      -11.43        0.8074        -21.36         
34.4983       0.04681       -175.64       9.46E-2       -11.85        9.462E-2      -11.64        0.80737       -21.74         
35.0983       0.0468        -175.59       9.459E-2      -12.03        9.465E-2      -11.82        0.80737       -22.11         
35.6982       0.04676       -175.54       9.46E-2       -12.27        9.462E-2      -12.02        0.80729       -22.49         
36.2982       0.04677       -175.48       9.464E-2      -12.49        9.466E-2      -12.25        0.80723       -22.87         
36.8982       0.04677       -175.44       9.459E-2      -12.66        9.465E-2      -12.46        0.80709       -23.24         
37.4981       0.04672       -175.35       9.464E-2      -12.86        9.465E-2      -12.65        0.80701       -23.62         
38.0981       0.04673       -175.32       9.462E-2      -13.09        9.465E-2      -12.85        0.80693       -23.99         
38.6981       0.04669       -175.27       9.46E-2       -13.31        9.462E-2      -13.04        0.80684       -24.36         
39.2981       0.0467        -175.27       9.461E-2      -13.49        9.466E-2      -13.23        0.80678       -24.74         
39.8980       0.04668       -175.26       9.461E-2      -13.69        9.461E-2      -13.48        0.80663       -25.11         
40.4980       0.04667       -175.12       9.456E-2      -13.89        9.468E-2      -13.65        0.80652       -25.48         
41.0980       0.04664       -175.10       9.46E-2       -14.10        9.465E-2      -13.85        0.80643       -25.86         
41.6979       0.04665       -175.03       9.466E-2      -14.32        9.464E-2      -14.08        0.80638       -26.23         
42.2979       0.04665       -174.99       9.468E-2      -14.51        9.462E-2      -14.26        0.8063        -26.60         
42.8979       0.04665       -174.89       9.465E-2      -14.75        9.469E-2      -14.47        0.80619       -26.98         
43.4978       0.04663       -174.83       9.466E-2      -14.93        9.469E-2      -14.65        0.8061        -27.36         
44.0978       0.0466        -174.81       9.471E-2      -15.13        9.47E-2       -14.88        0.80597       -27.73         
44.6978       0.04662       -174.73       9.468E-2      -15.33        9.47E-2       -15.09        0.806         -28.10         
45.2978       0.04658       -174.73       9.47E-2       -15.51        9.468E-2      -15.29        0.80591       -28.48         
45.8977       0.0466        -174.63       9.474E-2      -15.71        9.469E-2      -15.49        0.80576       -28.85         
46.4977       0.0466        -174.58       9.475E-2      -15.92        9.468E-2      -15.69        0.80564       -29.22         
47.0977       0.04662       -174.51       9.471E-2      -16.12        9.472E-2      -15.91        0.80548       -29.62         
47.6976       0.04662       -174.44       9.47E-2       -16.32        9.476E-2      -16.14        0.8055        -30.00         
48.2976       0.0466        -174.35       9.471E-2      -16.50        9.476E-2      -16.33        0.80548       -30.37         
48.8976       0.04659       -174.31       9.47E-2       -16.73        9.475E-2      -16.54        0.8054        -30.75         
49.4975       0.04658       -174.29       9.47E-2       -16.94        9.474E-2      -16.73        0.80534       -31.12         
50.0975       0.04657       -174.20       9.472E-2      -17.12        9.474E-2      -16.97        0.80522       -31.50         
50.6975       0.04655       -174.19       9.472E-2      -17.35        9.474E-2      -17.18        0.8052        -31.88         
51.2975       0.04653       -174.10       9.475E-2      -17.53        9.473E-2      -17.36        0.8051        -32.25         
51.8974       0.04653       -174.08       9.482E-2      -17.77        9.467E-2      -17.55        0.80498       -32.63         
52.4974       0.04649       -174.02       9.482E-2      -18.00        9.468E-2      -17.73        0.8049        -33.00         
53.0974       0.04651       -173.98       9.481E-2      -18.20        9.464E-2      -17.90        0.80485       -33.37         
53.6973       0.04647       -173.89       9.495E-2      -18.58        9.374E-2      -17.94        0.80476       -33.74         
54.2973       0.04642       -174.10       9.508E-2      -18.65        9.479E-2      -18.38        0.80467       -34.12         
54.8973       0.04648       -173.77       9.474E-2      -18.77        9.476E-2      -18.57        0.8046        -34.50         
55.4972       0.04646       -173.72       9.478E-2      -18.99        9.484E-2      -18.79        0.80451       -34.87         
56.0972       0.04648       -173.68       9.475E-2      -19.17        9.481E-2      -18.98        0.80441       -35.25         
56.6972       0.04645       -173.63       9.473E-2      -19.41        9.478E-2      -19.18        0.80427       -35.63         
57.2972       0.04644       -173.54       9.475E-2      -19.60        9.478E-2      -19.37        0.80424       -36.00         
57.8971       0.04642       -173.51       9.475E-2      -19.82        9.479E-2      -19.60        0.80412       -36.38         
58.4971       0.04646       -173.43       9.471E-2      -20.03        9.485E-2      -19.80        0.80408       -36.76         
59.0971       0.0464        -173.38       9.474E-2      -20.25        9.482E-2      -20.00        0.80396       -37.14         
59.6970       0.0464        -173.32       9.475E-2      -20.43        9.478E-2      -20.20        0.80385       -37.52         
60.2970       0.04641       -173.28       9.478E-2      -20.67        9.482E-2      -20.41        0.80382       -37.90         
60.8970       0.0464        -173.22       9.476E-2      -20.85        9.48E-2       -20.62        0.8037        -38.28         
61.4969       0.04636       -173.15       9.479E-2      -21.09        9.485E-2      -20.82        0.80359       -38.66         
62.0969       0.0464        -173.11       9.475E-2      -21.29        9.479E-2      -21.04        0.80353       -39.04         
62.6969       0.04641       -172.99       9.475E-2      -21.50        9.483E-2      -21.24        0.80335       -39.42         
63.2969       0.04635       -172.96       9.475E-2      -21.69        9.481E-2      -21.42        0.80334       -39.80         
63.8968       0.04639       -172.88       9.472E-2      -21.90        9.485E-2      -21.67        0.80315       -40.18         
64.4968       0.04637       -172.86       9.472E-2      -22.10        9.483E-2      -21.89        0.80312       -40.56         
65.0968       0.04637       -172.83       9.47E-2       -22.30        9.483E-2      -22.06        0.80299       -40.94         
65.6967       0.04635       -172.73       9.476E-2      -22.56        9.485E-2      -22.27        0.8029        -41.31         
66.2967       0.04634       -172.67       9.472E-2      -22.71        9.484E-2      -22.48        0.8028        -41.69         
66.8967       0.04635       -172.61       9.471E-2      -22.93        9.483E-2      -22.68        0.80272       -42.07         
67.4966       0.0463        -172.55       9.474E-2      -23.11        9.486E-2      -22.88        0.80261       -42.44         
68.0966       0.0463        -172.49       9.477E-2      -23.35        9.485E-2      -23.09        0.80248       -42.82         
68.6966       0.04632       -172.40       9.472E-2      -23.53        9.483E-2      -23.28        0.80239       -43.19         
69.2966       0.04633       -172.37       9.477E-2      -23.73        9.487E-2      -23.48        0.80229       -43.57         
69.8965       0.0463        -172.24       9.478E-2      -23.92        9.482E-2      -23.68        0.80222       -43.95         
70.4965       0.04628       -172.23       9.477E-2      -24.14        9.484E-2      -23.90        0.80205       -44.32         
71.0965       0.04628       -172.15       9.474E-2      -24.33        9.483E-2      -24.08        0.80194       -44.70         
71.6964       0.0463        -172.10       9.473E-2      -24.59        9.483E-2      -24.31        0.80192       -45.07         
72.2964       0.04628       -172.03       9.48E-2       -24.78        9.483E-2      -24.51        0.80172       -45.45         
72.8964       0.04626       -171.96       9.481E-2      -24.96        9.48E-2       -24.72        0.80164       -45.82         
73.4963       0.04629       -171.88       9.476E-2      -25.16        9.484E-2      -24.93        0.80159       -46.20         
74.0963       0.04628       -171.83       9.481E-2      -25.38        9.484E-2      -25.14        0.80154       -46.57         
74.6963       0.04624       -171.77       9.473E-2      -25.58        9.482E-2      -25.31        0.80141       -46.95         
75.2963       0.04624       -171.73       9.482E-2      -25.80        9.484E-2      -25.52        0.80138       -47.33         
75.8962       0.04624       -171.67       9.477E-2      -25.97        9.484E-2      -25.73        0.80118       -47.70         
76.4962       0.04623       -171.58       9.479E-2      -26.22        9.487E-2      -25.95        0.80111       -48.08         
77.0962       0.0462        -171.52       9.473E-2      -26.39        9.487E-2      -26.17        0.80091       -48.46         
77.6961       0.04623       -171.44       9.476E-2      -26.61        9.485E-2      -26.35        0.80074       -48.83         
78.2961       0.04619       -171.39       9.477E-2      -26.80        9.486E-2      -26.57        0.8006        -49.21         
78.8961       0.04622       -171.34       9.476E-2      -27.01        9.488E-2      -26.76        0.80043       -49.58         
79.4960       0.0462        -171.29       9.474E-2      -27.18        9.484E-2      -26.96        0.80029       -49.95         
80.0960       0.04621       -171.22       9.479E-2      -27.39        9.488E-2      -27.19        0.80011       -50.33         
80.6960       0.04618       -171.14       9.477E-2      -27.61        9.483E-2      -27.37        0.80001       -50.70         
81.2960       0.0462        -171.09       9.479E-2      -27.79        9.486E-2      -27.58        0.79993       -51.08         
81.8959       0.04618       -171.03       9.476E-2      -28.00        9.483E-2      -27.77        0.79974       -51.45         
82.4959       0.04619       -170.99       9.478E-2      -28.21        9.485E-2      -27.98        0.79959       -51.83         
83.0959       0.04617       -170.94       9.478E-2      -28.42        9.487E-2      -28.16        0.79952       -52.21         
83.6958       0.04616       -170.89       9.476E-2      -28.63        9.487E-2      -28.36        0.79929       -52.58         
84.2958       0.04618       -170.82       9.474E-2      -28.80        9.482E-2      -28.58        0.79919       -52.96         
84.8958       0.04617       -170.77       9.473E-2      -29.02        9.483E-2      -28.78        0.79907       -53.34         
85.4957       0.04619       -170.70       9.475E-2      -29.21        9.479E-2      -28.97        0.79896       -53.72         
86.0957       0.04618       -170.66       9.477E-2      -29.47        9.482E-2      -29.18        0.79882       -54.09         
86.6957       0.04617       -170.61       9.474E-2      -29.64        9.482E-2      -29.38        0.79868       -54.47         
87.2957       0.04616       -170.53       9.472E-2      -29.87        9.48E-2       -29.58        0.79851       -54.84         
87.8956       0.04614       -170.45       9.476E-2      -30.06        9.481E-2      -29.79        0.79836       -55.22         
88.4956       0.04616       -170.36       9.47E-2       -30.27        9.481E-2      -30.01        0.7982        -55.60         
89.0956       0.04614       -170.29       9.471E-2      -30.46        9.482E-2      -30.20        0.79816       -55.97         
89.6955       0.04615       -170.22       9.474E-2      -30.66        9.48E-2       -30.40        0.7979        -56.36         
90.2955       0.04617       -170.18       9.473E-2      -30.87        9.481E-2      -30.63        0.7978        -56.73         
90.8955       0.04616       -170.13       9.47E-2       -31.07        9.484E-2      -30.83        0.79772       -57.11         
91.4954       0.04616       -170.03       9.472E-2      -31.27        9.479E-2      -31.03        0.79753       -57.49         
92.0954       0.04617       -169.98       9.476E-2      -31.46        9.483E-2      -31.26        0.79745       -57.87         
