!    3/19/2021   22:34:24 
! Ref Plane: 13.200 mm
# MHZ S MA R  50
!
0.3000        0.04779       -179.76       9.741E-2      -1.23         9.566E-2      -0.53         0.81645       -0.14          
0.9000        0.04716       -178.50       9.351E-2      -0.55         9.44E-2       -0.09         0.81032       -0.45          
1.4999        0.0472        -178.14       9.397E-2      -0.54         9.429E-2      -0.25         0.80997       -0.79          
2.0999        0.04723       -178.09       9.403E-2      -0.70         9.419E-2      -0.42         0.80983       -1.18          
2.6999        0.04725       -178.02       9.413E-2      -0.94         9.416E-2      -0.64         0.80979       -1.58          
3.2999        0.04723       -177.98       9.413E-2      -1.19         9.422E-2      -0.83         0.80953       -1.97          
3.8998        0.04725       -177.94       9.421E-2      -1.41         9.423E-2      -1.04         0.80948       -2.35          
4.4998        0.04727       -177.90       9.418E-2      -1.60         9.418E-2      -1.25         0.80936       -2.74          
5.0998        0.04727       -177.93       9.417E-2      -1.83         9.422E-2      -1.46         0.80933       -3.11          
5.6997        0.04723       -177.92       9.414E-2      -2.00         9.414E-2      -1.67         0.80922       -3.49          
6.2997        0.04723       -177.87       9.414E-2      -2.26         9.42E-2       -1.86         0.80919       -3.87          
6.8997        0.04724       -177.87       9.416E-2      -2.44         9.42E-2       -2.05         0.80905       -4.24          
7.4996        0.0472        -177.85       9.425E-2      -2.66         9.421E-2      -2.26         0.80897       -4.62          
8.0996        0.0472        -177.79       9.429E-2      -2.84         9.423E-2      -2.48         0.80896       -4.99          
8.6996        0.04719       -177.78       9.427E-2      -3.07         9.419E-2      -2.72         0.80887       -5.36          
9.2996        0.04719       -177.76       9.432E-2      -3.24         9.422E-2      -2.89         0.80877       -5.74          
9.8995        0.04716       -177.78       9.43E-2       -3.45         9.422E-2      -3.07         0.80873       -6.11          
10.4995       0.04717       -177.71       9.435E-2      -3.71         9.425E-2      -3.32         0.80865       -6.49          
11.0995       0.04719       -177.70       9.429E-2      -3.88         9.423E-2      -3.49         0.80865       -6.86          
11.6994       0.0472        -177.69       9.437E-2      -4.07         9.426E-2      -3.72         0.80858       -7.23          
12.2994       0.04719       -177.61       9.437E-2      -4.31         9.426E-2      -3.91         0.80849       -7.60          
12.8994       0.04716       -177.63       9.431E-2      -4.45         9.429E-2      -4.11         0.80844       -7.97          
13.4993       0.04715       -177.55       9.429E-2      -4.71         9.427E-2      -4.32         0.80836       -8.35          
14.0993       0.04715       -177.57       9.438E-2      -4.89         9.429E-2      -4.52         0.80826       -8.72          
14.6993       0.04712       -177.55       9.44E-2       -5.09         9.425E-2      -4.72         0.80829       -9.10          
15.2993       0.04715       -177.49       9.443E-2      -5.31         9.43E-2       -4.92         0.80818       -9.47          
15.8992       0.04714       -177.47       9.443E-2      -5.50         9.43E-2       -5.14         0.80824       -9.84          
16.4992       0.0471        -177.41       9.442E-2      -5.74         9.433E-2      -5.32         0.80817       -10.22         
17.0992       0.04708       -177.41       9.447E-2      -5.93         9.429E-2      -5.56         0.80814       -10.59         
17.6991       0.04709       -177.33       9.444E-2      -6.10         9.434E-2      -5.75         0.80804       -10.96         
18.2991       0.04706       -177.31       9.445E-2      -6.33         9.431E-2      -5.98         0.808         -11.33         
18.8991       0.04703       -177.30       9.451E-2      -6.54         9.436E-2      -6.15         0.80792       -11.71         
19.4990       0.04705       -177.28       9.45E-2       -6.76         9.437E-2      -6.38         0.80789       -12.08         
20.0990       0.04705       -177.22       9.452E-2      -6.94         9.436E-2      -6.59         0.80787       -12.45         
20.6990       0.04704       -177.21       9.451E-2      -7.15         9.443E-2      -6.78         0.80776       -12.82         
21.2990       0.04702       -177.20       9.45E-2       -7.35         9.441E-2      -6.99         0.8077        -13.19         
21.8989       0.04704       -177.11       9.454E-2      -7.55         9.441E-2      -7.21         0.80772       -13.56         
22.4989       0.04699       -177.08       9.458E-2      -7.76         9.44E-2       -7.40         0.80764       -13.93         
23.0989       0.04702       -177.03       9.458E-2      -7.95         9.44E-2       -7.61         0.80757       -14.30         
23.6988       0.04703       -177.03       9.455E-2      -8.15         9.447E-2      -7.79         0.80763       -14.67         
24.2988       0.047         -176.95       9.462E-2      -8.36         9.447E-2      -8.00         0.80766       -15.04         
24.8988       0.04702       -176.94       9.458E-2      -8.59         9.452E-2      -8.20         0.80759       -15.41         
25.4987       0.04698       -176.90       9.461E-2      -8.78         9.453E-2      -8.39         0.80757       -15.78         
26.0987       0.04695       -176.81       9.466E-2      -8.98         9.451E-2      -8.62         0.80763       -16.16         
26.6987       0.04696       -176.76       9.463E-2      -9.17         9.452E-2      -8.81         0.80754       -16.53         
27.2987       0.04693       -176.74       9.466E-2      -9.39         9.454E-2      -9.00         0.80749       -16.90         
27.8986       0.04694       -176.70       9.465E-2      -9.55         9.457E-2      -9.21         0.80748       -17.27         
28.4986       0.04692       -176.63       9.465E-2      -9.78         9.455E-2      -9.39         0.80737       -17.64         
29.0986       0.04689       -176.66       9.464E-2      -10.00        9.454E-2      -9.64         0.80737       -18.01         
29.6985       0.04692       -176.58       9.468E-2      -10.20        9.457E-2      -9.82         0.8072        -18.38         
30.2985       0.04692       -176.53       9.466E-2      -10.39        9.457E-2      -10.03        0.80722       -18.75         
30.8985       0.04687       -176.52       9.465E-2      -10.61        9.46E-2       -10.23        0.80708       -19.12         
31.4984       0.04685       -176.45       9.467E-2      -10.79        9.461E-2      -10.42        0.80699       -19.49         
32.0984       0.04685       -176.44       9.466E-2      -11.02        9.462E-2      -10.63        0.80692       -19.87         
32.6984       0.04688       -176.37       9.477E-2      -11.23        9.468E-2      -10.85        0.80697       -20.24         
33.2984       0.04685       -176.34       9.471E-2      -11.37        9.464E-2      -11.05        0.80692       -20.61         
33.8983       0.04687       -176.24       9.471E-2      -11.62        9.462E-2      -11.25        0.80683       -20.98         
34.4983       0.04685       -176.21       9.472E-2      -11.82        9.466E-2      -11.45        0.80679       -21.35         
35.0983       0.04685       -176.21       9.473E-2      -12.03        9.468E-2      -11.66        0.80682       -21.72         
35.6982       0.0468        -176.14       9.477E-2      -12.21        9.473E-2      -11.87        0.80673       -22.09         
36.2982       0.04679       -176.12       9.476E-2      -12.47        9.466E-2      -12.07        0.80666       -22.46         
36.8982       0.04681       -176.08       9.48E-2       -12.65        9.47E-2       -12.26        0.80653       -22.83         
37.4981       0.04678       -176.02       9.48E-2       -12.84        9.471E-2      -12.47        0.80643       -23.20         
38.0981       0.04678       -175.97       9.481E-2      -13.00        9.47E-2       -12.65        0.80629       -23.57         
38.6981       0.04678       -175.93       9.477E-2      -13.24        9.47E-2       -12.84        0.80615       -23.93         
39.2981       0.04676       -175.91       9.475E-2      -13.41        9.47E-2       -13.05        0.80611       -24.30         
39.8980       0.04676       -175.84       9.483E-2      -13.66        9.471E-2      -13.25        0.80599       -24.67         
40.4980       0.04674       -175.78       9.474E-2      -13.81        9.473E-2      -13.46        0.80592       -25.03         
41.0980       0.04673       -175.75       9.477E-2      -14.07        9.47E-2       -13.64        0.80585       -25.40         
41.6979       0.04674       -175.72       9.484E-2      -14.25        9.472E-2      -13.85        0.8057        -25.77         
42.2979       0.04674       -175.65       9.479E-2      -14.43        9.476E-2      -14.06        0.80561       -26.13         
42.8979       0.04674       -175.60       9.479E-2      -14.64        9.469E-2      -14.27        0.80553       -26.50         
43.4978       0.04675       -175.56       9.482E-2      -14.87        9.474E-2      -14.45        0.80541       -26.87         
44.0978       0.04672       -175.51       9.481E-2      -15.03        9.475E-2      -14.64        0.80533       -27.24         
44.6978       0.04673       -175.45       9.486E-2      -15.25        9.477E-2      -14.87        0.80526       -27.61         
45.2978       0.0467        -175.40       9.494E-2      -15.44        9.478E-2      -15.07        0.8052        -27.97         
45.8977       0.0467        -175.36       9.488E-2      -15.65        9.478E-2      -15.28        0.80507       -28.34         
46.4977       0.04671       -175.29       9.489E-2      -15.84        9.478E-2      -15.47        0.8049        -28.71         
47.0977       0.0467        -175.24       9.483E-2      -16.00        9.48E-2       -15.67        0.80471       -29.10         
47.6976       0.0467        -175.16       9.483E-2      -16.23        9.478E-2      -15.91        0.80465       -29.47         
48.2976       0.04669       -175.14       9.489E-2      -16.43        9.478E-2      -16.08        0.80459       -29.84         
48.8976       0.04672       -175.09       9.491E-2      -16.61        9.484E-2      -16.30        0.80458       -30.21         
49.4975       0.04667       -175.00       9.49E-2       -16.84        9.483E-2      -16.53        0.80444       -30.58         
50.0975       0.0467        -175.01       9.494E-2      -17.01        9.482E-2      -16.71        0.8044        -30.95         
50.6975       0.04668       -174.94       9.494E-2      -17.26        9.482E-2      -16.96        0.80431       -31.32         
51.2975       0.04671       -174.89       9.493E-2      -17.43        9.481E-2      -17.13        0.80423       -31.69         
51.8974       0.04665       -174.82       9.50E-2       -17.63        9.483E-2      -17.32        0.80409       -32.06         
52.4974       0.04664       -174.80       9.50E-2       -17.87        9.481E-2      -17.50        0.804         -32.42         
53.0974       0.04665       -174.71       9.497E-2      -18.14        9.475E-2      -17.64        0.80387       -32.79         
53.6973       0.04659       -174.70       9.509E-2      -18.43        9.401E-2      -17.63        0.80381       -33.16         
54.2973       0.04659       -174.87       9.535E-2      -18.59        9.488E-2      -18.13        0.80374       -33.53         
54.8973       0.04662       -174.58       9.494E-2      -18.69        9.49E-2       -18.31        0.80363       -33.90         
55.4972       0.04663       -174.55       9.497E-2      -18.86        9.489E-2      -18.51        0.8035        -34.27         
56.0972       0.04659       -174.49       9.499E-2      -19.07        9.489E-2      -18.71        0.80338       -34.64         
56.6972       0.04661       -174.41       9.497E-2      -19.27        9.494E-2      -18.90        0.80332       -35.01         
57.2972       0.04659       -174.34       9.495E-2      -19.47        9.493E-2      -19.11        0.80317       -35.38         
57.8971       0.04659       -174.28       9.496E-2      -19.71        9.491E-2      -19.31        0.80309       -35.75         
58.4971       0.04661       -174.26       9.50E-2       -19.85        9.488E-2      -19.54        0.803         -36.13         
59.0971       0.04656       -174.16       9.50E-2       -20.10        9.492E-2      -19.72        0.80286       -36.50         
59.6970       0.04658       -174.13       9.495E-2      -20.30        9.493E-2      -19.94        0.80277       -36.88         
60.2970       0.04658       -174.09       9.501E-2      -20.51        9.488E-2      -20.14        0.8026        -37.25         
60.8970       0.04657       -174.04       9.503E-2      -20.74        9.493E-2      -20.32        0.80255       -37.62         
61.4969       0.04657       -173.96       9.496E-2      -20.95        9.495E-2      -20.53        0.80251       -38.00         
62.0969       0.04655       -173.92       9.501E-2      -21.13        9.494E-2      -20.75        0.80238       -38.38         
62.6969       0.04657       -173.82       9.499E-2      -21.36        9.495E-2      -20.94        0.8023        -38.75         
63.2969       0.04659       -173.78       9.501E-2      -21.56        9.495E-2      -21.13        0.80215       -39.12         
63.8968       0.04655       -173.71       9.499E-2      -21.75        9.495E-2      -21.37        0.80204       -39.50         
64.4968       0.04654       -173.66       9.497E-2      -21.99        9.497E-2      -21.59        0.80196       -39.87         
65.0968       0.04656       -173.65       9.501E-2      -22.13        9.50E-2       -21.77        0.80182       -40.24         
65.6967       0.04655       -173.55       9.496E-2      -22.34        9.499E-2      -21.97        0.80167       -40.61         
66.2967       0.04655       -173.52       9.499E-2      -22.58        9.498E-2      -22.22        0.80158       -40.98         
66.8967       0.04655       -173.41       9.501E-2      -22.72        9.499E-2      -22.39        0.80141       -41.35         
67.4966       0.04653       -173.35       9.499E-2      -22.95        9.50E-2       -22.58        0.80134       -41.72         
68.0966       0.04652       -173.31       9.50E-2       -23.14        9.498E-2      -22.79        0.80117       -42.10         
68.6966       0.0465        -173.24       9.495E-2      -23.36        9.50E-2       -23.01        0.80107       -42.47         
69.2966       0.04653       -173.19       9.505E-2      -23.54        9.499E-2      -23.17        0.80098       -42.83         
69.8965       0.04653       -173.12       9.498E-2      -23.76        9.498E-2      -23.36        0.80082       -43.20         
70.4965       0.04652       -173.08       9.501E-2      -23.97        9.502E-2      -23.59        0.80078       -43.57         
71.0965       0.0465        -172.98       9.505E-2      -24.16        9.499E-2      -23.82        0.80069       -43.94         
71.6964       0.04652       -172.93       9.506E-2      -24.38        9.502E-2      -23.97        0.80052       -44.31         
72.2964       0.04649       -172.93       9.505E-2      -24.60        9.50E-2       -24.20        0.80041       -44.68         
72.8964       0.04649       -172.81       9.509E-2      -24.79        9.498E-2      -24.42        0.80025       -45.05         
73.4963       0.04649       -172.76       9.508E-2      -25.01        9.50E-2       -24.59        0.8002        -45.42         
74.0963       0.04646       -172.66       9.505E-2      -25.19        9.503E-2      -24.81        0.80003       -45.79         
74.6963       0.04647       -172.62       9.507E-2      -25.37        9.503E-2      -24.99        0.79994       -46.16         
75.2963       0.04646       -172.54       9.504E-2      -25.59        9.502E-2      -25.22        0.79979       -46.53         
75.8962       0.04646       -172.50       9.511E-2      -25.82        9.502E-2      -25.41        0.7997        -46.90         
76.4962       0.04649       -172.44       9.507E-2      -26.02        9.499E-2      -25.64        0.79959       -47.27         
77.0962       0.04647       -172.33       9.509E-2      -26.18        9.504E-2      -25.80        0.79951       -47.64         
77.6961       0.04645       -172.27       9.507E-2      -26.40        9.502E-2      -26.01        0.79933       -48.01         
78.2961       0.04644       -172.22       9.508E-2      -26.60        9.506E-2      -26.23        0.79918       -48.38         
78.8961       0.04641       -172.17       9.51E-2       -26.80        9.507E-2      -26.45        0.79906       -48.75         
79.4960       0.04642       -172.11       9.509E-2      -26.98        9.506E-2      -26.64        0.79881       -49.13         
80.0960       0.04642       -172.06       9.508E-2      -27.19        9.508E-2      -26.83        0.79873       -49.49         
80.6960       0.04643       -171.98       9.509E-2      -27.38        9.508E-2      -27.03        0.79859       -49.86         
81.2960       0.0464        -171.92       9.508E-2      -27.59        9.507E-2      -27.25        0.79841       -50.23         
81.8959       0.04639       -171.86       9.512E-2      -27.81        9.504E-2      -27.42        0.79828       -50.61         
82.4959       0.04643       -171.83       9.51E-2       -27.98        9.51E-2       -27.63        0.79803       -50.98         
83.0959       0.0464        -171.75       9.51E-2       -28.20        9.511E-2      -27.83        0.79787       -51.35         
83.6958       0.04639       -171.69       9.513E-2      -28.41        9.508E-2      -28.02        0.79772       -51.72         
84.2958       0.04643       -171.65       9.511E-2      -28.60        9.507E-2      -28.20        0.79756       -52.09         
84.8958       0.0464        -171.57       9.508E-2      -28.83        9.509E-2      -28.40        0.79738       -52.46         
85.4957       0.04641       -171.48       9.517E-2      -29.02        9.508E-2      -28.61        0.79728       -52.84         
86.0957       0.04641       -171.45       9.51E-2       -29.21        9.506E-2      -28.83        0.79707       -53.21         
86.6957       0.04641       -171.40       9.508E-2      -29.43        9.508E-2      -29.04        0.79694       -53.59         
87.2957       0.04637       -171.32       9.508E-2      -29.65        9.504E-2      -29.22        0.79675       -53.95         
87.8956       0.04637       -171.23       9.513E-2      -29.84        9.507E-2      -29.44        0.79663       -54.33         
88.4956       0.04639       -171.17       9.506E-2      -30.01        9.505E-2      -29.64        0.79643       -54.70         
89.0956       0.04637       -171.10       9.507E-2      -30.21        9.506E-2      -29.83        0.79628       -55.07         
89.6955       0.04634       -171.03       9.508E-2      -30.40        9.507E-2      -30.05        0.79616       -55.44         
90.2955       0.04638       -171.00       9.511E-2      -30.61        9.503E-2      -30.24        0.79604       -55.82         
90.8955       0.04638       -170.90       9.515E-2      -30.84        9.508E-2      -30.46        0.79587       -56.19         
91.4954       0.04639       -170.84       9.513E-2      -31.04        9.506E-2      -30.65        0.79569       -56.56         
92.0954       0.04639       -170.79       9.514E-2      -31.22        9.505E-2      -30.85        0.79559       -56.93         
