!    3/18/2021   20:29:32 
! Ref Plane: 13.288 mm
# MHZ S MA R  50
!
0.3000        0.04782       179.54        9.722E-2      -1.30         9.592E-2      -0.43         0.81754       0.02           
0.9000        0.04721       -178.77       9.331E-2      -0.63         9.466E-2      -0.09         0.81188       -0.44          
1.4999        0.04722       -178.30       9.38E-2       -0.63         9.429E-2      -0.18         0.81097       -0.75          
2.0999        0.04728       -178.12       9.399E-2      -0.85         9.417E-2      -0.42         0.81035       -1.19          
2.6999        0.04728       -178.07       9.40E-2       -1.05         9.41E-2       -0.61         0.81017       -1.61          
3.2999        0.04728       -178.06       9.41E-2       -1.22         9.408E-2      -0.79         0.80989       -2.01          
3.8998        0.04731       -178.01       9.411E-2      -1.47         9.41E-2       -1.06         0.80982       -2.41          
4.4998        0.04731       -177.98       9.414E-2      -1.75         9.408E-2      -1.22         0.80975       -2.80          
5.0998        0.0473        -177.93       9.418E-2      -1.96         9.407E-2      -1.48         0.80968       -3.20          
5.6997        0.04725       -177.93       9.42E-2       -2.14         9.404E-2      -1.70         0.80954       -3.58          
6.2997        0.04725       -177.89       9.42E-2       -2.34         9.41E-2       -1.89         0.80941       -3.97          
6.8997        0.04728       -177.83       9.424E-2      -2.58         9.403E-2      -2.09         0.80938       -4.35          
7.4996        0.04726       -177.82       9.426E-2      -2.77         9.405E-2      -2.31         0.80926       -4.74          
8.0996        0.04725       -177.77       9.426E-2      -2.96         9.411E-2      -2.53         0.80929       -5.13          
8.6996        0.04724       -177.72       9.431E-2      -3.18         9.408E-2      -2.77         0.8092        -5.50          
9.2996        0.04722       -177.71       9.436E-2      -3.39         9.406E-2      -2.95         0.8091        -5.89          
9.8995        0.04718       -177.71       9.43E-2       -3.58         9.41E-2       -3.16         0.80906       -6.27          
10.4995       0.04721       -177.62       9.43E-2       -3.83         9.409E-2      -3.39         0.80899       -6.66          
11.0995       0.04722       -177.65       9.438E-2      -4.01         9.412E-2      -3.58         0.80898       -7.04          
11.6994       0.04721       -177.61       9.432E-2      -4.21         9.413E-2      -3.80         0.80886       -7.42          
12.2994       0.0472        -177.56       9.435E-2      -4.39         9.411E-2      -4.00         0.80879       -7.80          
12.8994       0.04715       -177.51       9.434E-2      -4.68         9.412E-2      -4.21         0.80878       -8.19          
13.4993       0.04715       -177.48       9.438E-2      -4.84         9.414E-2      -4.43         0.80874       -8.57          
14.0993       0.04713       -177.48       9.439E-2      -5.04         9.413E-2      -4.60         0.8086        -8.95          
14.6993       0.04714       -177.45       9.439E-2      -5.21         9.414E-2      -4.83         0.80855       -9.34          
15.2993       0.04713       -177.39       9.442E-2      -5.47         9.416E-2      -5.02         0.80863       -9.72          
15.8992       0.04713       -177.39       9.448E-2      -5.66         9.419E-2      -5.25         0.80859       -10.10         
16.4992       0.04711       -177.31       9.449E-2      -5.88         9.419E-2      -5.46         0.80855       -10.48         
17.0992       0.04708       -177.27       9.448E-2      -6.09         9.418E-2      -5.67         0.80847       -10.86         
17.6991       0.04709       -177.20       9.442E-2      -6.30         9.422E-2      -5.89         0.80846       -11.25         
18.2991       0.04706       -177.19       9.452E-2      -6.49         9.419E-2      -6.08         0.80843       -11.62         
18.8991       0.04706       -177.17       9.45E-2       -6.73         9.423E-2      -6.30         0.80834       -12.00         
19.4990       0.04703       -177.12       9.448E-2      -6.91         9.42E-2       -6.50         0.80827       -12.38         
20.0990       0.04701       -177.08       9.449E-2      -7.15         9.422E-2      -6.68         0.80824       -12.76         
20.6990       0.04701       -177.07       9.45E-2       -7.35         9.424E-2      -6.93         0.80821       -13.15         
21.2990       0.04702       -176.98       9.453E-2      -7.56         9.429E-2      -7.11         0.80816       -13.53         
21.8989       0.04699       -176.95       9.455E-2      -7.78         9.431E-2      -7.32         0.80816       -13.90         
22.4989       0.04698       -176.87       9.461E-2      -7.95         9.428E-2      -7.51         0.80816       -14.28         
23.0989       0.04701       -176.87       9.457E-2      -8.16         9.43E-2       -7.73         0.80811       -14.66         
23.6988       0.04701       -176.84       9.458E-2      -8.37         9.432E-2      -7.94         0.8081        -15.04         
24.2988       0.04699       -176.79       9.457E-2      -8.57         9.434E-2      -8.14         0.8081        -15.42         
24.8988       0.04698       -176.76       9.454E-2      -8.77         9.433E-2      -8.34         0.80807       -15.80         
25.4987       0.04698       -176.67       9.46E-2       -9.01         9.435E-2      -8.56         0.80806       -16.18         
26.0987       0.04691       -176.59       9.459E-2      -9.23         9.441E-2      -8.76         0.80803       -16.56         
26.6987       0.04692       -176.59       9.459E-2      -9.39         9.436E-2      -8.95         0.80811       -16.94         
27.2987       0.0469        -176.52       9.457E-2      -9.59         9.442E-2      -9.16         0.80802       -17.32         
27.8986       0.04691       -176.50       9.462E-2      -9.84         9.442E-2      -9.36         0.80797       -17.70         
28.4986       0.04689       -176.47       9.47E-2       -10.01        9.442E-2      -9.56         0.80792       -18.08         
29.0986       0.04687       -176.44       9.462E-2      -10.21        9.443E-2      -9.76         0.80787       -18.46         
29.6985       0.04688       -176.39       9.465E-2      -10.45        9.448E-2      -9.97         0.80777       -18.84         
30.2985       0.04684       -176.35       9.462E-2      -10.66        9.447E-2      -10.18        0.80773       -19.22         
30.8985       0.04686       -176.32       9.469E-2      -10.87        9.442E-2      -10.43        0.80762       -19.59         
31.4984       0.04683       -176.23       9.47E-2       -11.05        9.449E-2      -10.62        0.8076        -19.98         
32.0984       0.0468        -176.21       9.467E-2      -11.28        9.448E-2      -10.83        0.80755       -20.35         
32.6984       0.04686       -176.16       9.467E-2      -11.48        9.449E-2      -11.03        0.80748       -20.74         
33.2984       0.04679       -176.09       9.469E-2      -11.69        9.448E-2      -11.23        0.80748       -21.11         
33.8983       0.0468        -176.06       9.464E-2      -11.87        9.451E-2      -11.45        0.8075        -21.49         
34.4983       0.0468        -175.99       9.47E-2       -12.08        9.452E-2      -11.64        0.80741       -21.87         
35.0983       0.04679       -175.96       9.47E-2       -12.25        9.455E-2      -11.86        0.8074        -22.25         
35.6982       0.04677       -175.94       9.471E-2      -12.51        9.453E-2      -12.05        0.80736       -22.63         
36.2982       0.04677       -175.90       9.476E-2      -12.71        9.459E-2      -12.26        0.80726       -23.01         
36.8982       0.04677       -175.84       9.475E-2      -12.90        9.454E-2      -12.48        0.80715       -23.39         
37.4981       0.04674       -175.78       9.472E-2      -13.11        9.458E-2      -12.67        0.80705       -23.76         
38.0981       0.04676       -175.74       9.471E-2      -13.33        9.454E-2      -12.86        0.80696       -24.14         
38.6981       0.04672       -175.69       9.472E-2      -13.54        9.454E-2      -13.09        0.80689       -24.51         
39.2981       0.04672       -175.66       9.471E-2      -13.73        9.458E-2      -13.25        0.80683       -24.89         
39.8980       0.04671       -175.62       9.471E-2      -13.95        9.453E-2      -13.49        0.80668       -25.26         
40.4980       0.04671       -175.53       9.468E-2      -14.12        9.46E-2       -13.70        0.80659       -25.64         
41.0980       0.04668       -175.54       9.474E-2      -14.34        9.455E-2      -13.88        0.80648       -26.02         
41.6979       0.04669       -175.46       9.476E-2      -14.57        9.453E-2      -14.10        0.80636       -26.39         
42.2979       0.04668       -175.39       9.479E-2      -14.76        9.456E-2      -14.27        0.8063        -26.77         
42.8979       0.04667       -175.30       9.475E-2      -14.99        9.46E-2       -14.51        0.80621       -27.15         
43.4978       0.04667       -175.28       9.476E-2      -15.16        9.461E-2      -14.68        0.80616       -27.52         
44.0978       0.04668       -175.23       9.483E-2      -15.36        9.461E-2      -14.90        0.80603       -27.90         
44.6978       0.04667       -175.19       9.479E-2      -15.56        9.461E-2      -15.10        0.80599       -28.27         
45.2978       0.04664       -175.13       9.481E-2      -15.77        9.458E-2      -15.32        0.80591       -28.65         
45.8977       0.04663       -175.06       9.483E-2      -15.96        9.463E-2      -15.52        0.8058        -29.02         
46.4977       0.04668       -175.03       9.484E-2      -16.16        9.46E-2       -15.74        0.80562       -29.40         
47.0977       0.04666       -174.93       9.47E-2       -16.28        9.464E-2      -15.96        0.80548       -29.80         
47.6976       0.0467        -174.91       9.479E-2      -16.54        9.471E-2      -16.18        0.80545       -30.18         
48.2976       0.04669       -174.79       9.48E-2       -16.74        9.466E-2      -16.38        0.80541       -30.56         
48.8976       0.04669       -174.82       9.481E-2      -16.94        9.467E-2      -16.61        0.80535       -30.93         
49.4975       0.04666       -174.74       9.481E-2      -17.17        9.465E-2      -16.79        0.80527       -31.31         
50.0975       0.04664       -174.69       9.485E-2      -17.34        9.466E-2      -17.01        0.80518       -31.69         
50.6975       0.04666       -174.67       9.484E-2      -17.58        9.463E-2      -17.25        0.8051        -32.07         
51.2975       0.04666       -174.62       9.488E-2      -17.74        9.465E-2      -17.42        0.80506       -32.44         
51.8974       0.04665       -174.57       9.495E-2      -17.99        9.458E-2      -17.62        0.80496       -32.82         
52.4974       0.0466        -174.53       9.501E-2      -18.24        9.455E-2      -17.76        0.80485       -33.20         
53.0974       0.04661       -174.48       9.499E-2      -18.48        9.448E-2      -17.90        0.80481       -33.57         
53.6973       0.04659       -174.40       9.518E-2      -18.92        9.346E-2      -17.83        0.80469       -33.95         
54.2973       0.04649       -174.80       9.595E-2      -19.24        9.412E-2      -18.47        0.80461       -34.32         
54.8973       0.0466        -174.28       9.485E-2      -19.02        9.466E-2      -18.63        0.80453       -34.70         
55.4972       0.04655       -174.24       9.49E-2       -19.24        9.472E-2      -18.83        0.80443       -35.09         
56.0972       0.04658       -174.16       9.483E-2      -19.43        9.474E-2      -19.02        0.80433       -35.46         
56.6972       0.04657       -174.13       9.483E-2      -19.66        9.471E-2      -19.23        0.80422       -35.84         
57.2972       0.04655       -174.07       9.486E-2      -19.87        9.469E-2      -19.43        0.80415       -36.22         
57.8971       0.04654       -174.01       9.485E-2      -20.08        9.474E-2      -19.64        0.80406       -36.60         
58.4971       0.04657       -173.97       9.48E-2       -20.28        9.475E-2      -19.83        0.804         -36.98         
59.0971       0.04654       -173.92       9.485E-2      -20.52        9.475E-2      -20.05        0.8039        -37.37         
59.6970       0.04654       -173.83       9.484E-2      -20.69        9.47E-2       -20.26        0.80375       -37.75         
60.2970       0.04655       -173.80       9.489E-2      -20.93        9.476E-2      -20.47        0.80372       -38.13         
60.8970       0.04654       -173.75       9.487E-2      -21.13        9.472E-2      -20.65        0.8036        -38.51         
61.4969       0.04652       -173.66       9.486E-2      -21.37        9.476E-2      -20.86        0.8035        -38.89         
62.0969       0.04655       -173.63       9.483E-2      -21.57        9.47E-2       -21.07        0.80341       -39.28         
62.6969       0.04658       -173.53       9.486E-2      -21.77        9.473E-2      -21.28        0.80329       -39.66         
63.2969       0.04651       -173.50       9.485E-2      -21.97        9.472E-2      -21.48        0.80321       -40.03         
63.8968       0.04655       -173.38       9.482E-2      -22.17        9.475E-2      -21.72        0.80307       -40.42         
64.4968       0.04656       -173.38       9.485E-2      -22.36        9.474E-2      -21.93        0.80303       -40.80         
65.0968       0.04656       -173.34       9.482E-2      -22.58        9.474E-2      -22.12        0.80289       -41.18         
65.6967       0.04655       -173.26       9.485E-2      -22.82        9.475E-2      -22.33        0.80282       -41.56         
66.2967       0.04652       -173.20       9.483E-2      -22.98        9.473E-2      -22.56        0.80272       -41.93         
66.8967       0.04655       -173.11       9.483E-2      -23.18        9.473E-2      -22.72        0.80261       -42.31         
67.4966       0.04653       -173.07       9.486E-2      -23.37        9.477E-2      -22.95        0.80245       -42.70         
68.0966       0.04652       -173.01       9.485E-2      -23.62        9.475E-2      -23.16        0.80239       -43.07         
68.6966       0.04654       -172.93       9.481E-2      -23.80        9.471E-2      -23.34        0.80224       -43.44         
69.2966       0.04656       -172.90       9.484E-2      -23.99        9.478E-2      -23.53        0.80217       -43.82         
69.8965       0.04654       -172.79       9.486E-2      -24.20        9.474E-2      -23.74        0.80206       -44.21         
70.4965       0.04653       -172.77       9.487E-2      -24.41        9.473E-2      -23.96        0.80193       -44.58         
71.0965       0.04652       -172.70       9.484E-2      -24.61        9.47E-2       -24.17        0.80179       -44.96         
71.6964       0.04654       -172.63       9.481E-2      -24.83        9.472E-2      -24.36        0.80172       -45.33         
72.2964       0.04653       -172.56       9.486E-2      -25.05        9.474E-2      -24.59        0.80163       -45.71         
72.8964       0.04652       -172.49       9.489E-2      -25.23        9.47E-2       -24.76        0.80158       -46.09         
73.4963       0.04653       -172.40       9.486E-2      -25.45        9.474E-2      -24.98        0.80147       -46.47         
74.0963       0.04652       -172.36       9.487E-2      -25.66        9.478E-2      -25.20        0.80145       -46.84         
74.6963       0.04651       -172.33       9.483E-2      -25.87        9.474E-2      -25.38        0.80131       -47.22         
75.2963       0.0465        -172.27       9.49E-2       -26.08        9.472E-2      -25.59        0.80128       -47.60         
75.8962       0.04649       -172.19       9.486E-2      -26.23        9.475E-2      -25.79        0.8011        -47.98         
76.4962       0.04647       -172.09       9.489E-2      -26.49        9.475E-2      -26.01        0.80101       -48.35         
77.0962       0.0465        -172.04       9.484E-2      -26.66        9.476E-2      -26.22        0.80083       -48.73         
77.6961       0.04648       -171.97       9.484E-2      -26.88        9.476E-2      -26.42        0.80072       -49.11         
78.2961       0.04647       -171.91       9.487E-2      -27.06        9.475E-2      -26.61        0.80062       -49.49         
78.8961       0.04648       -171.85       9.487E-2      -27.28        9.479E-2      -26.82        0.80046       -49.87         
79.4960       0.04647       -171.79       9.484E-2      -27.46        9.477E-2      -27.04        0.80032       -50.24         
80.0960       0.04649       -171.74       9.489E-2      -27.66        9.479E-2      -27.25        0.8002        -50.62         
80.6960       0.04645       -171.65       9.483E-2      -27.89        9.474E-2      -27.43        0.80003       -51.00         
81.2960       0.04648       -171.61       9.488E-2      -28.08        9.478E-2      -27.67        0.7999        -51.38         
81.8959       0.04647       -171.54       9.484E-2      -28.28        9.475E-2      -27.85        0.79976       -51.76         
82.4959       0.04649       -171.50       9.49E-2       -28.49        9.476E-2      -28.06        0.79956       -52.13         
83.0959       0.04645       -171.45       9.487E-2      -28.69        9.475E-2      -28.24        0.79942       -52.52         
83.6958       0.04644       -171.40       9.486E-2      -28.91        9.477E-2      -28.46        0.79924       -52.89         
84.2958       0.04647       -171.31       9.486E-2      -29.10        9.475E-2      -28.67        0.79911       -53.27         
84.8958       0.04647       -171.26       9.483E-2      -29.31        9.475E-2      -28.86        0.79898       -53.65         
85.4957       0.04647       -171.20       9.483E-2      -29.51        9.471E-2      -29.06        0.79884       -54.03         
86.0957       0.04645       -171.16       9.488E-2      -29.75        9.472E-2      -29.27        0.79871       -54.41         
86.6957       0.04645       -171.07       9.483E-2      -29.93        9.474E-2      -29.47        0.7986        -54.79         
87.2957       0.04646       -171.03       9.483E-2      -30.18        9.471E-2      -29.67        0.79846       -55.16         
87.8956       0.04646       -170.90       9.484E-2      -30.33        9.471E-2      -29.89        0.79828       -55.54         
88.4956       0.04646       -170.84       9.48E-2       -30.57        9.471E-2      -30.10        0.79811       -55.92         
89.0956       0.04644       -170.75       9.481E-2      -30.73        9.47E-2       -30.30        0.79807       -56.30         
89.6955       0.04646       -170.70       9.482E-2      -30.95        9.471E-2      -30.49        0.79785       -56.68         
90.2955       0.04648       -170.63       9.48E-2       -31.18        9.471E-2      -30.71        0.79773       -57.06         
90.8955       0.04648       -170.62       9.48E-2       -31.35        9.475E-2      -30.92        0.79761       -57.44         
91.4954       0.0465        -170.51       9.484E-2      -31.55        9.47E-2       -31.12        0.79747       -57.82         
92.0954       0.0465        -170.45       9.483E-2      -31.77        9.471E-2      -31.35        0.79737       -58.20         
