!    3/18/2021   20:17:23 
! Ref Plane: 13.288 mm
# MHZ S MA R  50
!
0.3000        0.04805       179.51        9.734E-2      -1.09         9.599E-2      -0.60         0.81921       0.02           
0.9000        0.04724       -178.75       9.334E-2      -0.50         9.46E-2       -0.20         0.81189       -0.43          
1.4999        0.04725       -178.30       9.38E-2       -0.51         9.43E-2       -0.31         0.81086       -0.71          
2.0999        0.04729       -178.14       9.398E-2      -0.73         9.419E-2      -0.48         0.81042       -1.12          
2.6999        0.04731       -178.04       9.397E-2      -0.90         9.412E-2      -0.68         0.81027       -1.54          
3.2999        0.04732       -178.07       9.408E-2      -1.10         9.408E-2      -0.86         0.80994       -1.93          
3.8998        0.04732       -177.97       9.409E-2      -1.34         9.411E-2      -1.10         0.80986       -2.32          
4.4998        0.04731       -177.94       9.413E-2      -1.62         9.412E-2      -1.28         0.8097        -2.71          
5.0998        0.04732       -177.89       9.414E-2      -1.81         9.412E-2      -1.49         0.80973       -3.09          
5.6997        0.04729       -177.85       9.419E-2      -2.02         9.41E-2       -1.73         0.80958       -3.47          
6.2997        0.04728       -177.83       9.419E-2      -2.21         9.413E-2      -1.92         0.80948       -3.85          
6.8997        0.04731       -177.81       9.421E-2      -2.47         9.41E-2       -2.10         0.80938       -4.22          
7.4996        0.04728       -177.76       9.422E-2      -2.68         9.409E-2      -2.33         0.8093        -4.60          
8.0996        0.04728       -177.72       9.423E-2      -2.85         9.414E-2      -2.53         0.80921       -4.97          
8.6996        0.04725       -177.65       9.427E-2      -3.07         9.414E-2      -2.78         0.80918       -5.34          
9.2996        0.04724       -177.65       9.432E-2      -3.26         9.412E-2      -2.93         0.8091        -5.73          
9.8995        0.04719       -177.65       9.426E-2      -3.46         9.418E-2      -3.15         0.80907       -6.09          
10.4995       0.04723       -177.57       9.427E-2      -3.71         9.415E-2      -3.36         0.809         -6.47          
11.0995       0.04725       -177.52       9.433E-2      -3.89         9.417E-2      -3.55         0.80896       -6.84          
11.6994       0.04726       -177.53       9.428E-2      -4.09         9.419E-2      -3.78         0.80885       -7.21          
12.2994       0.04724       -177.45       9.43E-2       -4.28         9.415E-2      -3.96         0.8088        -7.59          
12.8994       0.04719       -177.44       9.431E-2      -4.55         9.416E-2      -4.17         0.80877       -7.96          
13.4993       0.04717       -177.38       9.432E-2      -4.72         9.42E-2       -4.39         0.80872       -8.34          
14.0993       0.04718       -177.36       9.436E-2      -4.89         9.416E-2      -4.57         0.80857       -8.71          
14.6993       0.04717       -177.35       9.439E-2      -5.09         9.42E-2       -4.79         0.80856       -9.08          
15.2993       0.04719       -177.28       9.438E-2      -5.32         9.422E-2      -4.98         0.80858       -9.45          
15.8992       0.04716       -177.27       9.446E-2      -5.52         9.422E-2      -5.20         0.80854       -9.83          
16.4992       0.04714       -177.15       9.447E-2      -5.73         9.424E-2      -5.41         0.80854       -10.20         
17.0992       0.0471        -177.12       9.445E-2      -5.93         9.425E-2      -5.63         0.80843       -10.57         
17.6991       0.04713       -177.08       9.439E-2      -6.13         9.427E-2      -5.82         0.80837       -10.95         
18.2991       0.04711       -177.08       9.45E-2       -6.32         9.427E-2      -6.02         0.80832       -11.31         
18.8991       0.04711       -177.04       9.448E-2      -6.57         9.429E-2      -6.24         0.8083        -11.69         
19.4990       0.04709       -177.01       9.447E-2      -6.74         9.427E-2      -6.43         0.80827       -12.06         
20.0990       0.04706       -176.94       9.445E-2      -6.97         9.427E-2      -6.62         0.8082        -12.43         
20.6990       0.04705       -176.92       9.449E-2      -7.18         9.431E-2      -6.85         0.80813       -12.80         
21.2990       0.04705       -176.86       9.452E-2      -7.39         9.436E-2      -7.05         0.80809       -13.17         
21.8989       0.04703       -176.83       9.453E-2      -7.60         9.435E-2      -7.24         0.80813       -13.54         
22.4989       0.04703       -176.73       9.459E-2      -7.77         9.435E-2      -7.43         0.80805       -13.91         
23.0989       0.04705       -176.70       9.456E-2      -7.99         9.436E-2      -7.64         0.80805       -14.28         
23.6988       0.04705       -176.68       9.456E-2      -8.18         9.438E-2      -7.85         0.808         -14.65         
24.2988       0.04705       -176.62       9.456E-2      -8.36         9.441E-2      -8.07         0.80799       -15.02         
24.8988       0.04706       -176.56       9.452E-2      -8.57         9.44E-2       -8.27         0.80794       -15.39         
25.4987       0.047         -176.51       9.457E-2      -8.79         9.441E-2      -8.47         0.80795       -15.76         
26.0987       0.04697       -176.44       9.459E-2      -9.02         9.45E-2       -8.66         0.80799       -16.13         
26.6987       0.04697       -176.43       9.459E-2      -9.19         9.441E-2      -8.85         0.80795       -16.50         
27.2987       0.04697       -176.35       9.457E-2      -9.37         9.448E-2      -9.06         0.80789       -16.87         
27.8986       0.04697       -176.30       9.464E-2      -9.61         9.45E-2       -9.26         0.80779       -17.24         
28.4986       0.04694       -176.28       9.47E-2       -9.79         9.447E-2      -9.47         0.80773       -17.61         
29.0986       0.04693       -176.23       9.463E-2      -10.00        9.451E-2      -9.66         0.80772       -17.98         
29.6985       0.04693       -176.18       9.466E-2      -10.21        9.452E-2      -9.85         0.80762       -18.36         
30.2985       0.0469        -176.14       9.466E-2      -10.44        9.455E-2      -10.07        0.80759       -18.72         
30.8985       0.04692       -176.13       9.47E-2       -10.63        9.447E-2      -10.31        0.80743       -19.09         
31.4984       0.04689       -176.05       9.475E-2      -10.82        9.453E-2      -10.51        0.80739       -19.47         
32.0984       0.04686       -176.00       9.47E-2       -11.04        9.453E-2      -10.70        0.80734       -19.83         
32.6984       0.04689       -175.96       9.468E-2      -11.24        9.453E-2      -10.89        0.80733       -20.21         
33.2984       0.04685       -175.84       9.471E-2      -11.45        9.453E-2      -11.11        0.80729       -20.58         
33.8983       0.04685       -175.83       9.465E-2      -11.61        9.456E-2      -11.31        0.80723       -20.94         
34.4983       0.04687       -175.75       9.476E-2      -11.82        9.457E-2      -11.50        0.80718       -21.32         
35.0983       0.04684       -175.74       9.472E-2      -12.00        9.462E-2      -11.71        0.80717       -21.68         
35.6982       0.04681       -175.73       9.476E-2      -12.25        9.461E-2      -11.91        0.80709       -22.06         
36.2982       0.04681       -175.63       9.477E-2      -12.47        9.465E-2      -12.11        0.80703       -22.42         
36.8982       0.04679       -175.61       9.478E-2      -12.64        9.462E-2      -12.33        0.80691       -22.80         
37.4981       0.04679       -175.53       9.475E-2      -12.84        9.466E-2      -12.51        0.80678       -23.16         
38.0981       0.04681       -175.51       9.477E-2      -13.05        9.464E-2      -12.70        0.80669       -23.53         
38.6981       0.04676       -175.45       9.476E-2      -13.27        9.462E-2      -12.90        0.80661       -23.89         
39.2981       0.04677       -175.42       9.475E-2      -13.44        9.463E-2      -13.09        0.80655       -24.26         
39.8980       0.04676       -175.41       9.477E-2      -13.66        9.46E-2       -13.32        0.80639       -24.63         
40.4980       0.04675       -175.30       9.473E-2      -13.85        9.47E-2       -13.51        0.8063        -24.99         
41.0980       0.04673       -175.25       9.477E-2      -14.05        9.465E-2      -13.72        0.80616       -25.36         
41.6979       0.04674       -175.18       9.483E-2      -14.29        9.463E-2      -13.92        0.80607       -25.73         
42.2979       0.04674       -175.14       9.483E-2      -14.47        9.463E-2      -14.08        0.80601       -26.09         
42.8979       0.04674       -175.07       9.48E-2       -14.70        9.469E-2      -14.33        0.80593       -26.46         
43.4978       0.04672       -174.97       9.484E-2      -14.87        9.469E-2      -14.51        0.80579       -26.83         
44.0978       0.04672       -174.96       9.486E-2      -15.06        9.47E-2       -14.71        0.80567       -27.20         
44.6978       0.0467        -174.89       9.485E-2      -15.27        9.471E-2      -14.91        0.80565       -27.56         
45.2978       0.04669       -174.89       9.487E-2      -15.46        9.467E-2      -15.13        0.80555       -27.93         
45.8977       0.0467        -174.81       9.489E-2      -15.66        9.47E-2       -15.32        0.80542       -28.30         
46.4977       0.04672       -174.73       9.494E-2      -15.86        9.47E-2       -15.53        0.80525       -28.67         
47.0977       0.04673       -174.67       9.477E-2      -15.97        9.471E-2      -15.75        0.80511       -29.06         
47.6976       0.04675       -174.63       9.489E-2      -16.23        9.477E-2      -15.96        0.80505       -29.43         
48.2976       0.04675       -174.55       9.486E-2      -16.43        9.475E-2      -16.17        0.80501       -29.80         
48.8976       0.04673       -174.49       9.49E-2       -16.63        9.476E-2      -16.37        0.80492       -30.16         
49.4975       0.04672       -174.46       9.487E-2      -16.84        9.478E-2      -16.57        0.80485       -30.53         
50.0975       0.04672       -174.38       9.492E-2      -17.02        9.476E-2      -16.79        0.80474       -30.91         
50.6975       0.04673       -174.38       9.493E-2      -17.25        9.475E-2      -17.01        0.80469       -31.27         
51.2975       0.04672       -174.33       9.495E-2      -17.42        9.476E-2      -17.19        0.80461       -31.64         
51.8974       0.04669       -174.26       9.502E-2      -17.66        9.472E-2      -17.39        0.80447       -32.01         
52.4974       0.04665       -174.23       9.506E-2      -17.89        9.471E-2      -17.54        0.80441       -32.37         
53.0974       0.04666       -174.19       9.502E-2      -18.11        9.465E-2      -17.70        0.80433       -32.74         
53.6973       0.04662       -174.08       9.522E-2      -18.51        9.372E-2      -17.72        0.80418       -33.11         
54.2973       0.04657       -174.36       9.545E-2      -18.62        9.482E-2      -18.18        0.80411       -33.48         
54.8973       0.04665       -173.93       9.494E-2      -18.66        9.484E-2      -18.37        0.80398       -33.85         
55.4972       0.04662       -173.91       9.499E-2      -18.89        9.489E-2      -18.57        0.80392       -34.22         
56.0972       0.04664       -173.83       9.495E-2      -19.08        9.488E-2      -18.78        0.80382       -34.59         
56.6972       0.04662       -173.79       9.495E-2      -19.30        9.485E-2      -18.98        0.80367       -34.96         
57.2972       0.04659       -173.72       9.498E-2      -19.51        9.485E-2      -19.17        0.8036        -35.33         
57.8971       0.0466        -173.69       9.499E-2      -19.71        9.484E-2      -19.38        0.80346       -35.70         
58.4971       0.04665       -173.64       9.495E-2      -19.92        9.489E-2      -19.58        0.80337       -36.07         
59.0971       0.04659       -173.58       9.497E-2      -20.13        9.49E-2       -19.78        0.80329       -36.45         
59.6970       0.04661       -173.49       9.498E-2      -20.31        9.482E-2      -20.00        0.80319       -36.82         
60.2970       0.0466        -173.45       9.501E-2      -20.55        9.488E-2      -20.18        0.80306       -37.20         
60.8970       0.0466        -173.40       9.502E-2      -20.75        9.49E-2       -20.40        0.80297       -37.57         
61.4969       0.04659       -173.32       9.499E-2      -20.97        9.491E-2      -20.60        0.80286       -37.94         
62.0969       0.04662       -173.27       9.497E-2      -21.16        9.487E-2      -20.83        0.80274       -38.32         
62.6969       0.04661       -173.17       9.499E-2      -21.37        9.492E-2      -21.00        0.80259       -38.69         
63.2969       0.04658       -173.13       9.498E-2      -21.55        9.49E-2       -21.21        0.80253       -39.06         
63.8968       0.04661       -173.03       9.496E-2      -21.77        9.492E-2      -21.43        0.80236       -39.44         
64.4968       0.04662       -173.00       9.499E-2      -21.98        9.491E-2      -21.65        0.80233       -39.81         
65.0968       0.04659       -172.95       9.496E-2      -22.17        9.494E-2      -21.83        0.80218       -40.18         
65.6967       0.04662       -172.86       9.501E-2      -22.41        9.493E-2      -22.05        0.80209       -40.56         
66.2967       0.04657       -172.83       9.50E-2       -22.57        9.493E-2      -22.26        0.80197       -40.92         
66.8967       0.04661       -172.75       9.499E-2      -22.78        9.492E-2      -22.44        0.80184       -41.29         
67.4966       0.04658       -172.68       9.505E-2      -22.94        9.499E-2      -22.64        0.80173       -41.66         
68.0966       0.04657       -172.63       9.501E-2      -23.21        9.495E-2      -22.85        0.8016        -42.04         
68.6966       0.04658       -172.56       9.502E-2      -23.39        9.494E-2      -23.05        0.80147       -42.40         
69.2966       0.04661       -172.50       9.506E-2      -23.58        9.497E-2      -23.23        0.80134       -42.77         
69.8965       0.04661       -172.41       9.506E-2      -23.79        9.495E-2      -23.43        0.80117       -43.14         
70.4965       0.0466        -172.37       9.508E-2      -23.98        9.493E-2      -23.65        0.8011        -43.51         
71.0965       0.04656       -172.31       9.504E-2      -24.17        9.494E-2      -23.84        0.80094       -43.88         
71.6964       0.04661       -172.25       9.502E-2      -24.41        9.494E-2      -24.05        0.80086       -44.25         
72.2964       0.04657       -172.19       9.509E-2      -24.61        9.494E-2      -24.26        0.8007        -44.62         
72.8964       0.04659       -172.11       9.508E-2      -24.78        9.493E-2      -24.46        0.80064       -44.99         
73.4963       0.04659       -172.01       9.506E-2      -25.01        9.499E-2      -24.66        0.80055       -45.36         
74.0963       0.04659       -171.98       9.51E-2       -25.22        9.499E-2      -24.87        0.80051       -45.73         
74.6963       0.04655       -171.91       9.507E-2      -25.41        9.497E-2      -25.04        0.80036       -46.10         
75.2963       0.04653       -171.86       9.513E-2      -25.62        9.496E-2      -25.27        0.8002        -46.47         
75.8962       0.04657       -171.78       9.51E-2       -25.78        9.498E-2      -25.47        0.80007       -46.84         
76.4962       0.04656       -171.70       9.513E-2      -26.04        9.502E-2      -25.69        0.80003       -47.21         
77.0962       0.04655       -171.62       9.509E-2      -26.20        9.501E-2      -25.88        0.79979       -47.58         
77.6961       0.04653       -171.56       9.509E-2      -26.42        9.499E-2      -26.09        0.79966       -47.95         
78.2961       0.04653       -171.47       9.511E-2      -26.59        9.501E-2      -26.27        0.79954       -48.32         
78.8961       0.04656       -171.41       9.509E-2      -26.82        9.504E-2      -26.49        0.79936       -48.69         
79.4960       0.04655       -171.38       9.508E-2      -27.00        9.501E-2      -26.70        0.79922       -49.06         
80.0960       0.04655       -171.30       9.515E-2      -27.20        9.504E-2      -26.91        0.79906       -49.43         
80.6960       0.04652       -171.24       9.511E-2      -27.42        9.50E-2       -27.08        0.79889       -49.80         
81.2960       0.04656       -171.20       9.513E-2      -27.61        9.501E-2      -27.31        0.79878       -50.17         
81.8959       0.04652       -171.12       9.512E-2      -27.80        9.501E-2      -27.49        0.7986        -50.55         
82.4959       0.04654       -171.07       9.515E-2      -28.00        9.501E-2      -27.71        0.79837       -50.92         
83.0959       0.04655       -170.98       9.515E-2      -28.20        9.506E-2      -27.88        0.79827       -51.29         
83.6958       0.04652       -170.97       9.514E-2      -28.43        9.502E-2      -28.10        0.79806       -51.65         
84.2958       0.04652       -170.88       9.512E-2      -28.60        9.505E-2      -28.31        0.79794       -52.03         
84.8958       0.04653       -170.82       9.514E-2      -28.83        9.503E-2      -28.49        0.79777       -52.40         
85.4957       0.04656       -170.75       9.513E-2      -29.01        9.503E-2      -28.69        0.79759       -52.78         
86.0957       0.04654       -170.71       9.517E-2      -29.26        9.501E-2      -28.89        0.79747       -53.15         
86.6957       0.04654       -170.63       9.517E-2      -29.44        9.506E-2      -29.09        0.79734       -53.52         
87.2957       0.04653       -170.57       9.513E-2      -29.67        9.50E-2       -29.29        0.79708       -53.89         
87.8956       0.04653       -170.44       9.519E-2      -29.84        9.502E-2      -29.51        0.79699       -54.26         
88.4956       0.04653       -170.36       9.513E-2      -30.05        9.503E-2      -29.70        0.7968        -54.63         
89.0956       0.04651       -170.29       9.513E-2      -30.24        9.501E-2      -29.91        0.79669       -55.00         
89.6955       0.04653       -170.23       9.518E-2      -30.45        9.503E-2      -30.10        0.79646       -55.38         
90.2955       0.04656       -170.17       9.511E-2      -30.68        9.504E-2      -30.32        0.79634       -55.75         
90.8955       0.04656       -170.16       9.514E-2      -30.85        9.507E-2      -30.51        0.7962        -56.12         
91.4954       0.04655       -170.07       9.517E-2      -31.04        9.505E-2      -30.73        0.79605       -56.50         
92.0954       0.04656       -169.97       9.515E-2      -31.26        9.506E-2      -30.95        0.79594       -56.87         
