!    3/19/2021   22:17:50 
! Ref Plane: 13.200 mm
# MHZ S MA R  50
!
0.3000        0.04768       -179.38       9.745E-2      -1.24         9.55E-2       -0.53         0.81592       -0.17          
0.9000        0.04723       -178.30       9.358E-2      -0.56         9.433E-2      -0.09         0.81014       -0.50          
1.4999        0.04721       -178.09       9.397E-2      -0.54         9.424E-2      -0.25         0.80986       -0.85          
2.0999        0.04726       -178.00       9.402E-2      -0.71         9.416E-2      -0.44         0.80975       -1.25          
2.6999        0.04728       -177.95       9.412E-2      -0.95         9.415E-2      -0.67         0.80961       -1.65          
3.2999        0.04724       -177.95       9.408E-2      -1.22         9.42E-2       -0.86         0.80951       -2.04          
3.8998        0.04726       -177.85       9.417E-2      -1.42         9.419E-2      -1.07         0.80941       -2.43          
4.4998        0.04726       -177.82       9.414E-2      -1.63         9.413E-2      -1.29         0.80932       -2.82          
5.0998        0.04725       -177.84       9.413E-2      -1.85         9.416E-2      -1.49         0.80928       -3.20          
5.6997        0.04723       -177.84       9.409E-2      -2.02         9.416E-2      -1.72         0.80918       -3.59          
6.2997        0.04724       -177.77       9.41E-2       -2.27         9.419E-2      -1.91         0.80913       -3.97          
6.8997        0.04725       -177.77       9.415E-2      -2.44         9.418E-2      -2.10         0.80905       -4.36          
7.4996        0.04724       -177.75       9.419E-2      -2.68         9.42E-2       -2.30         0.80896       -4.74          
8.0996        0.04722       -177.71       9.424E-2      -2.87         9.424E-2      -2.54         0.80893       -5.12          
8.6996        0.0472        -177.68       9.427E-2      -3.09         9.417E-2      -2.76         0.80885       -5.50          
9.2996        0.0472        -177.66       9.424E-2      -3.27         9.419E-2      -2.94         0.80874       -5.88          
9.8995        0.04718       -177.65       9.426E-2      -3.48         9.422E-2      -3.14         0.80867       -6.26          
10.4995       0.0472        -177.57       9.428E-2      -3.73         9.422E-2      -3.37         0.80864       -6.64          
11.0995       0.04719       -177.56       9.422E-2      -3.90         9.423E-2      -3.56         0.80863       -7.03          
11.6994       0.04721       -177.56       9.432E-2      -4.10         9.424E-2      -3.78         0.80852       -7.40          
12.2994       0.04722       -177.49       9.433E-2      -4.36         9.425E-2      -3.98         0.80848       -7.79          
12.8994       0.04719       -177.47       9.425E-2      -4.51         9.426E-2      -4.18         0.80844       -8.17          
13.4993       0.04715       -177.41       9.424E-2      -4.76         9.428E-2      -4.39         0.80839       -8.55          
14.0993       0.04718       -177.41       9.432E-2      -4.95         9.428E-2      -4.62         0.80829       -8.93          
14.6993       0.04714       -177.39       9.437E-2      -5.13         9.425E-2      -4.81         0.80827       -9.31          
15.2993       0.04718       -177.32       9.441E-2      -5.37         9.43E-2       -5.01         0.80826       -9.69          
15.8992       0.04714       -177.32       9.436E-2      -5.57         9.429E-2      -5.24         0.80823       -10.07         
16.4992       0.04714       -177.24       9.438E-2      -5.81         9.431E-2      -5.41         0.80818       -10.45         
17.0992       0.04713       -177.24       9.44E-2       -6.00         9.427E-2      -5.65         0.80816       -10.83         
17.6991       0.04711       -177.19       9.437E-2      -6.17         9.431E-2      -5.83         0.80811       -11.21         
18.2991       0.04711       -177.12       9.44E-2       -6.41         9.43E-2       -6.07         0.8081        -11.60         
18.8991       0.04707       -177.10       9.442E-2      -6.62         9.433E-2      -6.25         0.80796       -11.98         
19.4990       0.04709       -177.05       9.443E-2      -6.83         9.436E-2      -6.48         0.80795       -12.36         
20.0990       0.0471        -177.02       9.446E-2      -7.02         9.433E-2      -6.70         0.80792       -12.73         
20.6990       0.04706       -176.98       9.446E-2      -7.23         9.44E-2       -6.89         0.80786       -13.11         
21.2990       0.04706       -176.98       9.445E-2      -7.43         9.438E-2      -7.12         0.80782       -13.49         
21.8989       0.04709       -176.93       9.448E-2      -7.63         9.438E-2      -7.31         0.8078        -13.87         
22.4989       0.04703       -176.88       9.452E-2      -7.84         9.439E-2      -7.52         0.80779       -14.25         
23.0989       0.04707       -176.83       9.452E-2      -8.04         9.439E-2      -7.73         0.80773       -14.62         
23.6988       0.04709       -176.77       9.448E-2      -8.24         9.443E-2      -7.92         0.80773       -15.00         
24.2988       0.04707       -176.73       9.454E-2      -8.45         9.444E-2      -8.13         0.80774       -15.39         
24.8988       0.04705       -176.69       9.451E-2      -8.68         9.447E-2      -8.33         0.80775       -15.76         
25.4987       0.04703       -176.66       9.454E-2      -8.89         9.45E-2       -8.53         0.80771       -16.14         
26.0987       0.047         -176.56       9.46E-2       -9.09         9.448E-2      -8.76         0.80773       -16.52         
26.6987       0.04702       -176.50       9.458E-2      -9.29         9.45E-2       -8.95         0.80774       -16.90         
27.2987       0.04699       -176.49       9.461E-2      -9.50         9.451E-2      -9.15         0.80766       -17.28         
27.8986       0.04701       -176.43       9.455E-2      -9.67         9.451E-2      -9.35         0.8076        -17.66         
28.4986       0.04701       -176.41       9.457E-2      -9.88         9.451E-2      -9.55         0.80751       -18.04         
29.0986       0.04696       -176.37       9.457E-2      -10.11        9.453E-2      -9.78         0.80754       -18.41         
29.6985       0.04696       -176.32       9.458E-2      -10.33        9.452E-2      -9.98         0.80741       -18.80         
30.2985       0.04696       -176.25       9.459E-2      -10.52        9.452E-2      -10.20        0.80743       -19.17         
30.8985       0.04691       -176.24       9.456E-2      -10.73        9.454E-2      -10.40        0.8073        -19.55         
31.4984       0.04691       -176.18       9.46E-2       -10.92        9.454E-2      -10.60        0.80722       -19.93         
32.0984       0.0469        -176.15       9.459E-2      -11.15        9.458E-2      -10.81        0.80713       -20.31         
32.6984       0.04695       -176.08       9.467E-2      -11.37        9.459E-2      -11.02        0.80717       -20.69         
33.2984       0.04693       -176.02       9.46E-2       -11.50        9.459E-2      -11.22        0.80711       -21.07         
33.8983       0.04693       -175.93       9.463E-2      -11.76        9.459E-2      -11.43        0.80711       -21.45         
34.4983       0.04693       -175.89       9.461E-2      -11.97        9.46E-2       -11.63        0.80705       -21.83         
35.0983       0.0469        -175.88       9.464E-2      -12.17        9.461E-2      -11.83        0.80708       -22.20         
35.6982       0.04687       -175.86       9.47E-2       -12.36        9.466E-2      -12.04        0.80698       -22.58         
36.2982       0.04686       -175.79       9.468E-2      -12.62        9.462E-2      -12.26        0.80689       -22.96         
36.8982       0.04687       -175.74       9.47E-2       -12.82        9.464E-2      -12.45        0.80679       -23.34         
37.4981       0.04686       -175.67       9.469E-2      -12.99        9.465E-2      -12.65        0.80673       -23.72         
38.0981       0.04684       -175.66       9.466E-2      -13.18        9.465E-2      -12.84        0.80657       -24.09         
38.6981       0.04685       -175.58       9.468E-2      -13.41        9.465E-2      -13.06        0.80647       -24.46         
39.2981       0.04683       -175.55       9.464E-2      -13.57        9.462E-2      -13.24        0.8064        -24.83         
39.8980       0.04684       -175.50       9.471E-2      -13.82        9.463E-2      -13.45        0.80631       -25.21         
40.4980       0.04685       -175.46       9.464E-2      -13.98        9.465E-2      -13.66        0.80626       -25.59         
41.0980       0.04677       -175.39       9.466E-2      -14.22        9.462E-2      -13.86        0.80614       -25.96         
41.6979       0.04682       -175.35       9.47E-2       -14.43        9.463E-2      -14.06        0.80607       -26.34         
42.2979       0.04681       -175.29       9.469E-2      -14.63        9.466E-2      -14.26        0.806         -26.71         
42.8979       0.04679       -175.22       9.467E-2      -14.84        9.461E-2      -14.50        0.80588       -27.09         
43.4978       0.04683       -175.17       9.472E-2      -15.05        9.466E-2      -14.67        0.80576       -27.46         
44.0978       0.04677       -175.15       9.47E-2       -15.22        9.464E-2      -14.86        0.80571       -27.84         
44.6978       0.0468        -175.07       9.474E-2      -15.44        9.467E-2      -15.10        0.80567       -28.21         
45.2978       0.04677       -174.99       9.479E-2      -15.64        9.465E-2      -15.31        0.80557       -28.59         
45.8977       0.04677       -174.95       9.475E-2      -15.84        9.466E-2      -15.51        0.80544       -28.96         
46.4977       0.04678       -174.88       9.477E-2      -16.04        9.471E-2      -15.70        0.80536       -29.34         
47.0977       0.04678       -174.81       9.471E-2      -16.23        9.469E-2      -15.92        0.80516       -29.74         
47.6976       0.04679       -174.77       9.472E-2      -16.42        9.467E-2      -16.14        0.80511       -30.11         
48.2976       0.04676       -174.75       9.476E-2      -16.62        9.468E-2      -16.34        0.80505       -30.49         
48.8976       0.04676       -174.67       9.476E-2      -16.83        9.473E-2      -16.56        0.80501       -30.87         
49.4975       0.04677       -174.58       9.475E-2      -17.07        9.468E-2      -16.77        0.80494       -31.24         
50.0975       0.04679       -174.59       9.481E-2      -17.23        9.471E-2      -16.95        0.80485       -31.62         
50.6975       0.04677       -174.50       9.478E-2      -17.49        9.468E-2      -17.20        0.80477       -32.00         
51.2975       0.04679       -174.47       9.481E-2      -17.64        9.471E-2      -17.40        0.80473       -32.38         
51.8974       0.04672       -174.42       9.484E-2      -17.85        9.473E-2      -17.55        0.80463       -32.75         
52.4974       0.04676       -174.36       9.484E-2      -18.10        9.469E-2      -17.76        0.80451       -33.12         
53.0974       0.04673       -174.26       9.48E-2       -18.35        9.466E-2      -17.91        0.80443       -33.49         
53.6973       0.04668       -174.21       9.493E-2      -18.64        9.399E-2      -17.96        0.80439       -33.87         
54.2973       0.0467        -174.33       9.498E-2      -18.77        9.475E-2      -18.39        0.80427       -34.25         
54.8973       0.04674       -174.15       9.478E-2      -18.91        9.474E-2      -18.59        0.80419       -34.63         
55.4972       0.04672       -174.10       9.476E-2      -19.10        9.473E-2      -18.79        0.8041        -35.01         
56.0972       0.04671       -174.02       9.481E-2      -19.30        9.474E-2      -18.99        0.80397       -35.38         
56.6972       0.04669       -173.96       9.48E-2       -19.50        9.479E-2      -19.18        0.80393       -35.76         
57.2972       0.04669       -173.88       9.475E-2      -19.72        9.477E-2      -19.39        0.80383       -36.14         
57.8971       0.04668       -173.79       9.476E-2      -19.97        9.476E-2      -19.58        0.8037        -36.52         
58.4971       0.04669       -173.78       9.482E-2      -20.11        9.474E-2      -19.82        0.80361       -36.90         
59.0971       0.04667       -173.67       9.481E-2      -20.36        9.475E-2      -20.00        0.80352       -37.28         
59.6970       0.04666       -173.65       9.477E-2      -20.56        9.474E-2      -20.22        0.80347       -37.67         
60.2970       0.0467        -173.61       9.482E-2      -20.77        9.474E-2      -20.43        0.80335       -38.04         
60.8970       0.04668       -173.52       9.484E-2      -21.00        9.476E-2      -20.63        0.80329       -38.43         
61.4969       0.04668       -173.47       9.477E-2      -21.20        9.476E-2      -20.84        0.80319       -38.81         
62.0969       0.04668       -173.40       9.481E-2      -21.39        9.477E-2      -21.06        0.80309       -39.19         
62.6969       0.04667       -173.35       9.479E-2      -21.63        9.477E-2      -21.26        0.80303       -39.57         
63.2969       0.04669       -173.30       9.483E-2      -21.83        9.479E-2      -21.45        0.80293       -39.94         
63.8968       0.04667       -173.20       9.477E-2      -22.02        9.48E-2       -21.67        0.80285       -40.33         
64.4968       0.04667       -173.13       9.476E-2      -22.25        9.481E-2      -21.91        0.80274       -40.71         
65.0968       0.04667       -173.09       9.48E-2       -22.41        9.481E-2      -22.09        0.80262       -41.09         
65.6967       0.04667       -173.05       9.477E-2      -22.64        9.481E-2      -22.28        0.80249       -41.47         
66.2967       0.04666       -172.96       9.477E-2      -22.85        9.479E-2      -22.51        0.80242       -41.84         
66.8967       0.04668       -172.88       9.478E-2      -23.01        9.482E-2      -22.71        0.8023        -42.23         
67.4966       0.04667       -172.83       9.475E-2      -23.23        9.477E-2      -22.89        0.80217       -42.60         
68.0966       0.04664       -172.79       9.478E-2      -23.42        9.478E-2      -23.11        0.80199       -42.98         
68.6966       0.04664       -172.70       9.473E-2      -23.65        9.48E-2       -23.33        0.8019        -43.36         
69.2966       0.0467        -172.62       9.481E-2      -23.82        9.479E-2      -23.49        0.80184       -43.73         
69.8965       0.04665       -172.57       9.475E-2      -24.06        9.476E-2      -23.70        0.80174       -44.11         
70.4965       0.04665       -172.52       9.479E-2      -24.26        9.478E-2      -23.91        0.80166       -44.48         
71.0965       0.04663       -172.42       9.481E-2      -24.46        9.477E-2      -24.15        0.80155       -44.86         
71.6964       0.04664       -172.40       9.479E-2      -24.68        9.481E-2      -24.32        0.80149       -45.23         
72.2964       0.04664       -172.37       9.477E-2      -24.90        9.478E-2      -24.54        0.80138       -45.61         
72.8964       0.04663       -172.27       9.483E-2      -25.10        9.478E-2      -24.75        0.80128       -45.98         
73.4963       0.04666       -172.21       9.483E-2      -25.30        9.477E-2      -24.95        0.80118       -46.36         
74.0963       0.04661       -172.09       9.478E-2      -25.50        9.478E-2      -25.15        0.80107       -46.74         
74.6963       0.0466        -172.04       9.479E-2      -25.68        9.478E-2      -25.33        0.80096       -47.11         
75.2963       0.04659       -171.99       9.477E-2      -25.90        9.48E-2       -25.57        0.80081       -47.49         
75.8962       0.04661       -171.94       9.483E-2      -26.13        9.479E-2      -25.76        0.80072       -47.87         
76.4962       0.04662       -171.85       9.479E-2      -26.34        9.475E-2      -26.00        0.80059       -48.25         
77.0962       0.04662       -171.75       9.48E-2       -26.50        9.48E-2       -26.16        0.80055       -48.62         
77.6961       0.04661       -171.71       9.479E-2      -26.71        9.478E-2      -26.36        0.80039       -48.99         
78.2961       0.04658       -171.64       9.479E-2      -26.93        9.481E-2      -26.59        0.80021       -49.38         
78.8961       0.04656       -171.59       9.481E-2      -27.12        9.479E-2      -26.81        0.80013       -49.75         
79.4960       0.04658       -171.50       9.478E-2      -27.31        9.48E-2       -26.99        0.79997       -50.13         
80.0960       0.04658       -171.46       9.477E-2      -27.51        9.481E-2      -27.20        0.79982       -50.50         
80.6960       0.0466        -171.37       9.478E-2      -27.72        9.479E-2      -27.38        0.79966       -50.88         
81.2960       0.04658       -171.33       9.479E-2      -27.92        9.479E-2      -27.62        0.79961       -51.25         
81.8959       0.04657       -171.27       9.483E-2      -28.14        9.477E-2      -27.78        0.79937       -51.63         
82.4959       0.04657       -171.22       9.481E-2      -28.32        9.484E-2      -27.99        0.79924       -52.01         
83.0959       0.04656       -171.11       9.478E-2      -28.52        9.481E-2      -28.21        0.7991        -52.39         
83.6958       0.04657       -171.08       9.482E-2      -28.74        9.479E-2      -28.40        0.7989        -52.77         
84.2958       0.0466        -171.06       9.478E-2      -28.95        9.478E-2      -28.60        0.79879       -53.14         
84.8958       0.04656       -170.97       9.475E-2      -29.17        9.481E-2      -28.80        0.79865       -53.52         
85.4957       0.04658       -170.90       9.483E-2      -29.38        9.477E-2      -29.01        0.79851       -53.90         
86.0957       0.04658       -170.85       9.475E-2      -29.56        9.474E-2      -29.22        0.79836       -54.28         
86.6957       0.04657       -170.78       9.474E-2      -29.78        9.475E-2      -29.43        0.79819       -54.66         
87.2957       0.04657       -170.71       9.473E-2      -30.01        9.473E-2      -29.62        0.79809       -55.03         
87.8956       0.04657       -170.61       9.478E-2      -30.19        9.473E-2      -29.84        0.798         -55.41         
88.4956       0.04657       -170.56       9.47E-2       -30.39        9.47E-2       -30.03        0.79775       -55.78         
89.0956       0.04657       -170.46       9.473E-2      -30.57        9.475E-2      -30.26        0.79764       -56.16         
89.6955       0.04657       -170.42       9.471E-2      -30.78        9.471E-2      -30.43        0.79753       -56.54         
90.2955       0.04657       -170.37       9.473E-2      -30.97        9.471E-2      -30.64        0.79744       -56.92         
90.8955       0.04657       -170.27       9.476E-2      -31.20        9.474E-2      -30.87        0.79729       -57.30         
91.4954       0.0466        -170.21       9.477E-2      -31.39        9.472E-2      -31.08        0.79713       -57.68         
92.0954       0.04662       -170.17       9.475E-2      -31.61        9.472E-2      -31.22        0.79702       -58.06         
