!    3/18/2021   18:23:16 
! Ref Plane: 13.288 mm
# MHZ S MA R  50
!
0.3000        0.04706       -176.88       9.777E-2      -1.18         9.512E-2      -0.76         0.81296       -0.46          
0.9000        0.0473        -177.63       9.376E-2      -0.66         9.401E-2      -0.11         0.80846       -0.80          
1.4999        0.04729       -177.71       9.399E-2      -0.61         9.407E-2      -0.30         0.80909       -1.11          
2.0999        0.0473        -177.72       9.406E-2      -0.77         9.414E-2      -0.50         0.80911       -1.46          
2.6999        0.04727       -177.73       9.401E-2      -0.91         9.42E-2       -0.70         0.80926       -1.82          
3.2999        0.04729       -177.80       9.408E-2      -1.08         9.415E-2      -0.89         0.80915       -2.18          
3.8998        0.04729       -177.76       9.405E-2      -1.30         9.422E-2      -1.14         0.80905       -2.55          
4.4998        0.04729       -177.76       9.406E-2      -1.55         9.424E-2      -1.31         0.809         -2.92          
5.0998        0.04726       -177.71       9.409E-2      -1.76         9.425E-2      -1.54         0.80895       -3.29          
5.6997        0.04724       -177.70       9.411E-2      -1.95         9.423E-2      -1.77         0.80889       -3.66          
6.2997        0.04727       -177.69       9.408E-2      -2.10         9.427E-2      -1.95         0.80889       -4.03          
6.8997        0.04728       -177.67       9.411E-2      -2.37         9.422E-2      -2.14         0.80876       -4.41          
7.4996        0.04726       -177.62       9.412E-2      -2.57         9.427E-2      -2.38         0.80873       -4.78          
8.0996        0.04724       -177.62       9.412E-2      -2.73         9.429E-2      -2.58         0.80869       -5.15          
8.6996        0.04722       -177.58       9.415E-2      -2.94         9.429E-2      -2.80         0.80867       -5.52          
9.2996        0.04722       -177.55       9.417E-2      -3.14         9.427E-2      -2.98         0.8086        -5.90          
9.8995        0.04717       -177.55       9.413E-2      -3.35         9.433E-2      -3.22         0.80856       -6.28          
10.4995       0.04721       -177.48       9.415E-2      -3.59         9.432E-2      -3.42         0.80852       -6.65          
11.0995       0.04726       -177.47       9.418E-2      -3.76         9.433E-2      -3.62         0.80844       -7.03          
11.6994       0.04728       -177.44       9.414E-2      -3.97         9.436E-2      -3.83         0.80837       -7.40          
12.2994       0.04724       -177.41       9.416E-2      -4.14         9.432E-2      -4.01         0.80837       -7.77          
12.8994       0.0472        -177.40       9.417E-2      -4.42         9.433E-2      -4.23         0.80829       -8.15          
13.4993       0.04719       -177.37       9.421E-2      -4.57         9.434E-2      -4.45         0.80824       -8.53          
14.0993       0.04719       -177.32       9.424E-2      -4.78         9.436E-2      -4.63         0.80816       -8.90          
14.6993       0.04719       -177.31       9.425E-2      -4.96         9.438E-2      -4.84         0.80815       -9.27          
15.2993       0.04719       -177.27       9.424E-2      -5.21         9.439E-2      -5.05         0.80819       -9.65          
15.8992       0.0472        -177.26       9.432E-2      -5.40         9.442E-2      -5.25         0.80815       -10.03         
16.4992       0.04716       -177.17       9.436E-2      -5.60         9.44E-2       -5.49         0.80815       -10.40         
17.0992       0.04717       -177.15       9.433E-2      -5.80         9.441E-2      -5.69         0.80807       -10.78         
17.6991       0.04716       -177.08       9.429E-2      -6.00         9.444E-2      -5.90         0.808         -11.15         
18.2991       0.04715       -177.11       9.439E-2      -6.19         9.442E-2      -6.10         0.80794       -11.53         
18.8991       0.04713       -177.05       9.433E-2      -6.42         9.447E-2      -6.31         0.80794       -11.90         
19.4990       0.0471        -177.01       9.433E-2      -6.61         9.443E-2      -6.50         0.8079        -12.28         
20.0990       0.04707       -176.98       9.43E-2       -6.84         9.445E-2      -6.69         0.80784       -12.65         
20.6990       0.04709       -176.97       9.438E-2      -7.06         9.446E-2      -6.93         0.8078        -13.03         
21.2990       0.04707       -176.91       9.439E-2      -7.24         9.452E-2      -7.14         0.80777       -13.40         
21.8989       0.04706       -176.88       9.441E-2      -7.47         9.451E-2      -7.32         0.80775       -13.77         
22.4989       0.04707       -176.82       9.448E-2      -7.65         9.449E-2      -7.53         0.80777       -14.15         
23.0989       0.04707       -176.75       9.443E-2      -7.86         9.451E-2      -7.75         0.8077        -14.52         
23.6988       0.04706       -176.74       9.447E-2      -8.03         9.456E-2      -7.95         0.80773       -14.89         
24.2988       0.04705       -176.68       9.445E-2      -8.24         9.46E-2       -8.16         0.80771       -15.27         
24.8988       0.04704       -176.63       9.441E-2      -8.43         9.456E-2      -8.35         0.80775       -15.65         
25.4987       0.047         -176.57       9.444E-2      -8.67         9.458E-2      -8.57         0.80765       -16.02         
26.0987       0.04698       -176.52       9.444E-2      -8.90         9.462E-2      -8.76         0.80766       -16.40         
26.6987       0.047         -176.50       9.448E-2      -9.06         9.459E-2      -8.96         0.8077        -16.77         
27.2987       0.04695       -176.43       9.445E-2      -9.26         9.464E-2      -9.16         0.80764       -17.15         
27.8986       0.04695       -176.41       9.452E-2      -9.48         9.461E-2      -9.36         0.80755       -17.52         
28.4986       0.04691       -176.39       9.458E-2      -9.66         9.462E-2      -9.58         0.80751       -17.89         
29.0986       0.04693       -176.35       9.451E-2      -9.88         9.467E-2      -9.75         0.80747       -18.27         
29.6985       0.04692       -176.27       9.453E-2      -10.09        9.469E-2      -9.96         0.80744       -18.64         
30.2985       0.04688       -176.24       9.451E-2      -10.33        9.465E-2      -10.18        0.80736       -19.02         
30.8985       0.04689       -176.19       9.46E-2       -10.51        9.461E-2      -10.42        0.80723       -19.39         
31.4984       0.04686       -176.18       9.46E-2       -10.70        9.468E-2      -10.61        0.80719       -19.77         
32.0984       0.04684       -176.11       9.459E-2      -10.92        9.468E-2      -10.82        0.80723       -20.14         
32.6984       0.04687       -176.07       9.457E-2      -11.13        9.467E-2      -11.01        0.80717       -20.52         
33.2984       0.04682       -175.99       9.46E-2       -11.34        9.469E-2      -11.23        0.80714       -20.89         
33.8983       0.04685       -175.97       9.453E-2      -11.51        9.472E-2      -11.44        0.8071        -21.27         
34.4983       0.04683       -175.92       9.461E-2      -11.73        9.475E-2      -11.63        0.80706       -21.64         
35.0983       0.04678       -175.87       9.461E-2      -11.92        9.475E-2      -11.84        0.80705       -22.01         
35.6982       0.04678       -175.85       9.463E-2      -12.15        9.476E-2      -12.03        0.80703       -22.39         
36.2982       0.04678       -175.79       9.466E-2      -12.35        9.478E-2      -12.25        0.80696       -22.76         
36.8982       0.04675       -175.74       9.461E-2      -12.52        9.476E-2      -12.44        0.80686       -23.14         
37.4981       0.04673       -175.68       9.462E-2      -12.74        9.48E-2       -12.66        0.8067        -23.51         
38.0981       0.04672       -175.64       9.463E-2      -12.95        9.476E-2      -12.84        0.80664       -23.88         
38.6981       0.04669       -175.61       9.464E-2      -13.19        9.475E-2      -13.05        0.80659       -24.25         
39.2981       0.04669       -175.60       9.464E-2      -13.36        9.479E-2      -13.23        0.80653       -24.62         
39.8980       0.04668       -175.54       9.463E-2      -13.57        9.473E-2      -13.47        0.80635       -24.99         
40.4980       0.04664       -175.46       9.461E-2      -13.76        9.48E-2       -13.66        0.80627       -25.36         
41.0980       0.04663       -175.41       9.464E-2      -13.97        9.476E-2      -13.86        0.80617       -25.74         
41.6979       0.04662       -175.36       9.472E-2      -14.18        9.476E-2      -14.07        0.80606       -26.10         
42.2979       0.04664       -175.29       9.472E-2      -14.37        9.476E-2      -14.25        0.80598       -26.47         
42.8979       0.04662       -175.21       9.467E-2      -14.62        9.481E-2      -14.47        0.80594       -26.85         
43.4978       0.04661       -175.19       9.471E-2      -14.79        9.482E-2      -14.66        0.80583       -27.22         
44.0978       0.04659       -175.17       9.476E-2      -14.98        9.483E-2      -14.88        0.80572       -27.59         
44.6978       0.0466        -175.07       9.473E-2      -15.18        9.484E-2      -15.07        0.80571       -27.96         
45.2978       0.04656       -175.05       9.472E-2      -15.38        9.479E-2      -15.29        0.80558       -28.33         
45.8977       0.04652       -174.99       9.476E-2      -15.57        9.482E-2      -15.48        0.80547       -28.70         
46.4977       0.04655       -174.97       9.478E-2      -15.78        9.482E-2      -15.71        0.80529       -29.08         
47.0977       0.04656       -174.92       9.478E-2      -16.00        9.483E-2      -15.90        0.80522       -29.48         
47.6976       0.04657       -174.87       9.473E-2      -16.18        9.488E-2      -16.11        0.8052        -29.84         
48.2976       0.04653       -174.75       9.474E-2      -16.37        9.488E-2      -16.30        0.80517       -30.22         
48.8976       0.04653       -174.70       9.474E-2      -16.62        9.486E-2      -16.52        0.80508       -30.59         
49.4975       0.04648       -174.72       9.476E-2      -16.83        9.49E-2       -16.70        0.80499       -30.96         
50.0975       0.04648       -174.61       9.475E-2      -17.01        9.487E-2      -16.92        0.80491       -31.34         
50.6975       0.04647       -174.57       9.474E-2      -17.24        9.486E-2      -17.15        0.80486       -31.71         
51.2975       0.04644       -174.54       9.476E-2      -17.41        9.49E-2       -17.31        0.80474       -32.08         
51.8974       0.04645       -174.50       9.482E-2      -17.63        9.489E-2      -17.55        0.80468       -32.46         
52.4974       0.04641       -174.46       9.483E-2      -17.85        9.489E-2      -17.74        0.80458       -32.82         
53.0974       0.04638       -174.40       9.479E-2      -18.02        9.487E-2      -17.95        0.8045        -33.20         
53.6973       0.04638       -174.32       9.481E-2      -18.26        9.49E-2       -18.15        0.80439       -33.57         
54.2973       0.04638       -174.31       9.477E-2      -18.43        9.492E-2      -18.35        0.80435       -33.94         
54.8973       0.04636       -174.22       9.477E-2      -18.63        9.491E-2      -18.54        0.80424       -34.32         
55.4972       0.04632       -174.17       9.485E-2      -18.84        9.498E-2      -18.76        0.80417       -34.69         
56.0972       0.04635       -174.10       9.481E-2      -19.02        9.497E-2      -18.95        0.80408       -35.06         
56.6972       0.04631       -174.05       9.48E-2       -19.25        9.493E-2      -19.15        0.80393       -35.44         
57.2972       0.04631       -174.02       9.48E-2       -19.46        9.493E-2      -19.37        0.8039        -35.81         
57.8971       0.04629       -174.00       9.483E-2      -19.67        9.493E-2      -19.59        0.80378       -36.19         
58.4971       0.04629       -173.97       9.478E-2      -19.88        9.496E-2      -19.76        0.80368       -36.56         
59.0971       0.04627       -173.88       9.479E-2      -20.11        9.497E-2      -19.98        0.8036        -36.94         
59.6970       0.04628       -173.80       9.481E-2      -20.27        9.492E-2      -20.19        0.80349       -37.32         
60.2970       0.04626       -173.81       9.484E-2      -20.50        9.495E-2      -20.40        0.80344       -37.70         
60.8970       0.04624       -173.70       9.486E-2      -20.69        9.494E-2      -20.60        0.80335       -38.08         
61.4969       0.04622       -173.67       9.484E-2      -20.93        9.50E-2       -20.82        0.80325       -38.45         
62.0969       0.04625       -173.64       9.481E-2      -21.14        9.494E-2      -21.03        0.80312       -38.83         
62.6969       0.04625       -173.52       9.479E-2      -21.34        9.496E-2      -21.21        0.80299       -39.21         
63.2969       0.0462        -173.51       9.481E-2      -21.54        9.495E-2      -21.41        0.80287       -39.58         
63.8968       0.04623       -173.42       9.477E-2      -21.75        9.499E-2      -21.65        0.80278       -39.97         
64.4968       0.04622       -173.39       9.478E-2      -21.94        9.498E-2      -21.87        0.80273       -40.34         
65.0968       0.0462        -173.35       9.476E-2      -22.16        9.50E-2       -22.03        0.80254       -40.72         
65.6967       0.04617       -173.26       9.48E-2       -22.41        9.499E-2      -22.25        0.80249       -41.09         
66.2967       0.04618       -173.21       9.478E-2      -22.56        9.497E-2      -22.47        0.80235       -41.47         
66.8967       0.04615       -173.17       9.478E-2      -22.77        9.496E-2      -22.65        0.80224       -41.84         
67.4966       0.04616       -173.10       9.483E-2      -22.95        9.503E-2      -22.85        0.80218       -42.21         
68.0966       0.04612       -173.06       9.483E-2      -23.20        9.50E-2       -23.07        0.80202       -42.59         
68.6966       0.04613       -172.95       9.482E-2      -23.38        9.499E-2      -23.25        0.8019        -42.96         
69.2966       0.04612       -172.96       9.483E-2      -23.57        9.50E-2       -23.44        0.8018        -43.33         
69.8965       0.04612       -172.84       9.487E-2      -23.77        9.498E-2      -23.66        0.80171       -43.71         
70.4965       0.04611       -172.80       9.487E-2      -23.98        9.496E-2      -23.88        0.80156       -44.08         
71.0965       0.0461        -172.77       9.482E-2      -24.17        9.499E-2      -24.06        0.80148       -44.45         
71.6964       0.04612       -172.75       9.481E-2      -24.41        9.497E-2      -24.26        0.8014        -44.82         
72.2964       0.04605       -172.69       9.487E-2      -24.63        9.498E-2      -24.50        0.80124       -45.20         
72.8964       0.04607       -172.60       9.487E-2      -24.79        9.496E-2      -24.69        0.80119       -45.57         
73.4963       0.04607       -172.51       9.483E-2      -25.01        9.498E-2      -24.90        0.80108       -45.94         
74.0963       0.04606       -172.47       9.487E-2      -25.21        9.501E-2      -25.12        0.80099       -46.31         
74.6963       0.04601       -172.42       9.482E-2      -25.41        9.50E-2       -25.31        0.80092       -46.69         
75.2963       0.046         -172.40       9.487E-2      -25.63        9.50E-2       -25.51        0.80086       -47.06         
75.8962       0.046         -172.33       9.485E-2      -25.79        9.501E-2      -25.70        0.80066       -47.44         
76.4962       0.04598       -172.27       9.487E-2      -26.04        9.502E-2      -25.92        0.80055       -47.81         
77.0962       0.04598       -172.15       9.483E-2      -26.20        9.504E-2      -26.14        0.80046       -48.19         
77.6961       0.04598       -172.15       9.483E-2      -26.43        9.502E-2      -26.33        0.80028       -48.56         
78.2961       0.04597       -172.11       9.486E-2      -26.63        9.501E-2      -26.53        0.80016       -48.93         
78.8961       0.04598       -172.02       9.484E-2      -26.84        9.503E-2      -26.72        0.80002       -49.31         
79.4960       0.04595       -171.99       9.485E-2      -27.02        9.501E-2      -26.93        0.79989       -49.68         
80.0960       0.04594       -171.93       9.487E-2      -27.21        9.506E-2      -27.15        0.79974       -50.05         
80.6960       0.04593       -171.87       9.483E-2      -27.45        9.501E-2      -27.33        0.79961       -50.43         
81.2960       0.04593       -171.84       9.49E-2       -27.65        9.504E-2      -27.53        0.79947       -50.80         
81.8959       0.04593       -171.77       9.485E-2      -27.83        9.501E-2      -27.71        0.7993        -51.18         
82.4959       0.04591       -171.72       9.487E-2      -28.04        9.502E-2      -27.95        0.79912       -51.55         
83.0959       0.04589       -171.63       9.488E-2      -28.25        9.50E-2       -28.13        0.799         -51.93         
83.6958       0.04589       -171.65       9.487E-2      -28.47        9.503E-2      -28.34        0.7988        -52.30         
84.2958       0.0459        -171.57       9.485E-2      -28.64        9.501E-2      -28.56        0.79869       -52.67         
84.8958       0.04589       -171.52       9.484E-2      -28.85        9.502E-2      -28.75        0.79855       -53.05         
85.4957       0.04589       -171.45       9.483E-2      -29.04        9.496E-2      -28.94        0.79839       -53.43         
86.0957       0.04587       -171.42       9.489E-2      -29.29        9.499E-2      -29.16        0.79824       -53.80         
86.6957       0.04588       -171.36       9.485E-2      -29.47        9.50E-2       -29.36        0.79815       -54.18         
87.2957       0.04587       -171.31       9.485E-2      -29.70        9.497E-2      -29.56        0.79796       -54.55         
87.8956       0.04586       -171.20       9.484E-2      -29.88        9.499E-2      -29.77        0.7978        -54.92         
88.4956       0.04586       -171.12       9.478E-2      -30.10        9.50E-2       -29.97        0.79764       -55.30         
89.0956       0.04585       -171.09       9.484E-2      -30.28        9.498E-2      -30.17        0.79757       -55.67         
89.6955       0.04588       -171.03       9.482E-2      -30.49        9.50E-2       -30.36        0.79733       -56.05         
90.2955       0.04588       -171.01       9.482E-2      -30.71        9.498E-2      -30.57        0.79723       -56.43         
90.8955       0.04587       -170.97       9.481E-2      -30.88        9.502E-2      -30.77        0.79711       -56.80         
91.4954       0.04588       -170.86       9.483E-2      -31.09        9.498E-2      -30.98        0.79697       -57.18         
92.0954       0.04586       -170.84       9.483E-2      -31.31        9.50E-2       -31.21        0.79688       -57.56         
