!    3/18/2021   18:17:10 
! Ref Plane: 13.288 mm
# MHZ S MA R  50
!
0.3000        0.04691       -176.45       9.779E-2      -1.14         9.506E-2      -0.72         0.81274       -0.44          
0.9000        0.04726       -177.47       9.379E-2      -0.66         9.393E-2      -0.09         0.80795       -0.79          
1.4999        0.04728       -177.59       9.401E-2      -0.60         9.406E-2      -0.24         0.80883       -1.08          
2.0999        0.04729       -177.65       9.406E-2      -0.76         9.413E-2      -0.44         0.80894       -1.41          
2.6999        0.04726       -177.69       9.402E-2      -0.90         9.417E-2      -0.66         0.80907       -1.76          
3.2999        0.04724       -177.76       9.408E-2      -1.07         9.416E-2      -0.82         0.80898       -2.11          
3.8998        0.04726       -177.72       9.405E-2      -1.26         9.424E-2      -1.09         0.80894       -2.47          
4.4998        0.04725       -177.73       9.407E-2      -1.50         9.421E-2      -1.26         0.80888       -2.83          
5.0998        0.04725       -177.68       9.409E-2      -1.71         9.424E-2      -1.48         0.80887       -3.20          
5.6997        0.04725       -177.66       9.408E-2      -1.89         9.425E-2      -1.70         0.80881       -3.56          
6.2997        0.04721       -177.66       9.408E-2      -2.05         9.425E-2      -1.88         0.80878       -3.93          
6.8997        0.04728       -177.63       9.41E-2       -2.33         9.426E-2      -2.06         0.80869       -4.29          
7.4996        0.04725       -177.59       9.409E-2      -2.51         9.426E-2      -2.30         0.80864       -4.66          
8.0996        0.04722       -177.59       9.411E-2      -2.68         9.43E-2       -2.48         0.80862       -5.02          
8.6996        0.04719       -177.57       9.415E-2      -2.89         9.43E-2       -2.73         0.80859       -5.39          
9.2996        0.0472        -177.54       9.418E-2      -3.07         9.43E-2       -2.90         0.80849       -5.76          
9.8995        0.04718       -177.54       9.414E-2      -3.27         9.433E-2      -3.12         0.80845       -6.13          
10.4995       0.04721       -177.43       9.413E-2      -3.52         9.434E-2      -3.31         0.8084        -6.50          
11.0995       0.04724       -177.46       9.417E-2      -3.68         9.435E-2      -3.52         0.80834       -6.86          
11.6994       0.04724       -177.40       9.414E-2      -3.89         9.437E-2      -3.72         0.80826       -7.23          
12.2994       0.04725       -177.37       9.417E-2      -4.07         9.437E-2      -3.90         0.80827       -7.60          
12.8994       0.0472        -177.36       9.416E-2      -4.34         9.434E-2      -4.13         0.80825       -7.97          
13.4993       0.04721       -177.34       9.42E-2       -4.49         9.436E-2      -4.33         0.80818       -8.34          
14.0993       0.04719       -177.31       9.423E-2      -4.67         9.436E-2      -4.50         0.80807       -8.71          
14.6993       0.0472        -177.27       9.425E-2      -4.86         9.44E-2       -4.74         0.80805       -9.07          
15.2993       0.04722       -177.23       9.425E-2      -5.11         9.441E-2      -4.93         0.80807       -9.44          
15.8992       0.04715       -177.25       9.432E-2      -5.29         9.443E-2      -5.14         0.80805       -9.81          
16.4992       0.04715       -177.15       9.436E-2      -5.51         9.441E-2      -5.36         0.80801       -10.19         
17.0992       0.04713       -177.13       9.43E-2       -5.69         9.444E-2      -5.56         0.80795       -10.55         
17.6991       0.04714       -177.05       9.428E-2      -5.88         9.445E-2      -5.77         0.80788       -10.92         
18.2991       0.04713       -177.05       9.438E-2      -6.08         9.445E-2      -5.98         0.80787       -11.29         
18.8991       0.04712       -176.99       9.433E-2      -6.32         9.448E-2      -6.18         0.80783       -11.66         
19.4990       0.0471        -177.00       9.436E-2      -6.50         9.446E-2      -6.37         0.80783       -12.03         
20.0990       0.04703       -176.96       9.433E-2      -6.73         9.448E-2      -6.56         0.80776       -12.40         
20.6990       0.04708       -176.92       9.437E-2      -6.92         9.45E-2       -6.77         0.8077        -12.77         
21.2990       0.04707       -176.89       9.439E-2      -7.11         9.454E-2      -6.98         0.80762       -13.14         
21.8989       0.04705       -176.85       9.443E-2      -7.34         9.455E-2      -7.18         0.80764       -13.50         
22.4989       0.04703       -176.79       9.447E-2      -7.51         9.452E-2      -7.37         0.80761       -13.87         
23.0989       0.04707       -176.72       9.444E-2      -7.71         9.457E-2      -7.58         0.80762       -14.23         
23.6988       0.04705       -176.70       9.446E-2      -7.89         9.458E-2      -7.79         0.80758       -14.60         
24.2988       0.04704       -176.65       9.446E-2      -8.09         9.459E-2      -7.99         0.80757       -14.97         
24.8988       0.04705       -176.60       9.444E-2      -8.29         9.456E-2      -8.18         0.80756       -15.34         
25.4987       0.04699       -176.56       9.445E-2      -8.52         9.46E-2       -8.39         0.80758       -15.71         
26.0987       0.04697       -176.50       9.446E-2      -8.74         9.466E-2      -8.58         0.80753       -16.08         
26.6987       0.04698       -176.46       9.449E-2      -8.89         9.462E-2      -8.79         0.80757       -16.45         
27.2987       0.04695       -176.41       9.445E-2      -9.08         9.467E-2      -9.00         0.80747       -16.82         
27.8986       0.04696       -176.38       9.454E-2      -9.32         9.466E-2      -9.19         0.80739       -17.18         
28.4986       0.04691       -176.37       9.458E-2      -9.49         9.465E-2      -9.39         0.80743       -17.55         
29.0986       0.04693       -176.30       9.451E-2      -9.69         9.469E-2      -9.59         0.80732       -17.92         
29.6985       0.04692       -176.26       9.455E-2      -9.92         9.471E-2      -9.78         0.80726       -18.29         
30.2985       0.04686       -176.21       9.453E-2      -10.15        9.471E-2      -10.00        0.80724       -18.66         
30.8985       0.04687       -176.20       9.458E-2      -10.34        9.467E-2      -10.22        0.8071        -19.03         
31.4984       0.04686       -176.13       9.461E-2      -10.53        9.472E-2      -10.42        0.80705       -19.40         
32.0984       0.04684       -176.08       9.46E-2       -10.75        9.472E-2      -10.63        0.80703       -19.77         
32.6984       0.04682       -176.06       9.459E-2      -10.94        9.473E-2      -10.83        0.80699       -20.14         
33.2984       0.04682       -175.97       9.463E-2      -11.15        9.474E-2      -11.03        0.80695       -20.51         
33.8983       0.04682       -175.94       9.457E-2      -11.32        9.477E-2      -11.24        0.80693       -20.87         
34.4983       0.0468        -175.86       9.465E-2      -11.53        9.48E-2       -11.43        0.80689       -21.24         
35.0983       0.04676       -175.86       9.465E-2      -11.71        9.479E-2      -11.62        0.80686       -21.61         
35.6982       0.04674       -175.79       9.465E-2      -11.93        9.481E-2      -11.81        0.80682       -21.98         
36.2982       0.04675       -175.75       9.47E-2       -12.16        9.484E-2      -12.03        0.80676       -22.35         
36.8982       0.04672       -175.71       9.468E-2      -12.33        9.481E-2      -12.24        0.8066        -22.72         
37.4981       0.0467        -175.65       9.466E-2      -12.52        9.483E-2      -12.44        0.80652       -23.08         
38.0981       0.04673       -175.60       9.467E-2      -12.73        9.482E-2      -12.61        0.80643       -23.45         
38.6981       0.04665       -175.57       9.467E-2      -12.96        9.478E-2      -12.83        0.80638       -23.81         
39.2981       0.04666       -175.55       9.467E-2      -13.14        9.485E-2      -13.00        0.8063        -24.18         
39.8980       0.04665       -175.49       9.467E-2      -13.36        9.481E-2      -13.24        0.80611       -24.54         
40.4980       0.04663       -175.43       9.463E-2      -13.52        9.486E-2      -13.44        0.80602       -24.91         
41.0980       0.04661       -175.40       9.469E-2      -13.75        9.485E-2      -13.62        0.80595       -25.27         
41.6979       0.04662       -175.31       9.475E-2      -13.96        9.479E-2      -13.83        0.80583       -25.64         
42.2979       0.04661       -175.24       9.475E-2      -14.15        9.485E-2      -14.01        0.8058        -26.00         
42.8979       0.04658       -175.20       9.472E-2      -14.38        9.487E-2      -14.23        0.80567       -26.37         
43.4978       0.04657       -175.15       9.476E-2      -14.55        9.488E-2      -14.41        0.80559       -26.74         
44.0978       0.04656       -175.12       9.481E-2      -14.74        9.49E-2       -14.63        0.80548       -27.10         
44.6978       0.04654       -175.04       9.477E-2      -14.95        9.491E-2      -14.82        0.80542       -27.46         
45.2978       0.04653       -175.00       9.48E-2       -15.13        9.486E-2      -15.03        0.80531       -27.84         
45.8977       0.04653       -174.94       9.483E-2      -15.33        9.489E-2      -15.23        0.8052        -28.20         
46.4977       0.04652       -174.92       9.483E-2      -15.52        9.488E-2      -15.43        0.80507       -28.57         
47.0977       0.04652       -174.81       9.489E-2      -15.76        9.491E-2      -15.63        0.80495       -28.95         
47.6976       0.04653       -174.80       9.479E-2      -15.95        9.497E-2      -15.83        0.80489       -29.32         
48.2976       0.04652       -174.72       9.479E-2      -16.15        9.495E-2      -16.02        0.80485       -29.69         
48.8976       0.04646       -174.65       9.48E-2       -16.36        9.494E-2      -16.23        0.80479       -30.06         
49.4975       0.04646       -174.65       9.479E-2      -16.58        9.498E-2      -16.41        0.80469       -30.42         
50.0975       0.04646       -174.57       9.483E-2      -16.75        9.496E-2      -16.64        0.80463       -30.79         
50.6975       0.04644       -174.58       9.483E-2      -16.97        9.494E-2      -16.86        0.80452       -31.16         
51.2975       0.04641       -174.51       9.482E-2      -17.15        9.497E-2      -17.03        0.80446       -31.52         
51.8974       0.0464        -174.46       9.488E-2      -17.35        9.496E-2      -17.25        0.80433       -31.89         
52.4974       0.04636       -174.41       9.488E-2      -17.55        9.497E-2      -17.43        0.80423       -32.26         
53.0974       0.04637       -174.34       9.484E-2      -17.72        9.50E-2       -17.66        0.80415       -32.63         
53.6973       0.04636       -174.26       9.482E-2      -17.93        9.508E-2      -17.86        0.80403       -32.99         
54.2973       0.04632       -174.25       9.484E-2      -18.14        9.501E-2      -18.05        0.80399       -33.36         
54.8973       0.04633       -174.18       9.485E-2      -18.34        9.50E-2       -18.24        0.80388       -33.73         
55.4972       0.04629       -174.13       9.49E-2       -18.58        9.506E-2      -18.45        0.80378       -34.10         
56.0972       0.04631       -174.07       9.487E-2      -18.74        9.507E-2      -18.65        0.80368       -34.46         
56.6972       0.04628       -174.04       9.487E-2      -18.97        9.504E-2      -18.85        0.80356       -34.83         
57.2972       0.04628       -173.98       9.492E-2      -19.17        9.504E-2      -19.06        0.80351       -35.20         
57.8971       0.04625       -173.98       9.489E-2      -19.38        9.507E-2      -19.27        0.8034        -35.57         
58.4971       0.04627       -173.91       9.486E-2      -19.58        9.508E-2      -19.45        0.80328       -35.94         
59.0971       0.04623       -173.81       9.488E-2      -19.80        9.508E-2      -19.66        0.80321       -36.32         
59.6970       0.04621       -173.75       9.491E-2      -19.96        9.505E-2      -19.86        0.80308       -36.69         
60.2970       0.04622       -173.77       9.495E-2      -20.20        9.508E-2      -20.08        0.803         -37.06         
60.8970       0.0462        -173.68       9.495E-2      -20.38        9.505E-2      -20.27        0.80286       -37.43         
61.4969       0.04615       -173.63       9.495E-2      -20.62        9.512E-2      -20.49        0.8028        -37.81         
62.0969       0.04619       -173.59       9.49E-2       -20.82        9.506E-2      -20.71        0.80268       -38.18         
62.6969       0.04621       -173.46       9.494E-2      -21.02        9.509E-2      -20.88        0.8025        -38.55         
63.2969       0.04615       -173.44       9.492E-2      -21.21        9.508E-2      -21.08        0.80247       -38.92         
63.8968       0.04617       -173.39       9.49E-2       -21.41        9.513E-2      -21.31        0.80231       -39.30         
64.4968       0.04617       -173.36       9.491E-2      -21.61        9.507E-2      -21.53        0.80224       -39.67         
65.0968       0.04615       -173.32       9.49E-2       -21.85        9.514E-2      -21.69        0.8021        -40.04         
65.6967       0.04614       -173.25       9.494E-2      -22.09        9.512E-2      -21.91        0.80199       -40.40         
66.2967       0.04611       -173.19       9.492E-2      -22.24        9.513E-2      -22.12        0.80185       -40.78         
66.8967       0.0461        -173.13       9.491E-2      -22.44        9.51E-2       -22.29        0.80174       -41.15         
67.4966       0.04608       -173.11       9.497E-2      -22.60        9.517E-2      -22.51        0.80162       -41.51         
68.0966       0.04607       -173.04       9.496E-2      -22.86        9.516E-2      -22.69        0.80152       -41.88         
68.6966       0.04606       -172.92       9.494E-2      -23.03        9.514E-2      -22.89        0.80138       -42.25         
69.2966       0.04608       -172.92       9.497E-2      -23.22        9.517E-2      -23.07        0.80129       -42.61         
69.8965       0.04605       -172.79       9.499E-2      -23.42        9.514E-2      -23.30        0.80112       -42.99         
70.4965       0.04603       -172.75       9.499E-2      -23.63        9.513E-2      -23.51        0.80101       -43.36         
71.0965       0.04603       -172.72       9.497E-2      -23.82        9.516E-2      -23.70        0.80085       -43.73         
71.6964       0.04604       -172.70       9.496E-2      -24.06        9.514E-2      -23.89        0.80075       -44.09         
72.2964       0.04602       -172.64       9.50E-2       -24.27        9.516E-2      -24.11        0.80063       -44.46         
72.8964       0.04599       -172.56       9.503E-2      -24.44        9.512E-2      -24.32        0.80055       -44.83         
73.4963       0.046         -172.48       9.50E-2       -24.64        9.518E-2      -24.52        0.80046       -45.20         
74.0963       0.04597       -172.46       9.501E-2      -24.85        9.519E-2      -24.74        0.80031       -45.57         
74.6963       0.04594       -172.42       9.499E-2      -25.06        9.516E-2      -24.92        0.80023       -45.93         
75.2963       0.04593       -172.35       9.505E-2      -25.27        9.516E-2      -25.13        0.80014       -46.30         
75.8962       0.0459        -172.27       9.501E-2      -25.42        9.518E-2      -25.31        0.79995       -46.67         
76.4962       0.04591       -172.25       9.504E-2      -25.67        9.522E-2      -25.53        0.79989       -47.04         
77.0962       0.04591       -172.16       9.499E-2      -25.83        9.52E-2       -25.74        0.79967       -47.41         
77.6961       0.0459        -172.12       9.50E-2       -26.05        9.52E-2       -25.93        0.79957       -47.77         
78.2961       0.04587       -172.08       9.503E-2      -26.24        9.521E-2      -26.13        0.79947       -48.14         
78.8961       0.0459        -172.01       9.503E-2      -26.46        9.524E-2      -26.32        0.79931       -48.51         
79.4960       0.0459        -172.00       9.50E-2       -26.64        9.524E-2      -26.53        0.79916       -48.88         
80.0960       0.04587       -171.93       9.507E-2      -26.83        9.527E-2      -26.75        0.79899       -49.25         
80.6960       0.04584       -171.85       9.501E-2      -27.07        9.522E-2      -26.90        0.79885       -49.62         
81.2960       0.04584       -171.82       9.508E-2      -27.25        9.526E-2      -27.13        0.79873       -49.99         
81.8959       0.04585       -171.77       9.503E-2      -27.43        9.521E-2      -27.32        0.79854       -50.36         
82.4959       0.04585       -171.72       9.508E-2      -27.64        9.523E-2      -27.53        0.79837       -50.73         
83.0959       0.04585       -171.63       9.508E-2      -27.85        9.523E-2      -27.70        0.79821       -51.10         
83.6958       0.04582       -171.64       9.506E-2      -28.05        9.525E-2      -27.92        0.798         -51.47         
84.2958       0.04579       -171.58       9.504E-2      -28.23        9.526E-2      -28.13        0.79789       -51.84         
84.8958       0.0458        -171.53       9.506E-2      -28.44        9.525E-2      -28.33        0.79776       -52.21         
85.4957       0.0458        -171.46       9.505E-2      -28.65        9.522E-2      -28.53        0.79756       -52.59         
86.0957       0.04581       -171.43       9.51E-2       -28.88        9.524E-2      -28.72        0.79741       -52.96         
86.6957       0.04579       -171.36       9.507E-2      -29.05        9.523E-2      -28.93        0.79732       -53.33         
87.2957       0.04576       -171.32       9.506E-2      -29.30        9.523E-2      -29.12        0.79708       -53.69         
87.8956       0.04578       -171.21       9.508E-2      -29.45        9.524E-2      -29.32        0.79693       -54.07         
88.4956       0.04577       -171.14       9.504E-2      -29.69        9.525E-2      -29.53        0.79679       -54.44         
89.0956       0.04576       -171.10       9.506E-2      -29.87        9.525E-2      -29.74        0.79664       -54.81         
89.6955       0.04576       -171.06       9.506E-2      -30.06        9.525E-2      -29.92        0.79641       -55.18         
90.2955       0.04578       -171.00       9.505E-2      -30.29        9.526E-2      -30.13        0.79632       -55.55         
90.8955       0.04578       -170.97       9.506E-2      -30.46        9.53E-2       -30.33        0.79618       -55.92         
91.4954       0.04577       -170.86       9.507E-2      -30.66        9.523E-2      -30.55        0.796         -56.30         
92.0954       0.04579       -170.85       9.51E-2       -30.88        9.527E-2      -30.78        0.7959        -56.67         
