!    3/18/2021   20:34:52 
! Ref Plane: 13.288 mm
# MHZ S MA R  50
!
0.3000        0.0478        179.47        9.723E-2      -1.33         9.602E-2      -0.38         0.81796       0.09           
0.9000        0.04718       -178.77       9.326E-2      -0.62         9.466E-2      -0.05         0.81189       -0.39          
1.4999        0.04723       -178.29       9.377E-2      -0.61         9.426E-2      -0.14         0.81096       -0.70          
2.0999        0.0473        -178.16       9.399E-2      -0.84         9.415E-2      -0.38         0.81038       -1.15          
2.6999        0.04729       -178.05       9.399E-2      -1.02         9.409E-2      -0.58         0.81021       -1.57          
3.2999        0.04729       -178.07       9.411E-2      -1.22         9.404E-2      -0.77         0.80991       -1.98          
3.8998        0.0473        -177.99       9.413E-2      -1.47         9.409E-2      -1.02         0.80979       -2.38          
4.4998        0.04729       -177.99       9.42E-2       -1.74         9.405E-2      -1.19         0.80971       -2.77          
5.0998        0.04731       -177.91       9.419E-2      -1.94         9.404E-2      -1.45         0.80966       -3.17          
5.6997        0.04724       -177.93       9.42E-2       -2.13         9.405E-2      -1.67         0.8095        -3.56          
6.2997        0.04727       -177.88       9.421E-2      -2.33         9.409E-2      -1.87         0.80941       -3.95          
6.8997        0.04729       -177.87       9.422E-2      -2.58         9.406E-2      -2.05         0.80926       -4.34          
7.4996        0.04727       -177.80       9.427E-2      -2.78         9.406E-2      -2.30         0.80921       -4.72          
8.0996        0.04726       -177.80       9.426E-2      -2.95         9.409E-2      -2.50         0.80917       -5.11          
8.6996        0.04723       -177.74       9.429E-2      -3.19         9.405E-2      -2.75         0.8091        -5.49          
9.2996        0.04724       -177.75       9.435E-2      -3.39         9.404E-2      -2.93         0.80899       -5.88          
9.8995        0.04717       -177.72       9.433E-2      -3.58         9.409E-2      -3.13         0.80898       -6.26          
10.4995       0.04719       -177.64       9.432E-2      -3.84         9.407E-2      -3.37         0.80889       -6.65          
11.0995       0.04722       -177.65       9.437E-2      -4.02         9.407E-2      -3.57         0.80883       -7.03          
11.6994       0.04723       -177.62       9.435E-2      -4.22         9.412E-2      -3.79         0.80877       -7.41          
12.2994       0.04721       -177.57       9.435E-2      -4.41         9.41E-2       -3.98         0.80868       -7.80          
12.8994       0.04716       -177.53       9.436E-2      -4.69         9.408E-2      -4.20         0.80866       -8.19          
13.4993       0.04718       -177.50       9.439E-2      -4.86         9.41E-2       -4.41         0.80863       -8.57          
14.0993       0.04713       -177.48       9.438E-2      -5.04         9.41E-2       -4.59         0.80851       -8.95          
14.6993       0.04715       -177.43       9.44E-2       -5.24         9.412E-2      -4.83         0.80849       -9.33          
15.2993       0.04717       -177.41       9.444E-2      -5.48         9.416E-2      -5.02         0.80851       -9.72          
15.8992       0.04711       -177.41       9.449E-2      -5.69         9.418E-2      -5.23         0.80851       -10.10         
16.4992       0.04711       -177.33       9.449E-2      -5.90         9.416E-2      -5.44         0.80847       -10.49         
17.0992       0.04708       -177.28       9.448E-2      -6.11         9.417E-2      -5.66         0.80838       -10.87         
17.6991       0.04709       -177.20       9.443E-2      -6.29         9.42E-2       -5.87         0.80831       -11.25         
18.2991       0.04708       -177.22       9.452E-2      -6.51         9.418E-2      -6.08         0.8083        -11.63         
18.8991       0.04708       -177.15       9.448E-2      -6.77         9.42E-2       -6.30         0.80822       -12.02         
19.4990       0.04705       -177.14       9.448E-2      -6.93         9.42E-2       -6.48         0.80817       -12.40         
20.0990       0.04704       -177.13       9.445E-2      -7.16         9.419E-2      -6.68         0.80815       -12.78         
20.6990       0.04702       -177.09       9.45E-2       -7.37         9.421E-2      -6.91         0.80805       -13.16         
21.2990       0.04702       -177.01       9.451E-2      -7.58         9.427E-2      -7.11         0.80801       -13.54         
21.8989       0.04702       -176.99       9.455E-2      -7.80         9.429E-2      -7.32         0.80801       -13.92         
22.4989       0.04702       -176.92       9.459E-2      -8.00         9.426E-2      -7.51         0.80799       -14.30         
23.0989       0.04702       -176.90       9.457E-2      -8.20         9.427E-2      -7.73         0.80797       -14.68         
23.6988       0.04703       -176.86       9.46E-2       -8.40         9.431E-2      -7.94         0.80793       -15.06         
24.2988       0.04701       -176.83       9.457E-2      -8.58         9.43E-2       -8.16         0.80794       -15.44         
24.8988       0.04702       -176.79       9.454E-2      -8.80         9.43E-2       -8.35         0.80793       -15.83         
25.4987       0.04699       -176.69       9.457E-2      -9.02         9.433E-2      -8.54         0.80792       -16.21         
26.0987       0.04695       -176.66       9.458E-2      -9.26         9.44E-2       -8.75         0.80792       -16.59         
26.6987       0.04693       -176.64       9.459E-2      -9.42         9.434E-2      -8.95         0.80792       -16.97         
27.2987       0.04693       -176.55       9.456E-2      -9.62         9.44E-2       -9.17         0.80787       -17.35         
27.8986       0.04693       -176.53       9.462E-2      -9.87         9.441E-2      -9.37         0.80783       -17.73         
28.4986       0.04689       -176.49       9.469E-2      -10.04        9.438E-2      -9.55         0.80774       -18.11         
29.0986       0.04689       -176.47       9.462E-2      -10.26        9.442E-2      -9.77         0.80771       -18.49         
29.6985       0.04689       -176.45       9.462E-2      -10.49        9.446E-2      -9.98         0.80765       -18.87         
30.2985       0.04684       -176.39       9.463E-2      -10.71        9.442E-2      -10.20        0.80758       -19.25         
30.8985       0.0469        -176.34       9.465E-2      -10.90        9.44E-2       -10.44        0.80746       -19.63         
31.4984       0.04687       -176.28       9.467E-2      -11.11        9.443E-2      -10.62        0.80743       -20.02         
32.0984       0.04684       -176.26       9.467E-2      -11.32        9.446E-2      -10.84        0.80743       -20.40         
32.6984       0.04691       -176.21       9.466E-2      -11.52        9.443E-2      -11.04        0.80737       -20.78         
33.2984       0.04683       -176.14       9.467E-2      -11.74        9.446E-2      -11.24        0.80733       -21.16         
33.8983       0.0468        -176.13       9.462E-2      -11.91        9.448E-2      -11.46        0.80733       -21.53         
34.4983       0.04682       -176.03       9.469E-2      -12.12        9.448E-2      -11.67        0.80725       -21.92         
35.0983       0.04682       -176.00       9.468E-2      -12.30        9.451E-2      -11.86        0.80726       -22.30         
35.6982       0.04679       -176.01       9.469E-2      -12.56        9.452E-2      -12.09        0.8072        -22.68         
36.2982       0.0468        -175.94       9.471E-2      -12.76        9.454E-2      -12.28        0.80712       -23.06         
36.8982       0.04678       -175.88       9.47E-2       -12.93        9.45E-2       -12.50        0.807         -23.44         
37.4981       0.04676       -175.82       9.47E-2       -13.15        9.454E-2      -12.70        0.80689       -23.81         
38.0981       0.04677       -175.81       9.472E-2      -13.36        9.454E-2      -12.89        0.80679       -24.19         
38.6981       0.04673       -175.76       9.469E-2      -13.59        9.448E-2      -13.09        0.80674       -24.56         
39.2981       0.04674       -175.69       9.467E-2      -13.76        9.454E-2      -13.28        0.80669       -24.95         
39.8980       0.04673       -175.68       9.469E-2      -13.99        9.449E-2      -13.51        0.80653       -25.32         
40.4980       0.04672       -175.59       9.466E-2      -14.17        9.456E-2      -13.72        0.80644       -25.70         
41.0980       0.04667       -175.60       9.472E-2      -14.38        9.451E-2      -13.91        0.80634       -26.07         
41.6979       0.04669       -175.49       9.474E-2      -14.62        9.449E-2      -14.12        0.8062        -26.45         
42.2979       0.04668       -175.44       9.474E-2      -14.79        9.453E-2      -14.31        0.80617       -26.83         
42.8979       0.04667       -175.39       9.471E-2      -15.03        9.455E-2      -14.53        0.80609       -27.21         
43.4978       0.0467        -175.35       9.474E-2      -15.22        9.457E-2      -14.71        0.80597       -27.58         
44.0978       0.04669       -175.30       9.478E-2      -15.41        9.457E-2      -14.92        0.8059        -27.96         
44.6978       0.04668       -175.23       9.474E-2      -15.62        9.459E-2      -15.14        0.80586       -28.33         
45.2978       0.04668       -175.22       9.477E-2      -15.81        9.453E-2      -15.34        0.80576       -28.71         
45.8977       0.04667       -175.14       9.479E-2      -16.00        9.458E-2      -15.55        0.80566       -29.09         
46.4977       0.04669       -175.12       9.482E-2      -16.21        9.455E-2      -15.77        0.8055        -29.47         
47.0977       0.0467        -174.99       9.469E-2      -16.34        9.458E-2      -15.98        0.80534       -29.87         
47.6976       0.04674       -174.97       9.476E-2      -16.59        9.462E-2      -16.23        0.80531       -30.25         
48.2976       0.0467        -174.90       9.476E-2      -16.78        9.46E-2       -16.41        0.80525       -30.63         
48.8976       0.04671       -174.86       9.477E-2      -16.99        9.461E-2      -16.64        0.80521       -31.01         
49.4975       0.04667       -174.84       9.475E-2      -17.21        9.463E-2      -16.82        0.80513       -31.38         
50.0975       0.04665       -174.78       9.479E-2      -17.40        9.461E-2      -17.06        0.80504       -31.77         
50.6975       0.04669       -174.74       9.481E-2      -17.62        9.459E-2      -17.28        0.805         -32.14         
51.2975       0.04669       -174.67       9.483E-2      -17.80        9.456E-2      -17.46        0.80492       -32.52         
51.8974       0.04666       -174.70       9.493E-2      -18.04        9.452E-2      -17.64        0.80484       -32.90         
52.4974       0.04663       -174.62       9.496E-2      -18.30        9.45E-2       -17.80        0.80472       -33.27         
53.0974       0.04664       -174.58       9.494E-2      -18.54        9.443E-2      -17.93        0.80467       -33.65         
53.6973       0.04659       -174.51       9.513E-2      -18.98        9.344E-2      -17.87        0.80456       -34.02         
54.2973       0.04652       -174.90       9.592E-2      -19.31        9.395E-2      -18.50        0.8045        -34.41         
54.8973       0.04662       -174.37       9.481E-2      -19.06        9.463E-2      -18.66        0.8044        -34.78         
55.4972       0.04659       -174.31       9.481E-2      -19.29        9.466E-2      -18.88        0.80429       -35.17         
56.0972       0.0466        -174.27       9.48E-2       -19.48        9.467E-2      -19.06        0.80422       -35.55         
56.6972       0.04657       -174.26       9.478E-2      -19.73        9.463E-2      -19.28        0.80411       -35.92         
57.2972       0.04656       -174.18       9.48E-2       -19.92        9.465E-2      -19.46        0.80405       -36.30         
57.8971       0.04658       -174.12       9.48E-2       -20.13        9.466E-2      -19.67        0.80397       -36.68         
58.4971       0.04662       -174.08       9.474E-2      -20.34        9.469E-2      -19.88        0.80387       -37.07         
59.0971       0.04656       -174.04       9.481E-2      -20.58        9.469E-2      -20.08        0.80377       -37.45         
59.6970       0.04656       -173.97       9.479E-2      -20.73        9.463E-2      -20.27        0.80366       -37.84         
60.2970       0.04657       -173.94       9.485E-2      -21.00        9.465E-2      -20.50        0.80361       -38.22         
60.8970       0.04658       -173.86       9.48E-2       -21.18        9.465E-2      -20.68        0.80349       -38.60         
61.4969       0.04655       -173.76       9.481E-2      -21.43        9.469E-2      -20.90        0.80343       -38.99         
62.0969       0.04659       -173.74       9.479E-2      -21.63        9.464E-2      -21.11        0.80332       -39.37         
62.6969       0.04659       -173.64       9.479E-2      -21.83        9.467E-2      -21.31        0.8032        -39.75         
63.2969       0.04653       -173.61       9.478E-2      -22.02        9.463E-2      -21.53        0.8031        -40.13         
63.8968       0.04658       -173.56       9.475E-2      -22.23        9.468E-2      -21.73        0.80299       -40.51         
64.4968       0.04661       -173.50       9.477E-2      -22.44        9.463E-2      -21.98        0.80296       -40.89         
65.0968       0.04656       -173.49       9.474E-2      -22.65        9.468E-2      -22.15        0.80283       -41.28         
65.6967       0.04659       -173.38       9.479E-2      -22.89        9.466E-2      -22.39        0.80275       -41.65         
66.2967       0.04654       -173.32       9.475E-2      -23.05        9.467E-2      -22.60        0.80263       -42.03         
66.8967       0.04656       -173.25       9.477E-2      -23.24        9.465E-2      -22.78        0.80254       -42.41         
67.4966       0.04654       -173.21       9.479E-2      -23.42        9.469E-2      -22.99        0.80242       -42.79         
68.0966       0.04652       -173.16       9.479E-2      -23.69        9.468E-2      -23.20        0.80229       -43.17         
68.6966       0.04654       -173.07       9.476E-2      -23.85        9.467E-2      -23.40        0.80219       -43.55         
69.2966       0.04655       -173.03       9.478E-2      -24.06        9.469E-2      -23.59        0.8021        -43.92         
69.8965       0.04657       -172.95       9.479E-2      -24.26        9.468E-2      -23.80        0.80203       -44.31         
70.4965       0.04654       -172.93       9.483E-2      -24.48        9.465E-2      -24.00        0.80188       -44.69         
71.0965       0.0465        -172.84       9.475E-2      -24.68        9.464E-2      -24.21        0.80172       -45.06         
71.6964       0.04655       -172.80       9.475E-2      -24.91        9.463E-2      -24.41        0.80162       -45.44         
72.2964       0.04654       -172.74       9.481E-2      -25.12        9.464E-2      -24.64        0.80153       -45.82         
72.8964       0.04654       -172.65       9.48E-2       -25.29        9.462E-2      -24.81        0.80148       -46.19         
73.4963       0.04655       -172.57       9.481E-2      -25.53        9.465E-2      -25.04        0.8014        -46.58         
74.0963       0.04653       -172.53       9.481E-2      -25.74        9.47E-2       -25.25        0.80134       -46.95         
74.6963       0.04651       -172.47       9.479E-2      -25.94        9.463E-2      -25.44        0.80125       -47.33         
75.2963       0.0465        -172.40       9.483E-2      -26.15        9.464E-2      -25.64        0.80112       -47.71         
75.8962       0.0465        -172.34       9.479E-2      -26.33        9.466E-2      -25.84        0.80088       -48.09         
76.4962       0.04653       -172.26       9.481E-2      -26.57        9.468E-2      -26.07        0.80076       -48.47         
77.0962       0.0465        -172.21       9.476E-2      -26.75        9.463E-2      -26.27        0.80061       -48.84         
77.6961       0.04649       -172.13       9.473E-2      -26.97        9.464E-2      -26.48        0.80049       -49.21         
78.2961       0.04651       -172.10       9.476E-2      -27.14        9.465E-2      -26.68        0.80036       -49.59         
78.8961       0.04653       -172.01       9.475E-2      -27.34        9.466E-2      -26.88        0.8003        -49.96         
79.4960       0.04649       -171.95       9.472E-2      -27.53        9.467E-2      -27.10        0.80019       -50.34         
80.0960       0.04651       -171.92       9.48E-2       -27.73        9.468E-2      -27.31        0.80005       -50.72         
80.6960       0.04649       -171.85       9.474E-2      -27.95        9.461E-2      -27.49        0.79996       -51.10         
81.2960       0.0465        -171.80       9.477E-2      -28.14        9.465E-2      -27.71        0.79983       -51.48         
81.8959       0.0465        -171.73       9.476E-2      -28.35        9.463E-2      -27.89        0.79967       -51.86         
82.4959       0.04649       -171.70       9.478E-2      -28.56        9.463E-2      -28.13        0.7995        -52.24         
83.0959       0.04648       -171.59       9.477E-2      -28.77        9.464E-2      -28.30        0.79939       -52.62         
83.6958       0.04647       -171.57       9.477E-2      -28.99        9.467E-2      -28.51        0.79922       -52.99         
84.2958       0.04646       -171.50       9.472E-2      -29.17        9.465E-2      -28.74        0.79908       -53.38         
84.8958       0.04648       -171.45       9.476E-2      -29.39        9.463E-2      -28.91        0.79897       -53.75         
85.4957       0.04651       -171.38       9.473E-2      -29.59        9.457E-2      -29.12        0.79881       -54.14         
86.0957       0.04649       -171.33       9.477E-2      -29.84        9.462E-2      -29.32        0.79866       -54.52         
86.6957       0.04647       -171.26       9.476E-2      -30.02        9.462E-2      -29.53        0.79855       -54.90         
87.2957       0.04647       -171.19       9.473E-2      -30.25        9.458E-2      -29.73        0.79843       -55.27         
87.8956       0.04648       -171.10       9.473E-2      -30.42        9.461E-2      -29.93        0.79827       -55.65         
88.4956       0.04648       -171.05       9.468E-2      -30.65        9.46E-2       -30.15        0.7981        -56.03         
89.0956       0.04648       -170.97       9.47E-2       -30.81        9.457E-2      -30.35        0.79802       -56.41         
89.6955       0.04647       -170.92       9.472E-2      -31.02        9.459E-2      -30.54        0.79778       -56.79         
90.2955       0.0465        -170.85       9.471E-2      -31.25        9.457E-2      -30.77        0.7977        -57.17         
90.8955       0.0465        -170.84       9.47E-2       -31.42        9.462E-2      -30.97        0.79759       -57.55         
91.4954       0.04651       -170.73       9.471E-2      -31.64        9.457E-2      -31.19        0.79748       -57.94         
92.0954       0.04653       -170.69       9.47E-2       -31.84        9.459E-2      -31.41        0.79737       -58.32         
