!    3/18/2021   18:43:17 
! Ref Plane: 13.288 mm
# MHZ S MA R  50
!
0.3000        0.04733       -178.09       9.763E-2      -1.27         9.535E-2      -0.69         0.8143        -0.33          
0.9000        0.04733       -178.02       9.361E-2      -0.66         9.423E-2      -0.13         0.80956       -0.72          
1.4999        0.0473        -177.86       9.396E-2      -0.63         9.414E-2      -0.31         0.80967       -1.03          
2.0999        0.04732       -177.81       9.401E-2      -0.80         9.416E-2      -0.51         0.80952       -1.41          
2.6999        0.04731       -177.82       9.402E-2      -0.98         9.414E-2      -0.72         0.80952       -1.80          
3.2999        0.0473        -177.82       9.409E-2      -1.14         9.414E-2      -0.89         0.8094        -2.17          
3.8998        0.04731       -177.74       9.406E-2      -1.37         9.416E-2      -1.16         0.8093        -2.54          
4.4998        0.04729       -177.76       9.41E-2       -1.63         9.415E-2      -1.35         0.80923       -2.92          
5.0998        0.04731       -177.68       9.409E-2      -1.84         9.419E-2      -1.57         0.80925       -3.31          
5.6997        0.04728       -177.64       9.412E-2      -2.03         9.419E-2      -1.80         0.80916       -3.68          
6.2997        0.0473        -177.63       9.411E-2      -2.21         9.419E-2      -1.97         0.80907       -4.07          
6.8997        0.0473        -177.61       9.415E-2      -2.46         9.416E-2      -2.18         0.809         -4.44          
7.4996        0.0473        -177.54       9.411E-2      -2.66         9.419E-2      -2.41         0.80894       -4.82          
8.0996        0.04729       -177.52       9.416E-2      -2.82         9.422E-2      -2.63         0.80889       -5.20          
8.6996        0.04728       -177.45       9.42E-2       -3.06         9.422E-2      -2.86         0.80884       -5.58          
9.2996        0.04725       -177.44       9.422E-2      -3.24         9.418E-2      -3.04         0.80874       -5.97          
9.8995        0.04723       -177.43       9.416E-2      -3.45         9.426E-2      -3.25         0.80875       -6.34          
10.4995       0.04726       -177.34       9.418E-2      -3.71         9.423E-2      -3.46         0.80869       -6.73          
11.0995       0.04727       -177.33       9.423E-2      -3.87         9.428E-2      -3.67         0.8086        -7.11          
11.6994       0.04729       -177.32       9.421E-2      -4.09         9.429E-2      -3.89         0.80858       -7.48          
12.2994       0.04726       -177.22       9.419E-2      -4.27         9.425E-2      -4.06         0.80853       -7.87          
12.8994       0.04723       -177.19       9.421E-2      -4.54         9.426E-2      -4.28         0.80849       -8.25          
13.4993       0.04725       -177.14       9.423E-2      -4.72         9.429E-2      -4.51         0.80845       -8.63          
14.0993       0.04725       -177.12       9.428E-2      -4.91         9.43E-2       -4.68         0.80837       -9.01          
14.6993       0.04721       -177.07       9.428E-2      -5.07         9.43E-2       -4.91         0.80834       -9.39          
15.2993       0.04723       -177.00       9.429E-2      -5.33         9.433E-2      -5.09         0.80838       -9.76          
15.8992       0.04722       -176.98       9.436E-2      -5.53         9.432E-2      -5.32         0.80836       -10.15         
16.4992       0.0472        -176.92       9.439E-2      -5.76         9.433E-2      -5.57         0.80834       -10.53         
17.0992       0.04718       -176.86       9.434E-2      -5.92         9.433E-2      -5.76         0.80826       -10.91         
17.6991       0.04719       -176.80       9.43E-2       -6.15         9.435E-2      -5.96         0.80819       -11.29         
18.2991       0.04719       -176.79       9.44E-2       -6.34         9.435E-2      -6.18         0.80814       -11.67         
18.8991       0.04715       -176.74       9.438E-2      -6.59         9.436E-2      -6.38         0.80814       -12.05         
19.4990       0.04717       -176.69       9.437E-2      -6.76         9.437E-2      -6.57         0.80811       -12.43         
20.0990       0.04714       -176.66       9.435E-2      -7.01         9.436E-2      -6.77         0.80806       -12.81         
20.6990       0.04714       -176.59       9.438E-2      -7.19         9.442E-2      -7.00         0.80803       -13.19         
21.2990       0.04714       -176.56       9.441E-2      -7.40         9.444E-2      -7.22         0.80797       -13.57         
21.8989       0.04714       -176.51       9.443E-2      -7.63         9.446E-2      -7.42         0.80795       -13.94         
22.4989       0.04713       -176.43       9.45E-2       -7.82         9.443E-2      -7.61         0.808         -14.32         
23.0989       0.04713       -176.36       9.446E-2      -8.01         9.444E-2      -7.83         0.80795       -14.70         
23.6988       0.04716       -176.34       9.45E-2       -8.19         9.448E-2      -8.03         0.80797       -15.08         
24.2988       0.04714       -176.27       9.447E-2      -8.39         9.45E-2       -8.25         0.80792       -15.46         
24.8988       0.04713       -176.23       9.442E-2      -8.62         9.445E-2      -8.44         0.80792       -15.84         
25.4987       0.04711       -176.19       9.447E-2      -8.83         9.448E-2      -8.66         0.8079        -16.22         
26.0987       0.04707       -176.06       9.449E-2      -9.07         9.455E-2      -8.86         0.80787       -16.60         
26.6987       0.04709       -176.06       9.449E-2      -9.25         9.45E-2       -9.06         0.80791       -16.98         
27.2987       0.04704       -175.99       9.445E-2      -9.42         9.455E-2      -9.27         0.80791       -17.36         
27.8986       0.04707       -175.95       9.452E-2      -9.67         9.454E-2      -9.46         0.80781       -17.73         
28.4986       0.04704       -175.90       9.457E-2      -9.85         9.451E-2      -9.67         0.80776       -18.11         
29.0986       0.04705       -175.87       9.453E-2      -10.06        9.457E-2      -9.87         0.80772       -18.49         
29.6985       0.04703       -175.81       9.455E-2      -10.28        9.461E-2      -10.06        0.80766       -18.87         
30.2985       0.047         -175.78       9.453E-2      -10.52        9.458E-2      -10.30        0.80764       -19.25         
30.8985       0.04703       -175.73       9.455E-2      -10.72        9.454E-2      -10.52        0.8075        -19.63         
31.4984       0.04701       -175.62       9.459E-2      -10.89        9.459E-2      -10.72        0.8075        -20.01         
32.0984       0.04698       -175.59       9.456E-2      -11.14        9.459E-2      -10.95        0.80746       -20.40         
32.6984       0.04704       -175.53       9.458E-2      -11.32        9.459E-2      -11.14        0.80741       -20.77         
33.2984       0.04697       -175.47       9.459E-2      -11.54        9.461E-2      -11.33        0.80741       -21.15         
33.8983       0.04699       -175.45       9.456E-2      -11.72        9.462E-2      -11.56        0.80739       -21.53         
34.4983       0.04695       -175.35       9.46E-2       -11.92        9.465E-2      -11.76        0.80731       -21.91         
35.0983       0.04694       -175.32       9.46E-2       -12.11        9.463E-2      -11.97        0.80734       -22.29         
35.6982       0.04694       -175.27       9.462E-2      -12.35        9.467E-2      -12.16        0.80725       -22.67         
36.2982       0.04694       -175.20       9.464E-2      -12.58        9.468E-2      -12.37        0.8072        -23.04         
36.8982       0.04694       -175.15       9.463E-2      -12.74        9.468E-2      -12.58        0.80713       -23.42         
37.4981       0.04692       -175.11       9.465E-2      -12.95        9.47E-2       -12.78        0.80699       -23.80         
38.0981       0.04689       -175.05       9.465E-2      -13.18        9.466E-2      -12.99        0.80689       -24.17         
38.6981       0.04686       -174.98       9.465E-2      -13.40        9.464E-2      -13.18        0.80686       -24.54         
39.2981       0.04688       -174.96       9.463E-2      -13.57        9.468E-2      -13.37        0.80681       -24.92         
39.8980       0.04687       -174.94       9.464E-2      -13.80        9.465E-2      -13.61        0.80662       -25.30         
40.4980       0.04685       -174.81       9.457E-2      -13.97        9.469E-2      -13.80        0.80652       -25.67         
41.0980       0.04683       -174.79       9.463E-2      -14.19        9.467E-2      -13.99        0.80642       -26.05         
41.6979       0.04684       -174.71       9.467E-2      -14.42        9.464E-2      -14.22        0.80635       -26.42         
42.2979       0.04686       -174.64       9.47E-2       -14.61        9.468E-2      -14.40        0.8063        -26.80         
42.8979       0.04682       -174.57       9.466E-2      -14.85        9.469E-2      -14.62        0.80622       -27.18         
43.4978       0.04685       -174.50       9.469E-2      -15.02        9.472E-2      -14.81        0.80611       -27.55         
44.0978       0.04682       -174.46       9.472E-2      -15.21        9.472E-2      -15.03        0.80601       -27.92         
44.6978       0.04682       -174.40       9.468E-2      -15.42        9.472E-2      -15.22        0.80601       -28.30         
45.2978       0.0468        -174.36       9.472E-2      -15.62        9.469E-2      -15.44        0.80586       -28.68         
45.8977       0.0468        -174.30       9.471E-2      -15.80        9.47E-2       -15.64        0.80576       -29.05         
46.4977       0.0468        -174.22       9.473E-2      -16.02        9.47E-2       -15.86        0.80563       -29.43         
47.0977       0.04682       -174.18       9.476E-2      -16.24        9.473E-2      -16.06        0.80551       -29.83         
47.6976       0.04682       -174.10       9.471E-2      -16.42        9.476E-2      -16.27        0.80549       -30.20         
48.2976       0.04682       -174.06       9.472E-2      -16.60        9.473E-2      -16.49        0.80548       -30.59         
48.8976       0.04681       -173.96       9.471E-2      -16.84        9.475E-2      -16.68        0.80542       -30.97         
49.4975       0.04681       -173.96       9.472E-2      -17.06        9.476E-2      -16.88        0.80531       -31.34         
50.0975       0.04681       -173.86       9.472E-2      -17.23        9.475E-2      -17.11        0.80524       -31.72         
50.6975       0.04681       -173.84       9.473E-2      -17.48        9.475E-2      -17.33        0.80519       -32.10         
51.2975       0.04679       -173.77       9.474E-2      -17.66        9.474E-2      -17.51        0.8051        -32.47         
51.8974       0.04678       -173.74       9.481E-2      -17.87        9.475E-2      -17.73        0.80499       -32.85         
52.4974       0.04671       -173.68       9.48E-2       -18.11        9.473E-2      -17.90        0.80491       -33.22         
53.0974       0.04675       -173.61       9.481E-2      -18.30        9.469E-2      -18.08        0.80484       -33.60         
53.6973       0.0467        -173.52       9.49E-2       -18.64        9.401E-2      -18.29        0.80477       -33.98         
54.2973       0.04673       -173.49       9.471E-2      -18.69        9.479E-2      -18.53        0.80466       -34.36         
54.8973       0.04675       -173.39       9.473E-2      -18.90        9.478E-2      -18.72        0.80461       -34.73         
55.4972       0.04671       -173.35       9.476E-2      -19.13        9.484E-2      -18.95        0.80448       -35.11         
56.0972       0.04672       -173.28       9.476E-2      -19.29        9.484E-2      -19.15        0.8044        -35.49         
56.6972       0.04669       -173.23       9.473E-2      -19.53        9.479E-2      -19.35        0.80428       -35.87         
57.2972       0.04667       -173.18       9.475E-2      -19.73        9.48E-2       -19.56        0.80425       -36.24         
57.8971       0.04669       -173.12       9.476E-2      -19.94        9.479E-2      -19.77        0.80412       -36.62         
58.4971       0.04672       -173.06       9.472E-2      -20.16        9.482E-2      -19.97        0.80408       -37.01         
59.0971       0.04668       -172.98       9.472E-2      -20.38        9.483E-2      -20.17        0.80398       -37.39         
59.6970       0.04667       -172.93       9.472E-2      -20.55        9.477E-2      -20.39        0.80384       -37.77         
60.2970       0.04669       -172.89       9.479E-2      -20.80        9.48E-2       -20.59        0.80381       -38.15         
60.8970       0.04667       -172.79       9.475E-2      -20.97        9.479E-2      -20.78        0.80367       -38.53         
61.4969       0.04664       -172.75       9.477E-2      -21.22        9.484E-2      -21.01        0.80358       -38.92         
62.0969       0.04668       -172.71       9.475E-2      -21.43        9.48E-2       -21.23        0.8035        -39.30         
62.6969       0.0467        -172.61       9.474E-2      -21.64        9.481E-2      -21.42        0.80332       -39.68         
63.2969       0.04667       -172.54       9.475E-2      -21.83        9.48E-2       -21.62        0.80327       -40.06         
63.8968       0.04671       -172.47       9.469E-2      -22.03        9.485E-2      -21.86        0.80316       -40.44         
64.4968       0.04667       -172.44       9.473E-2      -22.22        9.48E-2       -22.09        0.80308       -40.82         
65.0968       0.04667       -172.38       9.471E-2      -22.46        9.483E-2      -22.25        0.80299       -41.20         
65.6967       0.04665       -172.32       9.474E-2      -22.70        9.481E-2      -22.47        0.80287       -41.58         
66.2967       0.04663       -172.25       9.469E-2      -22.85        9.482E-2      -22.68        0.80274       -41.96         
66.8967       0.04666       -172.14       9.471E-2      -23.06        9.482E-2      -22.86        0.80272       -42.34         
67.4966       0.04662       -172.13       9.475E-2      -23.26        9.487E-2      -23.08        0.80257       -42.72         
68.0966       0.04663       -172.04       9.474E-2      -23.49        9.484E-2      -23.28        0.80248       -43.10         
68.6966       0.04663       -171.97       9.472E-2      -23.68        9.481E-2      -23.47        0.80236       -43.47         
69.2966       0.04665       -171.92       9.476E-2      -23.87        9.486E-2      -23.67        0.80224       -43.85         
69.8965       0.04664       -171.77       9.476E-2      -24.09        9.482E-2      -23.88        0.80217       -44.23         
70.4965       0.0466        -171.77       9.476E-2      -24.28        9.482E-2      -24.09        0.80202       -44.60         
71.0965       0.04661       -171.74       9.47E-2       -24.50        9.481E-2      -24.29        0.80191       -44.98         
71.6964       0.04662       -171.69       9.47E-2       -24.71        9.482E-2      -24.51        0.80182       -45.35         
72.2964       0.04661       -171.61       9.477E-2      -24.93        9.479E-2      -24.72        0.80168       -45.73         
72.8964       0.04664       -171.55       9.476E-2      -25.12        9.477E-2      -24.92        0.80166       -46.11         
73.4963       0.04664       -171.44       9.474E-2      -25.32        9.48E-2       -25.13        0.80156       -46.48         
74.0963       0.04662       -171.41       9.476E-2      -25.53        9.485E-2      -25.33        0.80153       -46.86         
74.6963       0.04661       -171.35       9.473E-2      -25.73        9.479E-2      -25.54        0.80142       -47.24         
75.2963       0.04656       -171.31       9.478E-2      -25.95        9.48E-2       -25.74        0.80139       -47.62         
75.8962       0.04659       -171.22       9.474E-2      -26.13        9.48E-2       -25.95        0.80119       -48.00         
76.4962       0.04658       -171.16       9.477E-2      -26.36        9.485E-2      -26.16        0.80113       -48.38         
77.0962       0.04656       -171.07       9.471E-2      -26.54        9.482E-2      -26.37        0.80094       -48.75         
77.6961       0.04659       -170.99       9.472E-2      -26.75        9.482E-2      -26.56        0.8008        -49.13         
78.2961       0.04656       -170.90       9.474E-2      -26.94        9.481E-2      -26.76        0.80069       -49.51         
78.8961       0.04661       -170.88       9.472E-2      -27.18        9.484E-2      -26.97        0.80059       -49.88         
79.4960       0.04656       -170.82       9.469E-2      -27.35        9.483E-2      -27.17        0.80046       -50.26         
80.0960       0.04659       -170.75       9.475E-2      -27.56        9.485E-2      -27.40        0.80028       -50.64         
80.6960       0.04656       -170.68       9.472E-2      -27.77        9.481E-2      -27.58        0.80018       -51.02         
81.2960       0.04657       -170.66       9.476E-2      -27.98        9.482E-2      -27.79        0.80004       -51.40         
81.8959       0.04656       -170.57       9.472E-2      -28.16        9.482E-2      -27.97        0.7999        -51.78         
82.4959       0.04657       -170.52       9.474E-2      -28.37        9.48E-2       -28.21        0.79969       -52.16         
83.0959       0.04656       -170.45       9.475E-2      -28.58        9.484E-2      -28.38        0.79959       -52.53         
83.6958       0.04655       -170.44       9.474E-2      -28.80        9.484E-2      -28.59        0.79937       -52.91         
84.2958       0.04656       -170.34       9.472E-2      -28.99        9.48E-2       -28.82        0.79927       -53.29         
84.8958       0.04659       -170.28       9.47E-2       -29.20        9.481E-2      -29.00        0.79919       -53.67         
85.4957       0.04657       -170.20       9.472E-2      -29.38        9.478E-2      -29.22        0.79901       -54.05         
86.0957       0.0466        -170.20       9.475E-2      -29.63        9.478E-2      -29.44        0.79885       -54.43         
86.6957       0.04659       -170.11       9.472E-2      -29.82        9.477E-2      -29.63        0.79874       -54.81         
87.2957       0.04656       -170.06       9.47E-2       -30.05        9.477E-2      -29.83        0.79857       -55.19         
87.8956       0.04658       -169.94       9.471E-2      -30.23        9.474E-2      -30.04        0.79842       -55.56         
88.4956       0.04659       -169.87       9.466E-2      -30.45        9.476E-2      -30.24        0.79829       -55.94         
89.0956       0.04658       -169.78       9.467E-2      -30.64        9.476E-2      -30.44        0.79822       -56.32         
89.6955       0.04659       -169.73       9.467E-2      -30.84        9.475E-2      -30.64        0.79797       -56.70         
90.2955       0.04663       -169.69       9.468E-2      -31.06        9.476E-2      -30.86        0.79791       -57.08         
90.8955       0.04659       -169.66       9.465E-2      -31.26        9.479E-2      -31.05        0.79779       -57.46         
91.4954       0.04662       -169.57       9.467E-2      -31.47        9.477E-2      -31.26        0.79765       -57.84         
92.0954       0.04661       -169.49       9.468E-2      -31.66        9.476E-2      -31.49        0.79752       -58.22         
