!    3/19/2021   22:07:10 
! Ref Plane: 13.200 mm
# MHZ S MA R  50
!
0.3000        0.04774       -179.72       9.739E-2      -1.26         9.561E-2      -0.42         0.81659       -0.07          
0.9000        0.04711       -178.48       9.351E-2      -0.59         9.435E-2      -0.05         0.81033       -0.41          
1.4999        0.04718       -178.18       9.39E-2       -0.56         9.425E-2      -0.17         0.8101        -0.75          
2.0999        0.04718       -178.14       9.399E-2      -0.72         9.419E-2      -0.38         0.80988       -1.16          
2.6999        0.04718       -178.06       9.412E-2      -0.98         9.415E-2      -0.60         0.80977       -1.58          
3.2999        0.04719       -178.09       9.411E-2      -1.23         9.417E-2      -0.78         0.80959       -1.96          
3.8998        0.04719       -178.01       9.42E-2       -1.43         9.418E-2      -1.00         0.80952       -2.36          
4.4998        0.0472        -177.99       9.414E-2      -1.65         9.413E-2      -1.20         0.8094        -2.75          
5.0998        0.04721       -178.03       9.417E-2      -1.86         9.415E-2      -1.41         0.80936       -3.13          
5.6997        0.04717       -178.02       9.412E-2      -2.04         9.411E-2      -1.62         0.80926       -3.52          
6.2997        0.04716       -177.99       9.414E-2      -2.30         9.415E-2      -1.83         0.8092        -3.90          
6.8997        0.04715       -178.02       9.418E-2      -2.46         9.415E-2      -2.03         0.80907       -4.29          
7.4996        0.04712       -178.01       9.424E-2      -2.70         9.417E-2      -2.23         0.809         -4.68          
8.0996        0.04712       -177.96       9.428E-2      -2.87         9.422E-2      -2.47         0.80897       -5.05          
8.6996        0.04709       -177.95       9.426E-2      -3.11         9.415E-2      -2.68         0.80888       -5.43          
9.2996        0.0471        -177.95       9.429E-2      -3.29         9.418E-2      -2.88         0.80881       -5.82          
9.8995        0.04707       -177.94       9.43E-2       -3.49         9.419E-2      -3.06         0.8088        -6.20          
10.4995       0.04709       -177.90       9.432E-2      -3.74         9.42E-2       -3.29         0.80871       -6.59          
11.0995       0.04707       -177.90       9.426E-2      -3.91         9.421E-2      -3.48         0.80872       -6.96          
11.6994       0.04712       -177.91       9.434E-2      -4.11         9.42E-2       -3.72         0.8086        -7.34          
12.2994       0.04708       -177.85       9.437E-2      -4.35         9.42E-2       -3.92         0.80855       -7.72          
12.8994       0.04706       -177.87       9.429E-2      -4.51         9.422E-2      -4.10         0.80848       -8.10          
13.4993       0.04702       -177.76       9.425E-2      -4.76         9.424E-2      -4.33         0.80843       -8.48          
14.0993       0.04701       -177.81       9.436E-2      -4.94         9.424E-2      -4.53         0.80838       -8.87          
14.6993       0.04701       -177.78       9.441E-2      -5.15         9.422E-2      -4.72         0.80834       -9.25          
15.2993       0.04703       -177.76       9.443E-2      -5.37         9.427E-2      -4.93         0.80831       -9.63          
15.8992       0.047         -177.75       9.443E-2      -5.56         9.428E-2      -5.15         0.80831       -10.01         
16.4992       0.04697       -177.72       9.441E-2      -5.80         9.429E-2      -5.33         0.80828       -10.39         
17.0992       0.04695       -177.65       9.445E-2      -6.00         9.427E-2      -5.57         0.80827       -10.77         
17.6991       0.04695       -177.64       9.441E-2      -6.18         9.428E-2      -5.75         0.80821       -11.15         
18.2991       0.04694       -177.61       9.443E-2      -6.41         9.429E-2      -5.99         0.80813       -11.53         
18.8991       0.04691       -177.60       9.446E-2      -6.62         9.431E-2      -6.16         0.80807       -11.91         
19.4990       0.04691       -177.57       9.444E-2      -6.82         9.432E-2      -6.39         0.80799       -12.29         
20.0990       0.04687       -177.51       9.449E-2      -7.02         9.429E-2      -6.61         0.808         -12.67         
20.6990       0.0469        -177.51       9.451E-2      -7.22         9.438E-2      -6.79         0.80794       -13.05         
21.2990       0.04687       -177.57       9.446E-2      -7.42         9.435E-2      -7.02         0.80789       -13.43         
21.8989       0.04688       -177.47       9.452E-2      -7.62         9.436E-2      -7.22         0.80793       -13.80         
22.4989       0.04685       -177.45       9.455E-2      -7.83         9.434E-2      -7.42         0.80788       -14.19         
23.0989       0.04687       -177.39       9.456E-2      -8.02         9.436E-2      -7.63         0.80776       -14.56         
23.6988       0.04686       -177.38       9.452E-2      -8.23         9.441E-2      -7.83         0.80784       -14.94         
24.2988       0.04682       -177.33       9.456E-2      -8.45         9.441E-2      -8.03         0.80784       -15.32         
24.8988       0.04681       -177.33       9.455E-2      -8.69         9.442E-2      -8.22         0.80783       -15.69         
25.4987       0.04682       -177.29       9.458E-2      -8.87         9.447E-2      -8.43         0.80783       -16.07         
26.0987       0.04676       -177.19       9.461E-2      -9.08         9.441E-2      -8.66         0.80785       -16.45         
26.6987       0.04678       -177.15       9.459E-2      -9.28         9.448E-2      -8.85         0.80785       -16.83         
27.2987       0.04674       -177.16       9.462E-2      -9.48         9.448E-2      -9.06         0.80776       -17.21         
27.8986       0.04674       -177.14       9.457E-2      -9.65         9.449E-2      -9.24         0.80773       -17.59         
28.4986       0.04671       -177.09       9.459E-2      -9.88         9.447E-2      -9.43         0.80766       -17.97         
29.0986       0.04672       -177.08       9.46E-2       -10.10        9.447E-2      -9.67         0.80763       -18.35         
29.6985       0.0467        -177.05       9.46E-2       -10.31        9.449E-2      -9.87         0.80757       -18.72         
30.2985       0.0467        -177.02       9.461E-2      -10.49        9.45E-2       -10.07        0.80756       -19.10         
30.8985       0.04666       -177.00       9.46E-2       -10.72        9.453E-2      -10.29        0.80741       -19.48         
31.4984       0.04664       -176.95       9.465E-2      -10.90        9.45E-2       -10.48        0.80733       -19.85         
32.0984       0.04665       -176.93       9.46E-2       -11.14        9.455E-2      -10.70        0.80731       -20.24         
32.6984       0.04667       -176.88       9.471E-2      -11.34        9.457E-2      -10.91        0.80727       -20.62         
33.2984       0.04662       -176.83       9.462E-2      -11.49        9.455E-2      -11.11        0.80729       -20.99         
33.8983       0.04665       -176.79       9.465E-2      -11.74        9.455E-2      -11.31        0.80722       -21.37         
34.4983       0.04662       -176.71       9.463E-2      -11.94        9.457E-2      -11.50        0.80717       -21.75         
35.0983       0.04661       -176.74       9.463E-2      -12.15        9.46E-2       -11.71        0.80722       -22.13         
35.6982       0.04656       -176.69       9.471E-2      -12.33        9.463E-2      -11.93        0.80716       -22.51         
36.2982       0.04656       -176.67       9.468E-2      -12.60        9.457E-2      -12.13        0.80707       -22.88         
36.8982       0.04658       -176.65       9.47E-2       -12.78        9.462E-2      -12.33        0.80697       -23.26         
37.4981       0.04654       -176.56       9.469E-2      -12.96        9.461E-2      -12.53        0.80687       -23.64         
38.0981       0.04654       -176.55       9.468E-2      -13.14        9.46E-2       -12.71        0.80677       -24.00         
38.6981       0.04654       -176.48       9.467E-2      -13.36        9.46E-2       -12.92        0.80668       -24.38         
39.2981       0.04651       -176.49       9.464E-2      -13.55        9.458E-2      -13.12        0.80663       -24.75         
39.8980       0.04652       -176.43       9.474E-2      -13.76        9.459E-2      -13.33        0.80654       -25.13         
40.4980       0.0465        -176.37       9.465E-2      -13.94        9.46E-2       -13.52        0.80645       -25.51         
41.0980       0.04644       -176.35       9.468E-2      -14.20        9.459E-2      -13.74        0.80638       -25.87         
41.6979       0.04645       -176.33       9.473E-2      -14.38        9.46E-2       -13.94        0.80629       -26.25         
42.2979       0.04646       -176.26       9.467E-2      -14.57        9.463E-2      -14.15        0.80625       -26.62         
42.8979       0.04647       -176.22       9.469E-2      -14.79        9.459E-2      -14.34        0.8061        -27.00         
43.4978       0.04647       -176.16       9.473E-2      -15.00        9.462E-2      -14.55        0.80601       -27.37         
44.0978       0.04641       -176.19       9.471E-2      -15.18        9.46E-2       -14.73        0.80597       -27.75         
44.6978       0.04643       -176.09       9.476E-2      -15.38        9.461E-2      -14.96        0.80589       -28.12         
45.2978       0.0464        -176.03       9.481E-2      -15.59        9.463E-2      -15.16        0.8058        -28.50         
45.8977       0.04642       -176.01       9.475E-2      -15.78        9.464E-2      -15.36        0.80572       -28.87         
46.4977       0.04641       -175.96       9.476E-2      -15.98        9.463E-2      -15.57        0.80563       -29.25         
47.0977       0.04641       -175.89       9.47E-2       -16.15        9.465E-2      -15.77        0.80539       -29.65         
47.6976       0.04642       -175.85       9.471E-2      -16.38        9.463E-2      -16.01        0.80538       -30.02         
48.2976       0.04639       -175.82       9.479E-2      -16.59        9.463E-2      -16.18        0.80534       -30.40         
48.8976       0.04639       -175.80       9.477E-2      -16.78        9.469E-2      -16.42        0.8053        -30.77         
49.4975       0.04638       -175.74       9.475E-2      -16.99        9.468E-2      -16.62        0.80523       -31.15         
50.0975       0.04636       -175.73       9.48E-2       -17.16        9.468E-2      -16.82        0.8052        -31.53         
50.6975       0.04636       -175.65       9.478E-2      -17.41        9.463E-2      -17.07        0.80511       -31.90         
51.2975       0.04637       -175.62       9.482E-2      -17.58        9.466E-2      -17.24        0.80505       -32.28         
51.8974       0.04633       -175.59       9.484E-2      -17.79        9.465E-2      -17.40        0.80495       -32.65         
52.4974       0.04632       -175.58       9.486E-2      -18.04        9.462E-2      -17.60        0.80485       -33.02         
53.0974       0.04632       -175.51       9.483E-2      -18.30        9.456E-2      -17.74        0.80475       -33.40         
53.6973       0.04627       -175.45       9.496E-2      -18.61        9.379E-2      -17.70        0.80472       -33.77         
54.2973       0.04622       -175.78       9.544E-2      -18.84        9.469E-2      -18.24        0.80463       -34.15         
54.8973       0.04628       -175.38       9.478E-2      -18.85        9.471E-2      -18.42        0.80452       -34.52         
55.4972       0.04627       -175.37       9.476E-2      -19.02        9.471E-2      -18.63        0.80448       -34.90         
56.0972       0.04624       -175.30       9.479E-2      -19.23        9.468E-2      -18.82        0.80437       -35.28         
56.6972       0.04625       -175.20       9.479E-2      -19.42        9.474E-2      -19.03        0.80429       -35.65         
57.2972       0.04625       -175.16       9.474E-2      -19.64        9.471E-2      -19.23        0.80418       -36.02         
57.8971       0.04623       -175.14       9.477E-2      -19.88        9.472E-2      -19.42        0.80411       -36.41         
58.4971       0.04622       -175.08       9.481E-2      -20.02        9.467E-2      -19.66        0.80404       -36.79         
59.0971       0.04622       -174.99       9.48E-2       -20.27        9.47E-2       -19.83        0.80394       -37.17         
59.6970       0.04623       -174.97       9.476E-2      -20.47        9.471E-2      -20.05        0.80389       -37.55         
60.2970       0.04622       -174.95       9.482E-2      -20.69        9.468E-2      -20.26        0.80379       -37.93         
60.8970       0.04621       -174.90       9.482E-2      -20.92        9.472E-2      -20.45        0.80367       -38.30         
61.4969       0.04621       -174.87       9.476E-2      -21.12        9.472E-2      -20.65        0.80368       -38.69         
62.0969       0.04621       -174.80       9.481E-2      -21.30        9.469E-2      -20.87        0.80353       -39.07         
62.6969       0.04618       -174.73       9.479E-2      -21.53        9.471E-2      -21.09        0.8035        -39.45         
63.2969       0.04619       -174.67       9.478E-2      -21.72        9.474E-2      -21.26        0.80339       -39.82         
63.8968       0.04619       -174.67       9.477E-2      -21.93        9.472E-2      -21.48        0.80329       -40.20         
64.4968       0.04616       -174.60       9.475E-2      -22.16        9.475E-2      -21.71        0.8032        -40.59         
65.0968       0.04618       -174.56       9.478E-2      -22.32        9.472E-2      -21.90        0.80309       -40.96         
65.6967       0.04617       -174.47       9.473E-2      -22.53        9.475E-2      -22.09        0.80301       -41.34         
66.2967       0.04614       -174.45       9.477E-2      -22.76        9.473E-2      -22.35        0.80291       -41.71         
66.8967       0.04614       -174.36       9.478E-2      -22.91        9.474E-2      -22.52        0.80276       -42.09         
67.4966       0.04615       -174.33       9.473E-2      -23.14        9.473E-2      -22.71        0.8027        -42.47         
68.0966       0.0461        -174.27       9.478E-2      -23.32        9.475E-2      -22.92        0.80257       -42.85         
68.6966       0.04611       -174.22       9.472E-2      -23.54        9.472E-2      -23.14        0.80244       -43.22         
69.2966       0.04612       -174.13       9.479E-2      -23.72        9.475E-2      -23.29        0.80238       -43.59         
69.8965       0.0461        -174.09       9.474E-2      -23.95        9.472E-2      -23.50        0.80233       -43.97         
70.4965       0.04611       -174.06       9.478E-2      -24.15        9.473E-2      -23.71        0.80223       -44.34         
71.0965       0.0461        -173.99       9.478E-2      -24.35        9.47E-2       -23.95        0.80213       -44.72         
71.6964       0.0461        -173.96       9.477E-2      -24.57        9.475E-2      -24.11        0.80203       -45.09         
72.2964       0.04609       -173.94       9.476E-2      -24.80        9.471E-2      -24.35        0.80197       -45.47         
72.8964       0.04605       -173.85       9.482E-2      -24.97        9.47E-2       -24.54        0.80185       -45.84         
73.4963       0.04607       -173.78       9.479E-2      -25.20        9.471E-2      -24.73        0.8018        -46.21         
74.0963       0.04602       -173.72       9.477E-2      -25.38        9.473E-2      -24.95        0.80168       -46.59         
74.6963       0.04604       -173.64       9.478E-2      -25.56        9.474E-2      -25.12        0.80162       -46.97         
75.2963       0.04601       -173.61       9.475E-2      -25.79        9.476E-2      -25.36        0.80147       -47.34         
75.8962       0.04601       -173.55       9.481E-2      -26.02        9.473E-2      -25.54        0.80132       -47.72         
76.4962       0.04604       -173.54       9.478E-2      -26.21        9.47E-2       -25.79        0.80119       -48.09         
77.0962       0.04603       -173.43       9.479E-2      -26.39        9.472E-2      -25.95        0.80115       -48.46         
77.6961       0.046         -173.40       9.476E-2      -26.58        9.471E-2      -26.17        0.80098       -48.84         
78.2961       0.04599       -173.33       9.477E-2      -26.79        9.474E-2      -26.37        0.80086       -49.21         
78.8961       0.04598       -173.30       9.478E-2      -27.00        9.474E-2      -26.59        0.80076       -49.59         
79.4960       0.04595       -173.23       9.475E-2      -27.18        9.472E-2      -26.78        0.80063       -49.96         
80.0960       0.04597       -173.17       9.474E-2      -27.39        9.473E-2      -26.99        0.80053       -50.34         
80.6960       0.04599       -173.14       9.475E-2      -27.59        9.473E-2      -27.17        0.8004        -50.71         
81.2960       0.04595       -173.08       9.474E-2      -27.78        9.471E-2      -27.39        0.8003        -51.08         
81.8959       0.04593       -173.04       9.478E-2      -28.02        9.47E-2       -27.57        0.80015       -51.46         
82.4959       0.04595       -172.97       9.474E-2      -28.19        9.475E-2      -27.77        0.79997       -51.84         
83.0959       0.04592       -172.90       9.475E-2      -28.39        9.475E-2      -27.96        0.79982       -52.21         
83.6958       0.04591       -172.86       9.478E-2      -28.59        9.474E-2      -28.18        0.79966       -52.59         
84.2958       0.04594       -172.86       9.475E-2      -28.80        9.469E-2      -28.36        0.79955       -52.96         
84.8958       0.04594       -172.77       9.473E-2      -29.04        9.473E-2      -28.54        0.79942       -53.35         
85.4957       0.04592       -172.73       9.478E-2      -29.24        9.469E-2      -28.77        0.79927       -53.72         
86.0957       0.04591       -172.71       9.472E-2      -29.40        9.467E-2      -28.98        0.79915       -54.10         
86.6957       0.0459        -172.62       9.468E-2      -29.63        9.466E-2      -29.19        0.79897       -54.47         
87.2957       0.0459        -172.52       9.472E-2      -29.87        9.464E-2      -29.38        0.79884       -54.85         
87.8956       0.04586       -172.45       9.474E-2      -30.04        9.466E-2      -29.60        0.79876       -55.22         
88.4956       0.04585       -172.42       9.467E-2      -30.23        9.465E-2      -29.79        0.79857       -55.60         
89.0956       0.04586       -172.38       9.471E-2      -30.42        9.465E-2      -29.98        0.79845       -55.98         
89.6955       0.04585       -172.31       9.465E-2      -30.62        9.463E-2      -30.19        0.79833       -56.35         
90.2955       0.04587       -172.27       9.468E-2      -30.81        9.462E-2      -30.38        0.79826       -56.73         
90.8955       0.04587       -172.22       9.473E-2      -31.05        9.467E-2      -30.61        0.79811       -57.10         
91.4954       0.04587       -172.14       9.472E-2      -31.25        9.465E-2      -30.83        0.79793       -57.49         
92.0954       0.04587       -172.14       9.47E-2       -31.44        9.464E-2      -31.00        0.79788       -57.86         
