!    8/6/2020   01:39:18 
! Ref Plane: 0.000 mm
# MHZ S MA R  50
!
0.3000        0.04758       178.59        9.887E-2      -1.05         9.653E-2      -0.82         0.81555       -0.34          
0.9000        0.04773       178.96        9.497E-2      -0.50         9.538E-2      -0.32         0.81024       -0.46          
1.4999        0.04777       179.14        9.516E-2      -0.35         9.54E-2       -0.42         0.80941       -0.62          
2.0999        0.04774       179.32        9.516E-2      -0.52         9.536E-2      -0.52         0.80943       -0.82          
2.6999        0.0478        179.52        9.52E-2       -0.65         9.537E-2      -0.68         0.80939       -0.99          
3.2999        0.04779       179.77        9.521E-2      -0.76         9.536E-2      -0.84         0.80954       -1.17          
3.8998        0.04788       179.94        9.52E-2       -0.93         9.537E-2      -0.99         0.80943       -1.35          
4.4998        0.04783       -179.88       9.521E-2      -1.07         9.536E-2      -1.11         0.80954       -1.51          
5.0998        0.04792       -179.58       9.517E-2      -1.18         9.533E-2      -1.23         0.8095        -1.68          
5.6997        0.0479        -179.33       9.518E-2      -1.34         9.538E-2      -1.40         0.80975       -1.87          
6.2997        0.04795       -179.21       9.517E-2      -1.50         9.536E-2      -1.52         0.80949       -2.05          
6.8997        0.04798       -178.98       9.518E-2      -1.67         9.536E-2      -1.67         0.80966       -2.23          
7.4996        0.04802       -178.69       9.516E-2      -1.72         9.536E-2      -1.80         0.80974       -2.42          
8.0996        0.04804       -178.52       9.519E-2      -1.92         9.538E-2      -1.95         0.80948       -2.60          
8.6996        0.04806       -178.34       9.519E-2      -2.02         9.541E-2      -2.07         0.80967       -2.76          
9.2996        0.04808       -178.07       9.525E-2      -2.18         9.537E-2      -2.24         0.80989       -2.94          
9.8995        0.0481        -177.85       9.522E-2      -2.35         9.537E-2      -2.37         0.80957       -3.11          
10.4995       0.04814       -177.68       9.516E-2      -2.48         9.539E-2      -2.53         0.8099        -3.29          
11.0995       0.04818       -177.46       9.522E-2      -2.59         9.538E-2      -2.64         0.81002       -3.46          
11.6994       0.0482        -177.23       9.521E-2      -2.72         9.539E-2      -2.75         0.81008       -3.65          
12.2994       0.04822       -177.02       9.518E-2      -2.88         9.535E-2      -2.90         0.81002       -3.82          
12.8994       0.04824       -176.82       9.521E-2      -2.95         9.537E-2      -3.06         0.81004       -3.98          
13.4993       0.04825       -176.60       9.526E-2      -3.17         9.536E-2      -3.23         0.8102        -4.18          
14.0993       0.0483        -176.45       9.521E-2      -3.28         9.538E-2      -3.36         0.81021       -4.33          
14.6993       0.04835       -176.17       9.519E-2      -3.45         9.54E-2       -3.50         0.81016       -4.50          
15.2993       0.04836       -176.03       9.516E-2      -3.53         9.536E-2      -3.63         0.81033       -4.68          
15.8992       0.04838       -175.84       9.522E-2      -3.69         9.535E-2      -3.79         0.8104        -4.84          
16.4992       0.04843       -175.64       9.522E-2      -3.84         9.537E-2      -3.94         0.81029       -5.03          
17.0992       0.04844       -175.40       9.525E-2      -3.94         9.536E-2      -4.06         0.81052       -5.20          
17.6991       0.04856       -175.21       9.523E-2      -4.10         9.536E-2      -4.20         0.81046       -5.38          
18.2991       0.04857       -175.05       9.522E-2      -4.25         9.541E-2      -4.33         0.81047       -5.53          
18.8991       0.04859       -174.82       9.526E-2      -4.38         9.539E-2      -4.46         0.81082       -5.69          
19.4990       0.04859       -174.65       9.526E-2      -4.55         9.538E-2      -4.61         0.81081       -5.87          
20.0990       0.04863       -174.43       9.524E-2      -4.66         9.541E-2      -4.75         0.81075       -6.05          
20.6990       0.04869       -174.23       9.526E-2      -4.83         9.545E-2      -4.90         0.81078       -6.21          
21.2990       0.04867       -173.96       9.522E-2      -4.98         9.543E-2      -5.04         0.81066       -6.37          
21.8989       0.04873       -173.85       9.526E-2      -5.11         9.541E-2      -5.15         0.81078       -6.56          
22.4989       0.04879       -173.64       9.521E-2      -5.25         9.549E-2      -5.29         0.81091       -6.72          
23.0989       0.04884       -173.50       9.525E-2      -5.37         9.547E-2      -5.45         0.8111        -6.90          
23.6988       0.04885       -173.20       9.53E-2       -5.49         9.547E-2      -5.59         0.81075       -7.06          
24.2988       0.04885       -173.06       9.524E-2      -5.63         9.542E-2      -5.71         0.81081       -7.23          
24.8988       0.04895       -172.86       9.525E-2      -5.80         9.544E-2      -5.88         0.81071       -7.39          
25.4987       0.04897       -172.67       9.53E-2       -5.91         9.542E-2      -6.02         0.81074       -7.56          
26.0987       0.04903       -172.47       9.521E-2      -6.05         9.545E-2      -6.13         0.81066       -7.73          
26.6987       0.04908       -172.29       9.523E-2      -6.18         9.543E-2      -6.27         0.81054       -7.88          
27.2987       0.04907       -172.07       9.529E-2      -6.33         9.544E-2      -6.40         0.81036       -8.06          
27.8986       0.04911       -171.90       9.527E-2      -6.50         9.544E-2      -6.54         0.81021       -8.21          
28.4986       0.04917       -171.72       9.531E-2      -6.60         9.54E-2       -6.69         0.81015       -8.40          
29.0986       0.04922       -171.65       9.532E-2      -6.74         9.544E-2      -6.83         0.80996       -8.55          
29.6985       0.04928       -171.41       9.531E-2      -6.87         9.543E-2      -6.94         0.80989       -8.73          
30.2985       0.04926       -171.23       9.527E-2      -7.02         9.542E-2      -7.12         0.80965       -8.89          
30.8985       0.04932       -171.00       9.529E-2      -7.18         9.541E-2      -7.22         0.80969       -9.07          
31.4984       0.04939       -170.84       9.524E-2      -7.26         9.538E-2      -7.37         0.80961       -9.22          
32.0984       0.04939       -170.75       9.531E-2      -7.45         9.545E-2      -7.51         0.80966       -9.39          
32.6984       0.04944       -170.51       9.527E-2      -7.56         9.545E-2      -7.64         0.80959       -9.55          
33.2984       0.04947       -170.38       9.528E-2      -7.69         9.54E-2       -7.78         0.80951       -9.70          
33.8983       0.0495        -170.20       9.534E-2      -7.82         9.542E-2      -7.92         0.80968       -9.85          
34.4983       0.04958       -170.02       9.534E-2      -7.97         9.547E-2      -8.04         0.80985       -9.99          
35.0983       0.04955       -169.87       9.535E-2      -8.08         9.544E-2      -8.20         0.80994       -10.17         
35.6982       0.04963       -169.70       9.536E-2      -8.22         9.544E-2      -8.32         0.81011       -10.33         
36.2982       0.04965       -169.51       9.537E-2      -8.38         9.544E-2      -8.49         0.8101        -10.51         
36.8982       0.0497        -169.35       9.533E-2      -8.52         9.547E-2      -8.63         0.8101        -10.67         
37.4981       0.04977       -169.22       9.537E-2      -8.65         9.549E-2      -8.74         0.81003       -10.84         
38.0981       0.04981       -169.05       9.538E-2      -8.76         9.547E-2      -8.90         0.81004       -11.02         
38.6981       0.04985       -168.86       9.539E-2      -8.89         9.546E-2      -9.04         0.81007       -11.19         
39.2981       0.04986       -168.73       9.536E-2      -9.03         9.542E-2      -9.17         0.81008       -11.36         
39.8980       0.04989       -168.58       9.538E-2      -9.19         9.547E-2      -9.35         0.80997       -11.53         
40.4980       0.04995       -168.37       9.542E-2      -9.33         9.548E-2      -9.43         0.81003       -11.69         
41.0980       0.04999       -168.17       9.541E-2      -9.47         9.551E-2      -9.59         0.80976       -11.87         
41.6979       0.05001       -168.09       9.541E-2      -9.61         9.549E-2      -9.72         0.81          -12.04         
42.2979       0.0501        -167.96       9.539E-2      -9.73         9.553E-2      -9.88         0.80995       -12.23         
42.8979       0.05011       -167.81       9.539E-2      -9.89         9.549E-2      -9.98         0.81012       -12.40         
43.4978       0.05013       -167.63       9.54E-2       -10.01        9.554E-2      -10.13        0.81018       -12.58         
44.0978       0.05022       -167.49       9.541E-2      -10.16        9.552E-2      -10.28        0.81015       -12.76         
44.6978       0.05025       -167.45       9.539E-2      -10.31        9.552E-2      -10.43        0.81032       -12.95         
45.2978       0.05033       -167.24       9.544E-2      -10.45        9.551E-2      -10.54        0.81028       -13.13         
45.8977       0.05036       -167.04       9.543E-2      -10.59        9.554E-2      -10.70        0.81046       -13.29         
46.4977       0.05036       -166.92       9.539E-2      -10.75        9.552E-2      -10.82        0.81049       -13.48         
47.0977       0.05037       -166.76       9.545E-2      -10.88        9.557E-2      -10.98        0.81146       -13.64         
47.6976       0.05047       -166.60       9.544E-2      -11.03        9.553E-2      -11.12        0.81156       -13.81         
48.2976       0.05051       -166.51       9.549E-2      -11.17        9.553E-2      -11.26        0.81159       -13.97         
48.8976       0.05056       -166.35       9.542E-2      -11.32        9.553E-2      -11.39        0.81183       -14.15         
49.4975       0.05063       -166.19       9.544E-2      -11.48        9.562E-2      -11.52        0.8118        -14.31         
50.0975       0.05063       -166.07       9.544E-2      -11.60        9.554E-2      -11.67        0.81184       -14.47         
50.6975       0.05068       -165.90       9.545E-2      -11.73        9.558E-2      -11.83        0.81206       -14.66         
51.2975       0.05073       -165.76       9.543E-2      -11.88        9.56E-2       -12.00        0.81211       -14.84         
51.8974       0.05082       -165.65       9.541E-2      -12.01        9.566E-2      -12.12        0.8121        -15.00         
52.4974       0.05156       -165.77       9.542E-2      -12.10        9.635E-2      -12.47        0.81014       -15.17         
53.0974       0.05087       -165.35       9.554E-2      -12.27        9.551E-2      -12.36        0.80974       -15.26         
53.6973       0.05092       -165.18       9.544E-2      -12.42        9.562E-2      -12.53        0.81281       -15.51         
54.2973       0.05098       -165.09       9.546E-2      -12.56        9.563E-2      -12.70        0.81285       -15.68         
54.8973       0.05102       -164.95       9.544E-2      -12.72        9.562E-2      -12.83        0.81292       -15.83         
55.4972       0.05106       -164.83       9.546E-2      -12.84        9.561E-2      -12.95        0.81304       -15.99         
56.0972       0.05111       -164.65       9.549E-2      -12.99        9.559E-2      -13.08        0.81295       -16.17         
56.6972       0.05118       -164.48       9.546E-2      -13.12        9.559E-2      -13.21        0.81304       -16.31         
57.2972       0.05123       -164.33       9.548E-2      -13.26        9.56E-2       -13.34        0.81308       -16.48         
57.8971       0.05124       -164.20       9.546E-2      -13.39        9.56E-2       -13.49        0.81319       -16.64         
58.4971       0.05133       -164.10       9.553E-2      -13.52        9.566E-2      -13.64        0.81343       -16.81         
59.0971       0.05132       -163.94       9.549E-2      -13.66        9.566E-2      -13.77        0.81341       -16.96         
59.6970       0.05143       -163.76       9.555E-2      -13.78        9.569E-2      -13.91        0.81365       -17.13         
60.2970       0.05141       -163.60       9.55E-2       -13.92        9.564E-2      -14.04        0.81372       -17.28         
60.8970       0.05151       -163.46       9.557E-2      -14.09        9.573E-2      -14.21        0.81388       -17.46         
61.4969       0.05152       -163.34       9.553E-2      -14.21        9.571E-2      -14.33        0.81375       -17.62         
62.0969       0.05163       -163.19       9.555E-2      -14.35        9.573E-2      -14.47        0.81376       -17.78         
62.6969       0.05165       -163.11       9.559E-2      -14.48        9.567E-2      -14.61        0.81375       -17.95         
63.2969       0.05172       -162.95       9.559E-2      -14.61        9.575E-2      -14.75        0.81386       -18.12         
63.8968       0.0518        -162.84       9.558E-2      -14.75        9.576E-2      -14.89        0.81388       -18.26         
64.4968       0.05186       -162.68       9.563E-2      -14.89        9.579E-2      -15.04        0.81397       -18.43         
65.0968       0.05189       -162.48       9.564E-2      -15.02        9.581E-2      -15.17        0.81403       -18.59         
65.6967       0.05202       -162.40       9.566E-2      -15.17        9.584E-2      -15.30        0.81411       -18.75         
66.2967       0.05201       -162.27       9.57E-2       -15.29        9.584E-2      -15.45        0.81414       -18.91         
66.8967       0.05206       -162.17       9.569E-2      -15.44        9.585E-2      -15.59        0.81407       -19.08         
67.4966       0.0521        -161.99       9.569E-2      -15.59        9.591E-2      -15.72        0.81407       -19.26         
68.0966       0.05216       -161.89       9.573E-2      -15.73        9.594E-2      -15.87        0.81419       -19.41         
68.6966       0.05225       -161.73       9.578E-2      -15.86        9.595E-2      -16.00        0.81429       -19.56         
69.2966       0.05239       -161.60       9.575E-2      -16.04        9.599E-2      -16.14        0.81417       -19.74         
69.8965       0.05242       -161.48       9.582E-2      -16.20        9.60E-2       -16.28        0.81432       -19.90         
70.4965       0.05244       -161.42       9.584E-2      -16.33        9.598E-2      -16.43        0.81451       -20.06         
71.0965       0.05248       -161.28       9.579E-2      -16.49        9.604E-2      -16.59        0.81467       -20.22         
71.6964       0.05259       -161.12       9.582E-2      -16.65        9.604E-2      -16.74        0.81463       -20.37         
72.2964       0.05262       -161.07       9.588E-2      -16.79        9.601E-2      -16.90        0.81474       -20.53         
72.8964       0.05271       -160.96       9.587E-2      -16.95        9.604E-2      -17.04        0.81485       -20.71         
73.4963       0.05281       -160.79       9.585E-2      -17.11        9.602E-2      -17.19        0.81494       -20.87         
74.0963       0.05284       -160.69       9.592E-2      -17.24        9.605E-2      -17.33        0.8151        -21.04         
74.6963       0.05287       -160.66       9.59E-2       -17.40        9.613E-2      -17.48        0.81498       -21.19         
75.2963       0.05295       -160.47       9.592E-2      -17.55        9.609E-2      -17.62        0.81513       -21.36         
75.8962       0.05304       -160.39       9.594E-2      -17.70        9.614E-2      -17.78        0.81525       -21.51         
76.4962       0.05311       -160.19       9.596E-2      -17.84        9.614E-2      -17.93        0.81553       -21.68         
77.0962       0.05319       -160.15       9.60E-2       -17.97        9.615E-2      -18.06        0.81562       -21.83         
77.6961       0.05323       -160.04       9.60E-2       -18.14        9.621E-2      -18.25        0.81599       -22.00         
78.2961       0.05335       -159.91       9.60E-2       -18.27        9.621E-2      -18.37        0.81601       -22.16         
78.8961       0.05336       -159.85       9.602E-2      -18.44        9.622E-2      -18.51        0.81627       -22.31         
79.4960       0.05345       -159.71       9.605E-2      -18.60        9.626E-2      -18.67        0.81656       -22.46         
80.0960       0.05349       -159.63       9.604E-2      -18.76        9.626E-2      -18.82        0.81666       -22.63         
80.6960       0.05352       -159.54       9.608E-2      -18.90        9.628E-2      -18.97        0.81687       -22.78         
81.2960       0.05361       -159.45       9.614E-2      -19.08        9.63E-2       -19.15        0.81714       -22.94         
81.8959       0.05366       -159.33       9.609E-2      -19.21        9.631E-2      -19.30        0.81736       -23.09         
82.4959       0.05377       -159.20       9.608E-2      -19.37        9.633E-2      -19.46        0.8177        -23.26         
83.0959       0.05382       -159.09       9.612E-2      -19.55        9.629E-2      -19.60        0.8179        -23.40         
83.6958       0.05388       -158.99       9.613E-2      -19.71        9.63E-2       -19.79        0.81818       -23.57         
84.2958       0.05395       -158.86       9.614E-2      -19.89        9.627E-2      -19.94        0.81839       -23.72         
84.8958       0.05399       -158.80       9.613E-2      -20.04        9.629E-2      -20.15        0.8185        -23.88         
85.4957       0.05407       -158.74       9.62E-2       -20.21        9.627E-2      -20.31        0.81892       -24.04         
86.0957       0.05409       -158.61       9.615E-2      -20.37        9.625E-2      -20.49        0.81895       -24.22         
86.6957       0.05411       -158.45       9.609E-2      -20.55        9.625E-2      -20.64        0.81929       -24.37         
87.2957       0.05417       -158.39       9.608E-2      -20.72        9.622E-2      -20.83        0.81967       -24.54         
87.8956       0.05419       -158.33       9.60E-2       -20.89        9.611E-2      -20.97        0.81984       -24.68         
88.4956       0.05428       -158.19       9.594E-2      -21.03        9.608E-2      -21.13        0.82013       -24.84         
89.0956       0.05431       -158.06       9.59E-2       -21.19        9.601E-2      -21.30        0.82043       -25.00         
89.6955       0.05431       -157.94       9.587E-2      -21.34        9.594E-2      -21.45        0.82079       -25.16         
90.2955       0.05433       -157.81       9.578E-2      -21.45        9.587E-2      -21.55        0.82117       -25.34         
90.8955       0.05434       -157.74       9.569E-2      -21.59        9.575E-2      -21.70        0.82137       -25.51         
91.4954       0.05435       -157.54       9.565E-2      -21.70        9.564E-2      -21.81        0.82157       -25.69         
92.0954       0.0544        -157.37       9.555E-2      -21.81        9.561E-2      -21.89        0.82161       -25.85         
