!    8/6/2020   01:38:20 
! Ref Plane: 0.000 mm
# MHZ S MA R  50
!
0.3000        0.04772       178.41        9.881E-2      -0.91         9.657E-2      -0.83         0.81625       -0.26          
0.9000        0.04766       178.93        9.492E-2      -0.38         9.542E-2      -0.26         0.81031       -0.41          
1.4999        0.04774       179.22        9.512E-2      -0.21         9.541E-2      -0.36         0.80948       -0.58          
2.0999        0.04773       179.44        9.515E-2      -0.38         9.537E-2      -0.46         0.80947       -0.80          
2.6999        0.04775       179.65        9.519E-2      -0.49         9.536E-2      -0.57         0.80949       -0.96          
3.2999        0.04776       179.94        9.521E-2      -0.60         9.536E-2      -0.72         0.8096        -1.15          
3.8998        0.04786       -179.85       9.518E-2      -0.73         9.537E-2      -0.84         0.80953       -1.35          
4.4998        0.04782       -179.63       9.516E-2      -0.88         9.536E-2      -0.94         0.80962       -1.51          
5.0998        0.0479        -179.31       9.52E-2       -0.96         9.535E-2      -1.05         0.8096        -1.70          
5.6997        0.04787       -179.07       9.517E-2      -1.08         9.537E-2      -1.20         0.80977       -1.88          
6.2997        0.04792       -178.95       9.516E-2      -1.23         9.534E-2      -1.30         0.80956       -2.07          
6.8997        0.04798       -178.68       9.514E-2      -1.39         9.533E-2      -1.41         0.80976       -2.26          
7.4996        0.048         -178.37       9.515E-2      -1.45         9.533E-2      -1.53         0.8098        -2.46          
8.0996        0.04804       -178.19       9.515E-2      -1.60         9.538E-2      -1.66         0.80951       -2.64          
8.6996        0.04806       -177.92       9.516E-2      -1.69         9.537E-2      -1.75         0.80975       -2.81          
9.2996        0.04807       -177.68       9.521E-2      -1.85         9.54E-2       -1.91         0.80995       -3.00          
9.8995        0.04809       -177.43       9.515E-2      -1.98         9.537E-2      -2.02         0.80957       -3.16          
10.4995       0.04816       -177.21       9.514E-2      -2.10         9.535E-2      -2.15         0.80999       -3.35          
11.0995       0.04819       -176.97       9.516E-2      -2.22         9.536E-2      -2.25         0.81002       -3.53          
11.6994       0.0482        -176.73       9.515E-2      -2.32         9.537E-2      -2.37         0.81012       -3.72          
12.2994       0.04822       -176.53       9.513E-2      -2.45         9.531E-2      -2.50         0.81002       -3.89          
12.8994       0.04824       -176.28       9.517E-2      -2.51         9.535E-2      -2.61         0.81005       -4.06          
13.4993       0.04824       -176.04       9.522E-2      -2.70         9.532E-2      -2.75         0.81017       -4.26          
14.0993       0.04833       -175.84       9.517E-2      -2.80         9.533E-2      -2.87         0.81025       -4.42          
14.6993       0.04834       -175.58       9.513E-2      -2.95         9.535E-2      -2.98         0.81014       -4.60          
15.2993       0.04839       -175.38       9.512E-2      -3.01         9.531E-2      -3.10         0.81032       -4.78          
15.8992       0.04839       -175.18       9.514E-2      -3.12         9.531E-2      -3.25         0.81043       -4.94          
16.4992       0.04843       -174.96       9.512E-2      -3.26         9.533E-2      -3.37         0.81028       -5.13          
17.0992       0.04847       -174.71       9.516E-2      -3.36         9.533E-2      -3.49         0.81046       -5.31          
17.6991       0.04858       -174.44       9.514E-2      -3.50         9.53E-2       -3.62         0.81044       -5.50          
18.2991       0.04854       -174.27       9.512E-2      -3.62         9.532E-2      -3.71         0.81048       -5.65          
18.8991       0.04858       -174.05       9.517E-2      -3.76         9.532E-2      -3.82         0.81078       -5.82          
19.4990       0.04861       -173.82       9.519E-2      -3.88         9.531E-2      -3.96         0.81077       -6.00          
20.0990       0.04865       -173.55       9.514E-2      -3.99         9.532E-2      -4.09         0.81069       -6.18          
20.6990       0.04868       -173.38       9.518E-2      -4.13         9.533E-2      -4.19         0.81079       -6.35          
21.2990       0.04867       -173.09       9.515E-2      -4.24         9.534E-2      -4.30         0.81066       -6.51          
21.8989       0.04873       -172.94       9.515E-2      -4.35         9.532E-2      -4.42         0.81077       -6.70          
22.4989       0.04878       -172.71       9.512E-2      -4.51         9.536E-2      -4.53         0.81086       -6.87          
23.0989       0.04884       -172.54       9.51E-2       -4.60         9.536E-2      -4.66         0.81104       -7.05          
23.6988       0.04883       -172.24       9.515E-2      -4.70         9.532E-2      -4.78         0.81071       -7.22          
24.2988       0.04888       -172.06       9.512E-2      -4.81         9.531E-2      -4.91         0.81076       -7.38          
24.8988       0.04894       -171.85       9.511E-2      -4.94         9.531E-2      -5.04         0.81064       -7.56          
25.4987       0.04898       -171.66       9.515E-2      -5.03         9.526E-2      -5.16         0.81069       -7.73          
26.0987       0.04902       -171.37       9.506E-2      -5.15         9.53E-2       -5.24         0.81063       -7.90          
26.6987       0.0491        -171.20       9.506E-2      -5.26         9.528E-2      -5.36         0.81048       -8.06          
27.2987       0.04908       -170.95       9.516E-2      -5.38         9.527E-2      -5.48         0.81029       -8.24          
27.8986       0.04913       -170.78       9.511E-2      -5.54         9.525E-2      -5.59         0.8101        -8.39          
28.4986       0.04918       -170.53       9.511E-2      -5.62         9.526E-2      -5.73         0.81011       -8.59          
29.0986       0.04921       -170.41       9.51E-2       -5.73         9.526E-2      -5.86         0.8099        -8.74          
29.6985       0.04931       -170.23       9.512E-2      -5.86         9.523E-2      -5.94         0.80976       -8.92          
30.2985       0.04928       -170.02       9.508E-2      -6.01         9.523E-2      -6.11         0.80954       -9.09          
30.8985       0.0493        -169.74       9.511E-2      -6.12         9.521E-2      -6.18         0.8096        -9.27          
31.4984       0.04937       -169.56       9.505E-2      -6.20         9.515E-2      -6.29         0.80954       -9.42          
32.0984       0.0494        -169.42       9.508E-2      -6.35         9.522E-2      -6.41         0.80956       -9.59          
32.6984       0.04943       -169.17       9.507E-2      -6.43         9.522E-2      -6.52         0.80948       -9.76          
33.2984       0.04948       -169.02       9.506E-2      -6.55         9.518E-2      -6.63         0.80942       -9.91          
33.8983       0.04949       -168.81       9.512E-2      -6.67         9.519E-2      -6.75         0.80958       -10.06         
34.4983       0.04956       -168.60       9.509E-2      -6.78         9.519E-2      -6.86         0.80973       -10.21         
35.0983       0.04955       -168.43       9.51E-2       -6.89         9.521E-2      -7.01         0.80981       -10.40         
35.6982       0.04961       -168.22       9.51E-2       -6.98         9.519E-2      -7.08         0.80997       -10.55         
36.2982       0.04967       -168.03       9.512E-2      -7.12         9.517E-2      -7.25         0.80999       -10.74         
36.8982       0.04967       -167.80       9.508E-2      -7.25         9.518E-2      -7.34         0.8099        -10.90         
37.4981       0.04975       -167.67       9.509E-2      -7.36         9.518E-2      -7.44         0.80985       -11.07         
38.0981       0.04977       -167.44       9.511E-2      -7.46         9.515E-2      -7.57         0.80991       -11.26         
38.6981       0.04981       -167.25       9.508E-2      -7.54         9.517E-2      -7.69         0.80989       -11.43         
39.2981       0.04983       -167.09       9.506E-2      -7.67         9.511E-2      -7.81         0.80992       -11.60         
39.8980       0.04988       -166.91       9.507E-2      -7.82         9.514E-2      -7.96         0.80976       -11.78         
40.4980       0.04988       -166.69       9.507E-2      -7.95         9.514E-2      -8.01         0.80985       -11.93         
41.0980       0.04997       -166.51       9.51E-2       -8.04         9.516E-2      -8.15         0.80961       -12.12         
41.6979       0.05001       -166.35       9.504E-2      -8.15         9.514E-2      -8.27         0.80984       -12.29         
42.2979       0.05006       -166.20       9.505E-2      -8.25         9.517E-2      -8.39         0.80975       -12.48         
42.8979       0.05008       -166.01       9.508E-2      -8.40         9.511E-2      -8.48         0.80987       -12.66         
43.4978       0.05005       -165.85       9.505E-2      -8.49         9.515E-2      -8.62         0.80994       -12.84         
44.0978       0.05017       -165.66       9.505E-2      -8.62         9.513E-2      -8.73         0.80987       -13.03         
44.6978       0.05021       -165.56       9.505E-2      -8.74         9.51E-2       -8.87         0.81009       -13.21         
45.2978       0.05026       -165.37       9.505E-2      -8.84         9.51E-2       -8.93         0.81006       -13.39         
45.8977       0.05036       -165.15       9.502E-2      -8.97         9.512E-2      -9.07         0.8102        -13.56         
46.4977       0.05033       -165.01       9.498E-2      -9.11         9.508E-2      -9.17         0.81023       -13.75         
47.0977       0.05036       -164.79       9.504E-2      -9.22         9.514E-2      -9.30         0.81119       -13.92         
47.6976       0.05042       -164.60       9.50E-2       -9.34         9.507E-2      -9.41         0.81125       -14.09         
48.2976       0.05048       -164.46       9.505E-2      -9.47         9.509E-2      -9.52         0.8113        -14.25         
48.8976       0.05051       -164.28       9.499E-2      -9.58         9.509E-2      -9.63         0.81148       -14.43         
49.4975       0.05056       -164.14       9.499E-2      -9.72         9.513E-2      -9.73         0.81141       -14.60         
50.0975       0.05055       -164.00       9.496E-2      -9.80         9.507E-2      -9.87         0.81153       -14.77         
50.6975       0.05065       -163.75       9.498E-2      -9.93         9.512E-2      -9.99         0.81166       -14.95         
51.2975       0.05069       -163.60       9.494E-2      -10.02        9.515E-2      -10.13        0.81176       -15.13         
51.8974       0.05077       -163.44       9.489E-2      -10.12        9.517E-2      -10.25        0.81175       -15.29         
52.4974       0.05149       -163.55       9.486E-2      -10.18        9.591E-2      -10.61        0.80974       -15.47         
53.0974       0.05082       -163.04       9.474E-2      -10.23        9.51E-2       -10.49        0.80929       -15.56         
53.6973       0.05087       -162.87       9.496E-2      -10.48        9.509E-2      -10.59        0.81232       -15.82         
54.2973       0.0509        -162.79       9.495E-2      -10.58        9.509E-2      -10.73        0.81233       -15.99         
54.8973       0.05095       -162.62       9.496E-2      -10.73        9.51E-2       -10.81        0.81242       -16.14         
55.4972       0.05094       -162.46       9.495E-2      -10.82        9.512E-2      -10.92        0.81249       -16.30         
56.0972       0.05104       -162.28       9.496E-2      -10.94        9.506E-2      -11.03        0.81244       -16.47         
56.6972       0.05109       -162.08       9.497E-2      -11.05        9.505E-2      -11.12        0.81247       -16.62         
57.2972       0.05118       -161.89       9.494E-2      -11.16        9.508E-2      -11.24        0.81251       -16.79         
57.8971       0.05117       -161.71       9.493E-2      -11.28        9.507E-2      -11.36        0.81256       -16.95         
58.4971       0.05125       -161.58       9.499E-2      -11.39        9.509E-2      -11.50        0.81278       -17.12         
59.0971       0.05127       -161.43       9.498E-2      -11.49        9.51E-2       -11.59        0.81277       -17.28         
59.6970       0.0513        -161.20       9.496E-2      -11.61        9.51E-2       -11.72        0.81303       -17.45         
60.2970       0.05135       -161.06       9.493E-2      -11.70        9.507E-2      -11.83        0.81307       -17.61         
60.8970       0.05141       -160.87       9.497E-2      -11.86        9.512E-2      -11.98        0.81314       -17.78         
61.4969       0.05142       -160.73       9.496E-2      -11.96        9.507E-2      -12.09        0.8131        -17.94         
62.0969       0.0515        -160.53       9.497E-2      -12.07        9.51E-2       -12.18        0.81301       -18.11         
62.6969       0.05152       -160.43       9.498E-2      -12.17        9.507E-2      -12.32        0.81301       -18.27         
63.2969       0.0516        -160.26       9.497E-2      -12.30        9.51E-2       -12.42        0.81312       -18.44         
63.8968       0.05166       -160.11       9.497E-2      -12.41        9.511E-2      -12.54        0.81312       -18.59         
64.4968       0.05171       -159.92       9.498E-2      -12.52        9.51E-2       -12.67        0.81318       -18.77         
65.0968       0.05177       -159.75       9.494E-2      -12.65        9.512E-2      -12.78        0.8132        -18.92         
65.6967       0.05183       -159.58       9.50E-2       -12.76        9.511E-2      -12.88        0.81329       -19.08         
66.2967       0.05184       -159.44       9.496E-2      -12.87        9.509E-2      -13.00        0.81333       -19.25         
66.8967       0.0519        -159.29       9.497E-2      -13.00        9.51E-2       -13.12        0.8132        -19.42         
67.4966       0.05191       -159.09       9.496E-2      -13.09        9.511E-2      -13.23        0.81328       -19.60         
68.0966       0.05197       -158.96       9.497E-2      -13.20        9.512E-2      -13.33        0.81332       -19.76         
68.6966       0.05204       -158.75       9.496E-2      -13.31        9.512E-2      -13.44        0.8134        -19.90         
69.2966       0.05213       -158.60       9.493E-2      -13.44        9.515E-2      -13.54        0.81335       -20.09         
69.8965       0.05219       -158.44       9.497E-2      -13.58        9.513E-2      -13.63        0.81344       -20.26         
70.4965       0.05222       -158.33       9.498E-2      -13.67        9.511E-2      -13.78        0.81359       -20.43         
71.0965       0.05225       -158.19       9.494E-2      -13.80        9.514E-2      -13.89        0.81371       -20.58         
71.6964       0.05233       -157.99       9.493E-2      -13.90        9.514E-2      -14.01        0.81362       -20.74         
72.2964       0.05239       -157.91       9.498E-2      -14.02        9.509E-2      -14.14        0.81366       -20.90         
72.8964       0.05247       -157.78       9.498E-2      -14.15        9.511E-2      -14.25        0.81373       -21.09         
73.4963       0.05256       -157.54       9.499E-2      -14.28        9.51E-2       -14.37        0.81379       -21.24         
74.0963       0.05257       -157.43       9.499E-2      -14.40        9.515E-2      -14.49        0.81395       -21.42         
74.6963       0.0526        -157.33       9.497E-2      -14.49        9.513E-2      -14.58        0.81376       -21.57         
75.2963       0.05267       -157.13       9.497E-2      -14.62        9.509E-2      -14.68        0.8139        -21.74         
75.8962       0.05272       -156.99       9.499E-2      -14.73        9.515E-2      -14.83        0.81401       -21.90         
76.4962       0.05283       -156.78       9.499E-2      -14.83        9.513E-2      -14.94        0.81423       -22.07         
77.0962       0.05286       -156.68       9.50E-2       -14.94        9.516E-2      -15.03        0.8143        -22.23         
77.6961       0.05293       -156.56       9.496E-2      -15.09        9.518E-2      -15.18        0.8146        -22.40         
78.2961       0.05302       -156.35       9.502E-2      -15.16        9.514E-2      -15.26        0.81455       -22.56         
78.8961       0.05304       -156.26       9.499E-2      -15.30        9.517E-2      -15.37        0.81475       -22.72         
79.4960       0.05313       -156.06       9.501E-2      -15.41        9.519E-2      -15.48        0.81501       -22.87         
80.0960       0.05314       -155.95       9.502E-2      -15.55        9.518E-2      -15.61        0.815         -23.05         
80.6960       0.0532        -155.81       9.504E-2      -15.63        9.517E-2      -15.69        0.8152        -23.20         
81.2960       0.05328       -155.70       9.505E-2      -15.77        9.521E-2      -15.82        0.81532       -23.36         
81.8959       0.05334       -155.52       9.501E-2      -15.86        9.522E-2      -15.93        0.81553       -23.52         
82.4959       0.05346       -155.37       9.507E-2      -15.99        9.523E-2      -16.06        0.81578       -23.69         
83.0959       0.05349       -155.19       9.505E-2      -16.10        9.521E-2      -16.14        0.81589       -23.83         
83.6958       0.05355       -155.05       9.505E-2      -16.19        9.521E-2      -16.28        0.81606       -24.01         
84.2958       0.05363       -154.86       9.505E-2      -16.33        9.522E-2      -16.37        0.81616       -24.17         
84.8958       0.05368       -154.75       9.51E-2       -16.43        9.522E-2      -16.51        0.81612       -24.32         
85.4957       0.05375       -154.64       9.513E-2      -16.56        9.523E-2      -16.64        0.81643       -24.49         
86.0957       0.05381       -154.45       9.511E-2      -16.67        9.524E-2      -16.75        0.81633       -24.67         
86.6957       0.05385       -154.25       9.509E-2      -16.81        9.522E-2      -16.87        0.81653       -24.83         
87.2957       0.05393       -154.14       9.514E-2      -16.91        9.526E-2      -17.00        0.81672       -25.00         
87.8956       0.05397       -153.99       9.515E-2      -17.01        9.522E-2      -17.09        0.81675       -25.15         
88.4956       0.0541        -153.82       9.511E-2      -17.13        9.522E-2      -17.21        0.81682       -25.31         
89.0956       0.05414       -153.65       9.514E-2      -17.23        9.522E-2      -17.35        0.81695       -25.46         
89.6955       0.05421       -153.50       9.518E-2      -17.36        9.525E-2      -17.45        0.81714       -25.62         
90.2955       0.05428       -153.34       9.518E-2      -17.46        9.525E-2      -17.54        0.81741       -25.79         
90.8955       0.05436       -153.23       9.519E-2      -17.58        9.524E-2      -17.66        0.81742       -25.95         
91.4954       0.05442       -153.06       9.522E-2      -17.69        9.524E-2      -17.80        0.81754       -26.12         
92.0954       0.0545        -152.87       9.52E-2       -17.82        9.526E-2      -17.90        0.81749       -26.27         
