!    8/6/2020   01:35:50 
! Ref Plane: 0.000 mm
# MHZ S MA R  50
!
0.3000        0.04797       178.16        9.871E-2      -1.00         9.662E-2      -0.92         0.81646       -0.36          
0.9000        0.04772       178.88        9.486E-2      -0.49         9.548E-2      -0.29         0.81032       -0.48          
1.4999        0.04778       179.15        9.511E-2      -0.28         9.542E-2      -0.39         0.80954       -0.65          
2.0999        0.04772       179.39        9.513E-2      -0.45         9.536E-2      -0.48         0.80958       -0.87          
2.6999        0.04778       179.59        9.52E-2       -0.54         9.537E-2      -0.60         0.80966       -1.06          
3.2999        0.04777       179.89        9.524E-2      -0.64         9.536E-2      -0.76         0.80977       -1.24          
3.8998        0.04786       -179.91       9.518E-2      -0.79         9.535E-2      -0.85         0.80972       -1.44          
4.4998        0.04785       -179.69       9.517E-2      -0.91         9.535E-2      -0.94         0.80981       -1.61          
5.0998        0.04793       -179.40       9.518E-2      -1.01         9.533E-2      -1.05         0.8098        -1.79          
5.6997        0.04789       -179.11       9.518E-2      -1.13         9.539E-2      -1.18         0.81          -1.98          
6.2997        0.04794       -178.96       9.515E-2      -1.26         9.533E-2      -1.30         0.80976       -2.17          
6.8997        0.04798       -178.73       9.518E-2      -1.42         9.53E-2       -1.42         0.81002       -2.36          
7.4996        0.048         -178.42       9.517E-2      -1.48         9.532E-2      -1.51         0.81003       -2.56          
8.0996        0.04806       -178.23       9.514E-2      -1.61         9.532E-2      -1.64         0.80986       -2.75          
8.6996        0.04808       -178.00       9.512E-2      -1.72         9.535E-2      -1.73         0.81008       -2.92          
9.2996        0.04807       -177.73       9.52E-2       -1.85         9.533E-2      -1.88         0.81027       -3.11          
9.8995        0.0481        -177.50       9.515E-2      -1.99         9.533E-2      -1.99         0.80997       -3.28          
10.4995       0.04817       -177.28       9.515E-2      -2.10         9.533E-2      -2.10         0.81044       -3.46          
11.0995       0.04821       -177.06       9.513E-2      -2.21         9.531E-2      -2.21         0.81055       -3.64          
11.6994       0.04823       -176.81       9.514E-2      -2.31         9.532E-2      -2.30         0.81069       -3.83          
12.2994       0.04821       -176.59       9.512E-2      -2.43         9.528E-2      -2.41         0.81061       -4.01          
12.8994       0.04826       -176.35       9.515E-2      -2.48         9.529E-2      -2.56         0.81063       -4.18          
13.4993       0.04827       -176.10       9.52E-2       -2.66         9.526E-2      -2.68         0.81086       -4.38          
14.0993       0.04833       -175.93       9.516E-2      -2.75         9.525E-2      -2.80         0.81096       -4.53          
14.6993       0.04833       -175.66       9.509E-2      -2.91         9.528E-2      -2.88         0.81091       -4.71          
15.2993       0.04836       -175.50       9.508E-2      -2.96         9.523E-2      -3.03         0.81115       -4.89          
15.8992       0.0484        -175.27       9.508E-2      -3.06         9.523E-2      -3.14         0.81131       -5.05          
16.4992       0.04845       -175.07       9.509E-2      -3.20         9.527E-2      -3.28         0.81126       -5.24          
17.0992       0.04848       -174.80       9.513E-2      -3.30         9.523E-2      -3.36         0.81151       -5.42          
17.6991       0.04858       -174.56       9.507E-2      -3.42         9.522E-2      -3.50         0.81149       -5.60          
18.2991       0.04857       -174.38       9.506E-2      -3.54         9.521E-2      -3.59         0.81161       -5.76          
18.8991       0.0486        -174.15       9.51E-2       -3.65         9.522E-2      -3.69         0.812         -5.92          
19.4990       0.04862       -173.94       9.509E-2      -3.77         9.523E-2      -3.81         0.81215       -6.10          
20.0990       0.04867       -173.71       9.508E-2      -3.89         9.522E-2      -3.91         0.81208       -6.28          
20.6990       0.04869       -173.49       9.51E-2       -4.01         9.52E-2       -4.03         0.81225       -6.45          
21.2990       0.04869       -173.21       9.505E-2      -4.12         9.523E-2      -4.13         0.81223       -6.61          
21.8989       0.04875       -173.10       9.508E-2      -4.23         9.519E-2      -4.24         0.81246       -6.79          
22.4989       0.04877       -172.84       9.503E-2      -4.35         9.524E-2      -4.35         0.81259       -6.96          
23.0989       0.04885       -172.70       9.503E-2      -4.43         9.521E-2      -4.47         0.81289       -7.14          
23.6988       0.04884       -172.38       9.507E-2      -4.54         9.521E-2      -4.59         0.81262       -7.30          
24.2988       0.04889       -172.21       9.50E-2       -4.64         9.518E-2      -4.69         0.81275       -7.47          
24.8988       0.04895       -172.00       9.501E-2      -4.76         9.518E-2      -4.81         0.81281       -7.64          
25.4987       0.04899       -171.81       9.502E-2      -4.86         9.512E-2      -4.92         0.81296       -7.80          
26.0987       0.04904       -171.56       9.496E-2      -4.97         9.517E-2      -5.00         0.81294       -7.97          
26.6987       0.04911       -171.37       9.498E-2      -5.08         9.515E-2      -5.12         0.81293       -8.13          
27.2987       0.0491        -171.12       9.503E-2      -5.19         9.515E-2      -5.22         0.81287       -8.30          
27.8986       0.04913       -170.97       9.501E-2      -5.32         9.513E-2      -5.33         0.81283       -8.45          
28.4986       0.04916       -170.72       9.50E-2       -5.42         9.512E-2      -5.46         0.81291       -8.64          
29.0986       0.0492        -170.61       9.499E-2      -5.50         9.511E-2      -5.57         0.81281       -8.78          
29.6985       0.04929       -170.39       9.498E-2      -5.62         9.508E-2      -5.65         0.81284       -8.96          
30.2985       0.04926       -170.18       9.495E-2      -5.74         9.507E-2      -5.80         0.81272       -9.12          
30.8985       0.04932       -169.93       9.497E-2      -5.87         9.505E-2      -5.86         0.8129        -9.29          
31.4984       0.04937       -169.76       9.494E-2      -5.92         9.501E-2      -5.98         0.81295       -9.45          
32.0984       0.04941       -169.62       9.492E-2      -6.06         9.506E-2      -6.08         0.81308       -9.61          
32.6984       0.04945       -169.36       9.491E-2      -6.16         9.504E-2      -6.19         0.81312       -9.77          
33.2984       0.04946       -169.23       9.493E-2      -6.26         9.503E-2      -6.29         0.81324       -9.91          
33.8983       0.04949       -169.02       9.499E-2      -6.35         9.503E-2      -6.40         0.81354       -10.06         
34.4983       0.04957       -168.82       9.492E-2      -6.45         9.505E-2      -6.48         0.8139        -10.20         
35.0983       0.04955       -168.66       9.496E-2      -6.56         9.505E-2      -6.63         0.81408       -10.37         
35.6982       0.0496        -168.48       9.498E-2      -6.66         9.503E-2      -6.70         0.81441       -10.53         
36.2982       0.04966       -168.29       9.497E-2      -6.78         9.501E-2      -6.85         0.81454       -10.71         
36.8982       0.04968       -168.08       9.493E-2      -6.89         9.502E-2      -6.94         0.81459       -10.86         
37.4981       0.04973       -167.91       9.495E-2      -6.98         9.501E-2      -7.03         0.81471       -11.02         
38.0981       0.04976       -167.72       9.498E-2      -7.10         9.501E-2      -7.15         0.81489       -11.20         
38.6981       0.04978       -167.53       9.495E-2      -7.16         9.499E-2      -7.26         0.81508       -11.37         
39.2981       0.04981       -167.37       9.494E-2      -7.28         9.496E-2      -7.36         0.81524       -11.52         
39.8980       0.04985       -167.18       9.495E-2      -7.41         9.498E-2      -7.50         0.81531       -11.69         
40.4980       0.04989       -166.96       9.493E-2      -7.52         9.498E-2      -7.56         0.81546       -11.84         
41.0980       0.04995       -166.76       9.495E-2      -7.62         9.499E-2      -7.68         0.81542       -12.02         
41.6979       0.04999       -166.60       9.492E-2      -7.71         9.497E-2      -7.78         0.81584       -12.18         
42.2979       0.05002       -166.49       9.492E-2      -7.81         9.499E-2      -7.89         0.81591       -12.36         
42.8979       0.05006       -166.29       9.491E-2      -7.93         9.496E-2      -7.99         0.81621       -12.53         
43.4978       0.05004       -166.15       9.492E-2      -8.04         9.498E-2      -8.09         0.81644       -12.70         
44.0978       0.05013       -165.93       9.491E-2      -8.13         9.498E-2      -8.20         0.81657       -12.88         
44.6978       0.05017       -165.86       9.489E-2      -8.26         9.498E-2      -8.33         0.81693       -13.05         
45.2978       0.05023       -165.64       9.494E-2      -8.35         9.498E-2      -8.39         0.81707       -13.22         
45.8977       0.0503        -165.44       9.49E-2       -8.47         9.498E-2      -8.50         0.81739       -13.38         
46.4977       0.05029       -165.29       9.485E-2      -8.58         9.494E-2      -8.61         0.81762       -13.56         
47.0977       0.05029       -165.10       9.495E-2      -8.68         9.505E-2      -8.74         0.81874       -13.71         
47.6976       0.05037       -164.90       9.488E-2      -8.79         9.494E-2      -8.84         0.81898       -13.88         
48.2976       0.05042       -164.79       9.493E-2      -8.91         9.496E-2      -8.93         0.81924       -14.02         
48.8976       0.05046       -164.61       9.489E-2      -9.00         9.494E-2      -9.04         0.81961       -14.20         
49.4975       0.05054       -164.44       9.489E-2      -9.12         9.503E-2      -9.13         0.81971       -14.35         
50.0975       0.05055       -164.30       9.485E-2      -9.21         9.495E-2      -9.27         0.82003       -14.50         
50.6975       0.05058       -164.07       9.487E-2      -9.33         9.50E-2       -9.36         0.82036       -14.68         
51.2975       0.05063       -163.94       9.486E-2      -9.42         9.501E-2      -9.49         0.82065       -14.85         
51.8974       0.05073       -163.79       9.484E-2      -9.52         9.505E-2      -9.60         0.8208        -14.99         
52.4974       0.05147       -163.91       9.478E-2      -9.56         9.582E-2      -9.93         0.81897       -15.16         
53.0974       0.05075       -163.37       9.464E-2      -9.61         9.498E-2      -9.80         0.81875       -15.24         
53.6973       0.05079       -163.28       9.486E-2      -9.85         9.50E-2       -9.90         0.82203       -15.48         
54.2973       0.05086       -163.14       9.487E-2      -9.95         9.501E-2      -10.02        0.8222        -15.64         
54.8973       0.05085       -162.98       9.489E-2      -10.06        9.498E-2      -10.11        0.82248       -15.78         
55.4972       0.05089       -162.82       9.489E-2      -10.14        9.502E-2      -10.19        0.82279       -15.93         
56.0972       0.05096       -162.64       9.493E-2      -10.27        9.502E-2      -10.31        0.82293       -16.09         
56.6972       0.05101       -162.46       9.491E-2      -10.37        9.50E-2       -10.38        0.82312       -16.22         
57.2972       0.05109       -162.28       9.488E-2      -10.46        9.502E-2      -10.49        0.82341       -16.38         
57.8971       0.05109       -162.07       9.49E-2       -10.57        9.502E-2      -10.61        0.82366       -16.53         
58.4971       0.05115       -161.97       9.496E-2      -10.67        9.503E-2      -10.74        0.82406       -16.69         
59.0971       0.05118       -161.82       9.493E-2      -10.77        9.505E-2      -10.82        0.82429       -16.83         
59.6970       0.05122       -161.60       9.497E-2      -10.87        9.508E-2      -10.95        0.82467       -16.99         
60.2970       0.05126       -161.44       9.492E-2      -10.96        9.504E-2      -11.05        0.8249        -17.13         
60.8970       0.05133       -161.25       9.498E-2      -11.09        9.512E-2      -11.17        0.8253        -17.29         
61.4969       0.05135       -161.13       9.498E-2      -11.18        9.509E-2      -11.25        0.82537       -17.44         
62.0969       0.0514        -160.94       9.501E-2      -11.29        9.51E-2       -11.36        0.82552       -17.60         
62.6969       0.05141       -160.84       9.499E-2      -11.39        9.508E-2      -11.48        0.8257        -17.74         
63.2969       0.05151       -160.63       9.498E-2      -11.52        9.51E-2       -11.57        0.82605       -17.91         
63.8968       0.05154       -160.49       9.501E-2      -11.61        9.513E-2      -11.71        0.82626       -18.04         
64.4968       0.05163       -160.32       9.504E-2      -11.72        9.511E-2      -11.78        0.82654       -18.20         
65.0968       0.05164       -160.16       9.502E-2      -11.83        9.515E-2      -11.91        0.82675       -18.34         
65.6967       0.05173       -159.98       9.505E-2      -11.94        9.515E-2      -12.00        0.82701       -18.49         
66.2967       0.05174       -159.82       9.504E-2      -12.03        9.516E-2      -12.12        0.82729       -18.64         
66.8967       0.05174       -159.70       9.502E-2      -12.15        9.516E-2      -12.23        0.82738       -18.80         
67.4966       0.0518        -159.52       9.505E-2      -12.23        9.52E-2       -12.34        0.82759       -18.97         
68.0966       0.05181       -159.38       9.505E-2      -12.36        9.521E-2      -12.42        0.82786       -19.11         
68.6966       0.05192       -159.18       9.508E-2      -12.44        9.519E-2      -12.51        0.82818       -19.24         
69.2966       0.052         -159.02       9.506E-2      -12.57        9.524E-2      -12.63        0.82827       -19.42         
69.8965       0.05205       -158.87       9.513E-2      -12.69        9.523E-2      -12.72        0.82854       -19.57         
70.4965       0.05209       -158.76       9.513E-2      -12.78        9.524E-2      -12.83        0.82895       -19.72         
71.0965       0.05212       -158.59       9.509E-2      -12.89        9.527E-2      -12.94        0.82922       -19.87         
71.6964       0.05221       -158.39       9.513E-2      -13.02        9.531E-2      -13.04        0.82934       -20.02         
72.2964       0.05223       -158.30       9.514E-2      -13.12        9.521E-2      -13.17        0.82962       -20.16         
72.8964       0.0523        -158.20       9.519E-2      -13.23        9.529E-2      -13.26        0.82987       -20.33         
73.4963       0.0524        -157.97       9.518E-2      -13.37        9.528E-2      -13.39        0.83012       -20.48         
74.0963       0.0524        -157.85       9.519E-2      -13.44        9.531E-2      -13.49        0.83046       -20.64         
74.6963       0.05245       -157.76       9.519E-2      -13.58        9.531E-2      -13.59        0.83044       -20.78         
75.2963       0.05251       -157.55       9.519E-2      -13.67        9.532E-2      -13.69        0.83081       -20.94         
75.8962       0.05253       -157.40       9.521E-2      -13.79        9.536E-2      -13.82        0.83109       -21.08         
76.4962       0.05263       -157.20       9.526E-2      -13.87        9.536E-2      -13.93        0.83155       -21.24         
77.0962       0.0527        -157.11       9.527E-2      -13.98        9.538E-2      -14.01        0.83175       -21.39         
77.6961       0.05274       -156.98       9.524E-2      -14.10        9.54E-2       -14.14        0.83221       -21.54         
78.2961       0.05282       -156.77       9.527E-2      -14.18        9.543E-2      -14.23        0.8324        -21.69         
78.8961       0.05285       -156.66       9.527E-2      -14.31        9.544E-2      -14.33        0.83275       -21.84         
79.4960       0.05294       -156.48       9.532E-2      -14.43        9.546E-2      -14.45        0.83317       -21.98         
80.0960       0.05291       -156.38       9.529E-2      -14.54        9.546E-2      -14.56        0.83341       -22.15         
80.6960       0.053         -156.23       9.535E-2      -14.63        9.546E-2      -14.65        0.83371       -22.29         
81.2960       0.05304       -156.11       9.535E-2      -14.75        9.552E-2      -14.78        0.83408       -22.44         
81.8959       0.05311       -155.94       9.536E-2      -14.83        9.553E-2      -14.86        0.83443       -22.58         
82.4959       0.05322       -155.80       9.538E-2      -14.96        9.556E-2      -14.97        0.8348        -22.74         
83.0959       0.05326       -155.61       9.54E-2       -15.07        9.556E-2      -15.08        0.83503       -22.87         
83.6958       0.05331       -155.46       9.541E-2      -15.17        9.558E-2      -15.21        0.83544       -23.04         
84.2958       0.05337       -155.31       9.545E-2      -15.31        9.557E-2      -15.28        0.83572       -23.18         
84.8958       0.05342       -155.15       9.546E-2      -15.40        9.558E-2      -15.44        0.83584       -23.33         
85.4957       0.05349       -155.03       9.553E-2      -15.53        9.562E-2      -15.54        0.83635       -23.49         
86.0957       0.05354       -154.86       9.554E-2      -15.63        9.56E-2       -15.65        0.83633       -23.66         
86.6957       0.05359       -154.64       9.552E-2      -15.75        9.562E-2      -15.77        0.83669       -23.80         
87.2957       0.05368       -154.55       9.556E-2      -15.86        9.566E-2      -15.89        0.83701       -23.96         
87.8956       0.05368       -154.41       9.557E-2      -15.97        9.564E-2      -15.98        0.8372        -24.10         
88.4956       0.05383       -154.21       9.56E-2       -16.06        9.566E-2      -16.10        0.83741       -24.24         
89.0956       0.05386       -154.06       9.559E-2      -16.17        9.565E-2      -16.21        0.8377        -24.39         
89.6955       0.05392       -153.87       9.566E-2      -16.28        9.567E-2      -16.33        0.838         -24.54         
90.2955       0.054         -153.74       9.566E-2      -16.36        9.573E-2      -16.42        0.83839       -24.70         
90.8955       0.05405       -153.63       9.572E-2      -16.50        9.571E-2      -16.53        0.83856       -24.85         
91.4954       0.05412       -153.44       9.574E-2      -16.61        9.573E-2      -16.64        0.83881       -25.02         
92.0954       0.0542        -153.29       9.574E-2      -16.74        9.575E-2      -16.77        0.83889       -25.15         
