!    8/6/2020   01:37:10 
! Ref Plane: 0.000 mm
# MHZ S MA R  50
!
0.3000        0.04747       178.49        9.874E-2      -0.95         9.652E-2      -0.84         0.81603       -0.32          
0.9000        0.04755       178.98        9.491E-2      -0.44         9.537E-2      -0.26         0.81012       -0.48          
1.4999        0.04768       179.23        9.511E-2      -0.25         9.537E-2      -0.35         0.80963       -0.64          
2.0999        0.04767       179.47        9.512E-2      -0.42         9.532E-2      -0.47         0.80969       -0.85          
2.6999        0.04772       179.68        9.516E-2      -0.53         9.532E-2      -0.59         0.80958       -1.02          
3.2999        0.04771       179.98        9.518E-2      -0.63         9.534E-2      -0.74         0.80979       -1.21          
3.8998        0.04781       -179.82       9.515E-2      -0.78         9.531E-2      -0.87         0.80974       -1.40          
4.4998        0.04778       -179.62       9.514E-2      -0.93         9.53E-2       -0.95         0.80983       -1.56          
5.0998        0.04788       -179.32       9.515E-2      -1.00         9.53E-2       -1.06         0.80981       -1.74          
5.6997        0.04787       -179.04       9.513E-2      -1.15         9.535E-2      -1.21         0.80996       -1.93          
6.2997        0.0479        -178.92       9.512E-2      -1.29         9.53E-2       -1.32         0.80976       -2.12          
6.8997        0.04796       -178.68       9.514E-2      -1.45         9.529E-2      -1.44         0.81          -2.30          
7.4996        0.04802       -178.36       9.512E-2      -1.52         9.528E-2      -1.56         0.81005       -2.50          
8.0996        0.04805       -178.16       9.511E-2      -1.68         9.533E-2      -1.71         0.80979       -2.68          
8.6996        0.04805       -177.94       9.511E-2      -1.78         9.531E-2      -1.79         0.81002       -2.85          
9.2996        0.04808       -177.68       9.516E-2      -1.91         9.533E-2      -1.96         0.8102        -3.03          
9.8995        0.04811       -177.43       9.512E-2      -2.08         9.531E-2      -2.07         0.80986       -3.20          
10.4995       0.04815       -177.25       9.513E-2      -2.21         9.532E-2      -2.19         0.81028       -3.38          
11.0995       0.04819       -177.03       9.514E-2      -2.30         9.53E-2       -2.30         0.81034       -3.56          
11.6994       0.04824       -176.76       9.511E-2      -2.40         9.53E-2       -2.42         0.81043       -3.75          
12.2994       0.04824       -176.53       9.509E-2      -2.55         9.525E-2      -2.54         0.81034       -3.92          
12.8994       0.04826       -176.30       9.512E-2      -2.60         9.529E-2      -2.68         0.81038       -4.09          
13.4993       0.04828       -176.07       9.518E-2      -2.81         9.527E-2      -2.82         0.81053       -4.29          
14.0993       0.04835       -175.91       9.513E-2      -2.90         9.526E-2      -2.95         0.81061       -4.44          
14.6993       0.04837       -175.64       9.506E-2      -3.06         9.531E-2      -3.05         0.81055       -4.62          
15.2993       0.0484        -175.45       9.509E-2      -3.13         9.524E-2      -3.18         0.81072       -4.80          
15.8992       0.04843       -175.23       9.509E-2      -3.25         9.524E-2      -3.33         0.81081       -4.96          
16.4992       0.04847       -175.02       9.508E-2      -3.39         9.526E-2      -3.48         0.8107        -5.15          
17.0992       0.0485        -174.79       9.511E-2      -3.49         9.526E-2      -3.56         0.81093       -5.32          
17.6991       0.04862       -174.56       9.505E-2      -3.62         9.523E-2      -3.71         0.81086       -5.51          
18.2991       0.04859       -174.34       9.505E-2      -3.76         9.523E-2      -3.80         0.81095       -5.66          
18.8991       0.04863       -174.16       9.51E-2       -3.88         9.525E-2      -3.92         0.81128       -5.82          
19.4990       0.04866       -173.91       9.511E-2      -4.01         9.525E-2      -4.07         0.81128       -6.01          
20.0990       0.04869       -173.67       9.509E-2      -4.12         9.526E-2      -4.18         0.81124       -6.19          
20.6990       0.04874       -173.48       9.512E-2      -4.26         9.526E-2      -4.30         0.81135       -6.35          
21.2990       0.04874       -173.19       9.508E-2      -4.39         9.526E-2      -4.41         0.81124       -6.51          
21.8989       0.04879       -173.09       9.508E-2      -4.50         9.526E-2      -4.52         0.8114        -6.70          
22.4989       0.04883       -172.82       9.507E-2      -4.65         9.529E-2      -4.65         0.8115        -6.86          
23.0989       0.04889       -172.65       9.507E-2      -4.74         9.529E-2      -4.77         0.81172       -7.04          
23.6988       0.04891       -172.35       9.512E-2      -4.85         9.525E-2      -4.91         0.81137       -7.21          
24.2988       0.04893       -172.19       9.507E-2      -4.96         9.52E-2       -5.03         0.81148       -7.37          
24.8988       0.049         -171.97       9.503E-2      -5.11         9.524E-2      -5.17         0.8114        -7.54          
25.4987       0.04904       -171.79       9.509E-2      -5.21         9.519E-2      -5.29         0.81146       -7.71          
26.0987       0.04909       -171.57       9.50E-2       -5.34         9.524E-2      -5.38         0.81139       -7.88          
26.6987       0.04916       -171.36       9.501E-2      -5.44         9.519E-2      -5.50         0.81128       -8.04          
27.2987       0.04916       -171.12       9.509E-2      -5.57         9.52E-2       -5.62         0.81115       -8.21          
27.8986       0.04921       -170.95       9.505E-2      -5.73         9.52E-2       -5.73         0.81105       -8.36          
28.4986       0.04922       -170.68       9.508E-2      -5.82         9.521E-2      -5.88         0.81103       -8.55          
29.0986       0.04925       -170.59       9.506E-2      -5.90         9.519E-2      -5.99         0.81083       -8.70          
29.6985       0.04938       -170.37       9.505E-2      -6.03         9.516E-2      -6.08         0.81079       -8.88          
30.2985       0.04934       -170.14       9.503E-2      -6.19         9.515E-2      -6.23         0.81058       -9.04          
30.8985       0.04939       -169.91       9.503E-2      -6.33         9.513E-2      -6.33         0.81066       -9.22          
31.4984       0.04943       -169.77       9.50E-2       -6.39         9.507E-2      -6.44         0.8106        -9.37          
32.0984       0.04948       -169.61       9.501E-2      -6.54         9.517E-2      -6.57         0.81068       -9.54          
32.6984       0.0495        -169.34       9.501E-2      -6.64         9.515E-2      -6.67         0.81063       -9.70          
33.2984       0.04955       -169.21       9.502E-2      -6.76         9.511E-2      -6.80         0.81061       -9.85          
33.8983       0.04958       -169.02       9.506E-2      -6.87         9.512E-2      -6.92         0.81082       -9.99          
34.4983       0.04964       -168.79       9.503E-2      -6.97         9.513E-2      -7.01         0.81101       -10.14         
35.0983       0.04966       -168.64       9.506E-2      -7.10         9.513E-2      -7.16         0.8111        -10.32         
35.6982       0.04969       -168.46       9.505E-2      -7.19         9.513E-2      -7.25         0.81132       -10.47         
36.2982       0.04974       -168.23       9.505E-2      -7.34         9.51E-2       -7.40         0.81137       -10.66         
36.8982       0.04976       -168.07       9.501E-2      -7.45         9.51E-2       -7.51         0.81135       -10.82         
37.4981       0.04983       -167.92       9.506E-2      -7.56         9.512E-2      -7.61         0.81134       -10.98         
38.0981       0.04987       -167.71       9.506E-2      -7.68         9.509E-2      -7.76         0.81142       -11.17         
38.6981       0.04989       -167.52       9.507E-2      -7.78         9.509E-2      -7.88         0.81144       -11.33         
39.2981       0.04991       -167.36       9.505E-2      -7.90         9.504E-2      -7.97         0.81152       -11.50         
39.8980       0.04998       -167.18       9.504E-2      -8.05         9.509E-2      -8.14         0.81145       -11.67         
40.4980       0.04998       -166.93       9.505E-2      -8.17         9.509E-2      -8.20         0.81153       -11.82         
41.0980       0.05005       -166.76       9.508E-2      -8.26         9.51E-2       -8.34         0.81134       -12.00         
41.6979       0.05009       -166.61       9.503E-2      -8.38         9.507E-2      -8.46         0.81165       -12.17         
42.2979       0.05014       -166.46       9.501E-2      -8.50         9.511E-2      -8.57         0.8116        -12.36         
42.8979       0.05018       -166.28       9.504E-2      -8.64         9.507E-2      -8.66         0.8118        -12.53         
43.4978       0.05018       -166.13       9.504E-2      -8.73         9.509E-2      -8.81         0.81191       -12.71         
44.0978       0.05026       -165.94       9.504E-2      -8.86         9.508E-2      -8.91         0.8119        -12.89         
44.6978       0.05032       -165.85       9.499E-2      -8.98         9.509E-2      -9.05         0.81215       -13.07         
45.2978       0.05036       -165.66       9.502E-2      -9.09         9.505E-2      -9.14         0.81214       -13.24         
45.8977       0.05044       -165.43       9.501E-2      -9.21         9.508E-2      -9.26         0.81237       -13.41         
46.4977       0.05042       -165.30       9.496E-2      -9.34         9.503E-2      -9.38         0.81244       -13.59         
47.0977       0.05046       -165.08       9.501E-2      -9.47         9.512E-2      -9.49         0.81352       -13.75         
47.6976       0.0505        -164.90       9.499E-2      -9.61         9.505E-2      -9.62         0.81358       -13.92         
48.2976       0.05058       -164.79       9.505E-2      -9.72         9.506E-2      -9.73         0.8137        -14.08         
48.8976       0.05062       -164.61       9.50E-2       -9.85         9.507E-2      -9.85         0.81393       -14.26         
49.4975       0.05069       -164.47       9.498E-2      -9.98         9.512E-2      -9.95         0.81396       -14.41         
50.0975       0.05068       -164.29       9.498E-2      -10.06        9.506E-2      -10.08        0.81411       -14.57         
50.6975       0.05072       -164.10       9.497E-2      -10.20        9.508E-2      -10.20        0.81429       -14.75         
51.2975       0.05078       -163.94       9.496E-2      -10.29        9.512E-2      -10.36        0.81443       -14.93         
51.8974       0.05088       -163.80       9.49E-2       -10.39        9.515E-2      -10.48        0.81442       -15.08         
52.4974       0.05162       -163.87       9.489E-2      -10.44        9.592E-2      -10.84        0.81251       -15.25         
53.0974       0.05093       -163.36       9.464E-2      -10.45        9.51E-2       -10.70        0.81215       -15.34         
53.6973       0.05096       -163.26       9.498E-2      -10.75        9.51E-2       -10.79        0.81531       -15.59         
54.2973       0.05101       -163.16       9.497E-2      -10.87        9.513E-2      -10.94        0.8154        -15.76         
54.8973       0.05105       -162.98       9.50E-2       -11.01        9.51E-2       -11.04        0.8155        -15.90         
55.4972       0.0511        -162.85       9.497E-2      -11.10        9.513E-2      -11.15        0.81569       -16.06         
56.0972       0.05115       -162.65       9.50E-2       -11.22        9.51E-2       -11.25        0.81564       -16.23         
56.6972       0.05122       -162.47       9.501E-2      -11.34        9.508E-2      -11.35        0.81577       -16.37         
57.2972       0.05129       -162.30       9.498E-2      -11.45        9.512E-2      -11.47        0.81591       -16.53         
57.8971       0.05128       -162.09       9.499E-2      -11.57        9.513E-2      -11.61        0.81604       -16.69         
58.4971       0.05136       -162.02       9.503E-2      -11.67        9.514E-2      -11.75        0.81626       -16.86         
59.0971       0.05138       -161.83       9.505E-2      -11.80        9.513E-2      -11.83        0.81632       -17.00         
59.6970       0.05142       -161.64       9.503E-2      -11.89        9.517E-2      -11.97        0.81664       -17.17         
60.2970       0.05147       -161.48       9.499E-2      -12.01        9.514E-2      -12.07        0.81678       -17.32         
60.8970       0.05154       -161.30       9.504E-2      -12.15        9.518E-2      -12.21        0.81698       -17.48         
61.4969       0.05157       -161.17       9.502E-2      -12.25        9.515E-2      -12.32        0.8169        -17.65         
62.0969       0.05162       -161.01       9.505E-2      -12.37        9.518E-2      -12.42        0.81694       -17.80         
62.6969       0.05164       -160.90       9.508E-2      -12.48        9.514E-2      -12.56        0.81699       -17.96         
63.2969       0.05173       -160.70       9.506E-2      -12.59        9.516E-2      -12.67        0.81718       -18.12         
63.8968       0.05177       -160.56       9.507E-2      -12.71        9.518E-2      -12.80        0.81726       -18.26         
64.4968       0.05184       -160.39       9.511E-2      -12.83        9.519E-2      -12.93        0.81747       -18.43         
65.0968       0.05188       -160.24       9.509E-2      -12.94        9.523E-2      -13.04        0.81756       -18.58         
65.6967       0.05198       -160.04       9.511E-2      -13.07        9.524E-2      -13.15        0.81771       -18.74         
66.2967       0.05197       -159.91       9.512E-2      -13.15        9.522E-2      -13.27        0.81782       -18.90         
66.8967       0.05201       -159.76       9.511E-2      -13.29        9.524E-2      -13.38        0.81779       -19.07         
67.4966       0.05206       -159.60       9.509E-2      -13.40        9.524E-2      -13.50        0.81787       -19.24         
68.0966       0.05209       -159.46       9.51E-2       -13.51        9.526E-2      -13.59        0.81801       -19.39         
68.6966       0.05217       -159.27       9.514E-2      -13.63        9.529E-2      -13.71        0.8182        -19.53         
69.2966       0.05225       -159.11       9.512E-2      -13.76        9.532E-2      -13.81        0.81817       -19.71         
69.8965       0.05233       -158.96       9.515E-2      -13.90        9.532E-2      -13.94        0.81836       -19.87         
70.4965       0.05234       -158.85       9.518E-2      -13.99        9.529E-2      -14.05        0.81857       -20.03         
71.0965       0.05238       -158.70       9.517E-2      -14.12        9.533E-2      -14.16        0.81878       -20.18         
71.6964       0.05247       -158.53       9.514E-2      -14.25        9.533E-2      -14.29        0.81874       -20.33         
72.2964       0.05251       -158.43       9.519E-2      -14.36        9.529E-2      -14.41        0.81893       -20.49         
72.8964       0.0526        -158.32       9.522E-2      -14.50        9.533E-2      -14.55        0.81907       -20.67         
73.4963       0.05268       -158.12       9.52E-2       -14.63        9.531E-2      -14.66        0.8192        -20.82         
74.0963       0.05272       -157.98       9.523E-2      -14.72        9.535E-2      -14.78        0.81943       -20.98         
74.6963       0.05275       -157.92       9.523E-2      -14.86        9.535E-2      -14.88        0.81931       -21.13         
75.2963       0.05283       -157.71       9.521E-2      -14.96        9.536E-2      -14.99        0.81955       -21.29         
75.8962       0.05286       -157.57       9.525E-2      -15.09        9.538E-2      -15.13        0.81971       -21.45         
76.4962       0.05295       -157.35       9.528E-2      -15.20        9.54E-2       -15.24        0.82          -21.61         
77.0962       0.05302       -157.31       9.529E-2      -15.32        9.54E-2       -15.34        0.82015       -21.77         
77.6961       0.05307       -157.15       9.527E-2      -15.44        9.542E-2      -15.49        0.82051       -21.93         
78.2961       0.05317       -156.94       9.529E-2      -15.54        9.544E-2      -15.58        0.82062       -22.09         
78.8961       0.05319       -156.87       9.529E-2      -15.68        9.547E-2      -15.69        0.82086       -22.23         
79.4960       0.05326       -156.67       9.535E-2      -15.77        9.548E-2      -15.81        0.82122       -22.38         
80.0960       0.05329       -156.57       9.532E-2      -15.92        9.548E-2      -15.93        0.82131       -22.55         
80.6960       0.05334       -156.47       9.533E-2      -16.02        9.548E-2      -16.02        0.82158       -22.70         
81.2960       0.05342       -156.34       9.539E-2      -16.16        9.556E-2      -16.16        0.82183       -22.85         
81.8959       0.05347       -156.18       9.538E-2      -16.25        9.555E-2      -16.28        0.82209       -23.00         
82.4959       0.05357       -156.02       9.538E-2      -16.38        9.554E-2      -16.39        0.82235       -23.17         
83.0959       0.05361       -155.85       9.543E-2      -16.49        9.556E-2      -16.49        0.82257       -23.31         
83.6958       0.05369       -155.73       9.544E-2      -16.60        9.556E-2      -16.63        0.82286       -23.47         
84.2958       0.05376       -155.56       9.545E-2      -16.74        9.555E-2      -16.74        0.82306       -23.62         
84.8958       0.05381       -155.45       9.546E-2      -16.86        9.557E-2      -16.90        0.82312       -23.77         
85.4957       0.05388       -155.32       9.55E-2       -16.97        9.559E-2      -17.02        0.8235        -23.94         
86.0957       0.05394       -155.15       9.553E-2      -17.10        9.56E-2       -17.13        0.82348       -24.12         
86.6957       0.05399       -154.96       9.548E-2      -17.22        9.564E-2      -17.25        0.82376       -24.26         
87.2957       0.05408       -154.87       9.555E-2      -17.34        9.563E-2      -17.39        0.82406       -24.43         
87.8956       0.0541        -154.74       9.553E-2      -17.44        9.561E-2      -17.50        0.82416       -24.57         
88.4956       0.05424       -154.55       9.555E-2      -17.56        9.562E-2      -17.60        0.82438       -24.72         
89.0956       0.05429       -154.38       9.557E-2      -17.68        9.561E-2      -17.74        0.82457       -24.87         
89.6955       0.05433       -154.25       9.559E-2      -17.80        9.567E-2      -17.85        0.82486       -25.03         
90.2955       0.0544        -154.13       9.561E-2      -17.92        9.567E-2      -17.96        0.82513       -25.19         
90.8955       0.05446       -154.00       9.563E-2      -18.03        9.564E-2      -18.07        0.82523       -25.35         
91.4954       0.05455       -153.81       9.566E-2      -18.15        9.564E-2      -18.19        0.82548       -25.51         
92.0954       0.0546        -153.66       9.565E-2      -18.28        9.567E-2      -18.31        0.82552       -25.66         
