!    8/10/2020   01:54:49 
! Ref Plane: 0.000 mm
# MHZ S MA R  50
!
0.3000        0.82055       0.22          2.036E-5      -0.84         8.746E-5      74.17         0.99659       -0.36          
0.9000        0.81925       0.25          8.659E-5      -140.78       5.913E-5      -71.07        0.997         -0.29          
1.4999        0.82049       0.23          6.121E-5      179.30        5.291E-5      -12.06        0.99824       -0.27          
2.0999        0.82021       0.20          8.834E-5      -120.64       2.914E-5      84.92         0.99869       -0.21          
2.6999        0.82004       0.14          4.065E-5      -106.96       2.74E-5       -122.36       0.99895       -0.16          
3.2999        0.81994       0.10          1.342E-5      76.18         2.91E-5       -12.60        0.99895       -0.14          
3.8998        0.81988       0.07          8.111E-6      -86.94        3.635E-5      -104.13       0.99906       -0.12          
4.4998        0.81975       0.01          2.315E-5      -134.10       2.957E-5      40.28         0.99907       -0.10          
5.0998        0.81966       -0.04         1.138E-5      -173.94       7.893E-6      110.78        0.99905       -0.09          
5.6997        0.81953       -0.08         3.405E-5      63.93         1.286E-5      -133.72       0.99905       -0.09          
6.2997        0.81951       -0.11         5.512E-5      124.98        2.561E-5      29.51         0.99909       -0.08          
6.8997        0.81947       -0.16         6.663E-5      -107.84       3.217E-5      -15.46        0.99915       -0.08          
7.4996        0.81947       -0.19         1.77E-5       85.97         3.199E-5      92.27         0.99915       -0.07          
8.0996        0.81952       -0.23         5.718E-5      -122.69       2.192E-5      -77.25        0.99912       -0.07          
8.6996        0.8194        -0.29         3.479E-5      100.30        2.083E-5      49.21         0.99916       -0.06          
9.2996        0.81935       -0.33         6.584E-5      -23.37        3.752E-5      8.87          0.99919       -0.06          
9.8995        0.81945       -0.37         5.613E-5      -70.48        3.47E-5       96.61         0.99919       -0.06          
10.4995       0.81931       -0.41         3.077E-5      110.57        1.781E-5      -118.86       0.99928       -0.06          
11.0995       0.81922       -0.45         3.931E-5      -71.88        1.958E-5      82.51         0.9992        -0.06          
11.6994       0.81917       -0.49         1.709E-5      -83.78        5.163E-5      42.53         0.99916       -0.06          
12.2994       0.8192        -0.53         7.482E-5      -156.30       4.169E-5      136.89        0.99925       -0.05          
12.8994       0.81923       -0.57         7.116E-5      77.29         3.458E-5      64.00         0.99918       -0.05          
13.4993       0.81917       -0.61         6.017E-5      -34.10        1.302E-5      13.55         0.99926       -0.05          
14.0993       0.81918       -0.65         3.664E-5      35.12         3.923E-5      -59.29        0.99922       -0.05          
14.6993       0.81917       -0.70         8.679E-5      -135.87       8.829E-6      109.92        0.99921       -0.06          
15.2993       0.81901       -0.73         8.793E-5      128.61        3.893E-5      60.71         0.99927       -0.05          
15.8992       0.81896       -0.79         3.684E-5      47.32         1.346E-5      133.31        0.99932       -0.05          
16.4992       0.81902       -0.81         3.345E-5      148.96        4.668E-5      -53.49        0.99931       -0.06          
17.0992       0.81889       -0.85         5.943E-5      38.26         2.766E-5      71.69         0.99932       -0.06          
17.6991       0.81898       -0.88         2.678E-5      100.86        2.723E-5      108.22        0.99929       -0.05          
18.2991       0.81888       -0.93         6.371E-5      154.92        1.569E-5      11.89         0.99927       -0.05          
18.8991       0.81879       -0.98         2.215E-5      -89.20        3.084E-5      73.34         0.9993        -0.06          
19.4990       0.81892       -1.02         4.655E-5      -7.40         1.975E-5      -39.07        0.99937       -0.06          
20.0990       0.81886       -1.06         2.454E-5      12.72         1.678E-5      79.28         0.9993        -0.06          
20.6990       0.81884       -1.10         4.503E-5      -20.93        1.999E-5      74.83         0.99928       -0.06          
21.2990       0.81881       -1.14         4.368E-5      -108.54       3.341E-5      25.85         0.9994        -0.06          
21.8989       0.81875       -1.18         4.921E-5      -28.21        3.612E-5      82.87         0.99935       -0.06          
22.4989       0.81875       -1.22         7.782E-5      -117.34       1.832E-5      35.69         0.99941       -0.06          
23.0989       0.81864       -1.26         3.672E-5      131.47        2.632E-5      -6.38         0.99946       -0.06          
23.6988       0.81876       -1.30         1.342E-5      -7.62         5.737E-5      6.14          0.99938       -0.06          
24.2988       0.81872       -1.34         3.665E-5      27.24         2.444E-5      -99.88        0.99941       -0.07          
24.8988       0.81873       -1.38         1.076E-5      8.27          9.688E-6      27.06         0.99941       -0.07          
25.4987       0.81872       -1.42         4.452E-5      19.19         2.246E-5      -58.99        0.99945       -0.07          
26.0987       0.81877       -1.45         8.283E-5      146.49        3.288E-5      59.43         0.99941       -0.06          
26.6987       0.81872       -1.50         2.359E-5      155.68        3.634E-5      59.34         0.99943       -0.07          
27.2987       0.8186        -1.54         5.89E-5       22.80         4.229E-5      56.11         0.99943       -0.07          
27.8986       0.81866       -1.58         2.723E-5      -53.20        3.058E-5      47.91         0.99936       -0.07          
28.4986       0.81863       -1.61         2.929E-5      37.71         1.725E-5      -26.36        0.99946       -0.08          
29.0986       0.8187        -1.65         1.754E-5      72.67         5.087E-5      -25.04        0.99954       -0.08          
29.6985       0.81848       -1.69         1.625E-5      131.70        8.899E-6      -149.84       0.99947       -0.08          
30.2985       0.81854       -1.73         1.802E-5      121.18        2.275E-5      -134.41       0.99946       -0.08          
30.8985       0.8186        -1.77         5.766E-5      -48.02        3.499E-5      137.22        0.99944       -0.08          
31.4984       0.81852       -1.80         4.82E-5       84.54         4.701E-5      -133.67       0.99941       -0.08          
32.0984       0.81852       -1.84         6.14E-5       -121.69       2.831E-5      72.34         0.99946       -0.08          
32.6984       0.81853       -1.88         3.85E-5       -115.92       1.88E-5       67.13         0.99946       -0.08          
33.2984       0.81868       -1.92         1.934E-5      -90.96        1.899E-5      129.12        0.99943       -0.08          
33.8983       0.81858       -1.96         5.334E-5      -8.93         7.329E-6      34.30         0.9994        -0.09          
34.4983       0.81837       -2.00         1.374E-5      142.12        1.929E-5      81.55         0.99946       -0.09          
35.0983       0.81851       -2.03         3.303E-5      -91.39        3.235E-5      -56.51        0.9995        -0.09          
35.6982       0.81841       -2.07         3.832E-5      -76.02        3.899E-5      86.99         0.99944       -0.09          
36.2982       0.81843       -2.09         4.394E-5      -101.84       1.287E-5      120.16        0.99952       -0.09          
36.8982       0.81846       -2.13         6.597E-5      -124.14       4.036E-5      22.87         0.99945       -0.09          
37.4981       0.81844       -2.17         3.69E-5       164.37        2.474E-5      43.25         0.99938       -0.09          
38.0981       0.81846       -2.21         2.202E-5      81.83         3.581E-5      134.06        0.99947       -0.10          
38.6981       0.81842       -2.24         2.152E-5      69.97         8.331E-6      66.73         0.99945       -0.10          
39.2981       0.81842       -2.28         5.791E-5      150.85        4.531E-6      84.62         0.99942       -0.10          
39.8980       0.81849       -2.31         2.584E-5      -98.29        5.809E-5      -64.25        0.99946       -0.10          
40.4980       0.81838       -2.36         1.591E-5      -124.36       2.823E-5      16.16         0.99954       -0.11          
41.0980       0.81846       -2.40         5.596E-5      -60.80        6.98E-6       -179.04       0.99946       -0.11          
41.6979       0.81837       -2.43         3.851E-5      70.90         2.357E-5      10.94         0.99957       -0.11          
42.2979       0.81842       -2.47         4.324E-5      83.55         1.677E-5      0.81          0.99951       -0.11          
42.8979       0.81837       -2.51         3.491E-5      -158.46       4.484E-5      140.57        0.99955       -0.11          
43.4978       0.81835       -2.54         5.073E-5      98.77         1.584E-5      66.10         0.99956       -0.11          
44.0978       0.81835       -2.58         2.151E-5      -67.67        2.65E-5       -6.44         0.99954       -0.11          
44.6978       0.8183        -2.60         6.22E-6       110.52        2.956E-5      -8.14         0.99953       -0.12          
45.2978       0.81844       -2.65         5.228E-5      1.18          1.066E-5      -65.91        0.99956       -0.11          
45.8977       0.81839       -2.69         3.308E-5      128.44        2.421E-5      -55.66        0.9995        -0.12          
46.4977       0.81828       -2.72         4.074E-5      151.55        5.068E-6      0.33          0.99951       -0.12          
47.0977       0.81827       -2.74         7.79E-5       44.47         2.196E-5      -39.53        0.99965       -0.12          
47.6976       0.81813       -2.78         4.451E-5      85.76         4.694E-5      162.48        0.99966       -0.13          
48.2976       0.81823       -2.82         4.273E-5      25.53         2.957E-5      143.39        0.9997        -0.12          
48.8976       0.81812       -2.85         3.679E-5      93.46         3.53E-5       177.74        0.99961       -0.13          
49.4975       0.81814       -2.89         2.334E-5      -41.56        4.804E-5      61.69         0.99957       -0.13          
50.0975       0.81819       -2.94         1.437E-5      34.12         1.478E-5      168.71        0.99962       -0.13          
50.6975       0.81824       -2.96         1.273E-5      -169.99       7.897E-6      154.83        0.99956       -0.13          
51.2975       0.8182        -2.99         3.56E-5       17.01         4.546E-6      -1.73         0.99958       -0.13          
51.8974       0.81826       -3.03         5.821E-5      36.85         2.56E-5       19.13         0.99961       -0.14          
52.4974       0.82046       -3.05         2.65E-5       50.73         2.606E-5      68.67         0.99963       -0.14          
53.0974       0.81816       -3.00         6.183E-6      141.82        3.345E-5      -138.27       0.99967       -0.14          
53.6973       0.81817       -3.12         6.751E-5      61.68         1.691E-5      -144.63       0.99967       -0.14          
54.2973       0.81813       -3.16         5.151E-5      177.19        2.804E-5      -43.81        0.99964       -0.14          
54.8973       0.81809       -3.21         3.182E-5      -165.66       3.131E-5      -3.97         0.99967       -0.14          
55.4972       0.81812       -3.23         3.844E-5      96.93         7.192E-6      -107.39       0.99963       -0.15          
56.0972       0.81822       -3.27         6.234E-5      35.32         1.293E-5      143.65        0.99962       -0.15          
56.6972       0.81817       -3.32         6.824E-5      -2.88         1.466E-5      92.93         0.99966       -0.15          
57.2972       0.81813       -3.35         2.212E-5      -143.76       2.578E-5      -153.25       0.99966       -0.15          
57.8971       0.81816       -3.38         4.026E-5      28.33         2.504E-5      90.42         0.99964       -0.15          
58.4971       0.81803       -3.41         2.105E-5      -45.77        6.395E-6      51.29         0.99966       -0.15          
59.0971       0.81807       -3.47         3.501E-5      -13.77        1.651E-5      59.71         0.9997        -0.16          
59.6970       0.81804       -3.49         2.347E-5      92.77         3.498E-5      31.65         0.99966       -0.16          
60.2970       0.81797       -3.53         2.626E-5      107.35        2.301E-5      -100.73       0.99968       -0.15          
60.8970       0.81791       -3.56         5.076E-5      -135.10       2.658E-5      10.27         0.99967       -0.16          
61.4969       0.81788       -3.59         3.845E-5      -163.62       2.534E-5      10.10         0.99967       -0.16          
62.0969       0.81795       -3.63         4.808E-6      64.71         1.333E-5      108.29        0.99964       -0.16          
62.6969       0.81797       -3.67         2.658E-5      -66.07        1.237E-5      -49.50        0.99967       -0.16          
63.2969       0.81789       -3.70         4.081E-5      147.70        1.734E-5      91.32         0.99969       -0.17          
63.8968       0.81773       -3.74         6.572E-5      145.18        1.546E-5      29.93         0.99964       -0.17          
64.4968       0.81774       -3.77         3.98E-5       -47.98        9.213E-6      -148.09       0.99966       -0.17          
65.0968       0.81765       -3.81         3.337E-5      -175.57       2.587E-5      55.32         0.99969       -0.17          
65.6967       0.81767       -3.84         3.134E-5      -77.76        3.178E-6      -48.96        0.99969       -0.17          
66.2967       0.81766       -3.88         5.626E-5      -65.68        8.403E-6      86.89         0.99968       -0.18          
66.8967       0.81777       -3.90         2.952E-5      119.93        3.644E-5      -42.85        0.99973       -0.18          
67.4966       0.81787       -3.94         4.065E-5      115.87        1.44E-5       -142.11       0.99966       -0.18          
68.0966       0.81786       -3.97         1.916E-5      49.43         3.241E-5      28.39         0.99968       -0.18          
68.6966       0.81778       -4.03         3.471E-5      -12.38        6.71E-6       -160.03       0.99969       -0.18          
69.2966       0.81775       -4.05         1.947E-5      45.26         1.742E-5      -133.47       0.99972       -0.18          
69.8965       0.81773       -4.09         4.304E-5      -103.54       1.811E-5      106.86        0.99974       -0.18          
70.4965       0.81768       -4.13         3.655E-5      9.64          2.667E-5      -138.87       0.9997        -0.18          
71.0965       0.81761       -4.16         2.207E-5      157.34        4.222E-5      114.76        0.99969       -0.19          
71.6964       0.81765       -4.20         3.34E-5       87.88         2.469E-5      -35.82        0.99973       -0.19          
72.2964       0.81756       -4.24         3.645E-5      111.40        1.739E-5      4.43          0.99975       -0.19          
72.8964       0.81752       -4.27         2.158E-5      -145.07       2.898E-5      98.22         0.99976       -0.19          
73.4963       0.81752       -4.31         1.606E-5      -78.44        2.764E-5      -54.28        0.9997        -0.19          
74.0963       0.81752       -4.35         5.991E-5      -130.90       3.148E-5      52.68         0.9997        -0.19          
74.6963       0.81756       -4.40         9.093E-6      -178.64       2.25E-5       -91.16        0.99975       -0.19          
75.2963       0.81753       -4.43         4.529E-5      149.31        2.359E-5      -100.66       0.99972       -0.19          
75.8962       0.81745       -4.47         5.002E-5      -156.94       2.089E-5      132.25        0.99975       -0.19          
76.4962       0.81735       -4.50         3.726E-5      -78.45        1.485E-5      149.50        0.99971       -0.19          
77.0962       0.81738       -4.54         1.626E-5      174.44        2.147E-5      142.14        0.99973       -0.19          
77.6961       0.81731       -4.57         3.778E-5      174.39        1.616E-5      63.49         0.99971       -0.19          
78.2961       0.81737       -4.61         5.153E-5      -1.09         3.528E-5      -134.77       0.99977       -0.19          
78.8961       0.8172        -4.65         5.058E-5      67.04         3.513E-5      -106.54       0.99969       -0.19          
79.4960       0.81714       -4.68         6.026E-5      -135.91       1.507E-5      95.82         0.99974       -0.19          
80.0960       0.81722       -4.71         1.534E-5      84.46         3.95E-6       69.10         0.99973       -0.19          
80.6960       0.81727       -4.75         3.642E-5      -174.56       1.571E-5      -123.28       0.99971       -0.19          
81.2960       0.81712       -4.80         9.52E-6       -95.00        2.144E-5      99.47         0.99974       -0.19          
81.8959       0.81707       -4.83         2.089E-5      44.15         1.242E-5      122.73        0.99975       -0.19          
82.4959       0.81716       -4.86         9.827E-6      -42.60        1.675E-5      166.23        0.99976       -0.20          
83.0959       0.81711       -4.91         1.801E-5      64.42         3.206E-5      -166.30       0.99975       -0.20          
83.6958       0.81695       -4.93         4.584E-5      99.49         2.102E-5      -50.03        0.99969       -0.20          
84.2958       0.817         -4.98         1.872E-5      -160.33       1.53E-5       159.71        0.9997        -0.20          
84.8958       0.817         -5.01         2.742E-5      -55.24        1.644E-5      171.60        0.99973       -0.20          
85.4957       0.81685       -5.05         3.727E-5      175.78        2.73E-5       103.79        0.99971       -0.20          
86.0957       0.81704       -5.08         3.715E-5      -84.85        7.576E-6      32.94         0.99964       -0.20          
86.6957       0.81689       -5.12         2.249E-5      -95.86        9.173E-6      172.07        0.99967       -0.21          
87.2957       0.81689       -5.16         6.049E-5      96.16         8.893E-6      170.69        0.99977       -0.20          
87.8956       0.81693       -5.20         2.691E-5      -42.66        2.863E-5      -68.42        0.99973       -0.21          
88.4956       0.81691       -5.24         5.364E-5      49.64         5.149E-6      161.88        0.99976       -0.21          
89.0956       0.81684       -5.27         6.873E-5      119.23        2.857E-5      -66.87        0.99972       -0.21          
89.6955       0.81676       -5.32         2.941E-5      101.38        2.885E-5      52.22         0.99969       -0.21          
90.2955       0.81681       -5.35         1.677E-5      -63.83        2.051E-5      154.68        0.99966       -0.21          
90.8955       0.81668       -5.39         7.016E-5      -106.06       1.335E-5      -69.05        0.99971       -0.21          
91.4954       0.81664       -5.43         5.422E-5      -114.36       5.047E-6      -99.40        0.99974       -0.21          
92.0954       0.81666       -5.47         1.717E-5      150.81        1.381E-5      -178.66       0.99969       -0.21          
